! Tyco Electronics Strada Whisper System
! NEXT_F1415_G1112
!! 
!! SYSTEM DESCRIPTION: Daughtercard-Footprint-Connector-Footprint-Daughtercard
!! PCB DESCRIPTION: DC: 140mil, Megtron7N, upper layer route, 15mil stub, 6-6-6mil 14" traces
!! CONNECTOR DESCRIPTION: Next-Gen STRADA Whisper Direct-Plug Orthogonal Connector
!! MODEL DESCRIPTION: Tyco Electronics System 4-port S-parameter 
!! MODEL STATUS: Developmental
!! MODEL GEOMETRY: Channel Model
!! MODEL FREQUENCY RANGE: DC to 60 GHz in 10 MHz frequency steps
!! MODEL EDGE RATE LIMITATION: 8.3 ps (Using conservative 0.5/Fmax rule of thumb)
!! 
!! TIME-DOMAIN TRANSFORM CAUTIONS: 
!! 1.) Do not simulate transient edge rates faster than the number listed above.  Edge rates faster than this number 
!!     contain significant spectral content at frequencies above the model's highest frequency. 
!! 2.) Even when simulating edge rates that are slower than the number listed above, be aware that the best time 
!!     resolution possible with a direct iFFT is (1 / 2Fmax).  As a result, time resolution is typically not adequate 
!!     for most time-domain simulations unless tricks such as windowing are used to minimize leakage and aliasing. 
!! 3.) Because the model has a uniform frequency step, a direct iFFT will result in an impulse that that has a time 
!!     length given by either (1 / Fstep) or (1 / 2Fstep), depending on the transform being used.  Care has been taken 
!!     in selecting the frequency step to ensure a settled impulse response for the model.  Therefore, convolution with 
!!     the model's impulse response should present no issues.  However, if directly concatenating s-parameter models 
!!     in the frequency domain a user must either interpolate necessary interim frequencies or complete impulse response 
!!     zero-padding.  Impulse response zero-padding is more difficult, but more accurate. 
!! 
!! PORT DEFINITIONS: 
!! Port   1  ----->  RX Side	F14     G11     RX Side  <-----  Port   3
!! Port   2  ----->  RX Side	F15     G12     RX Side  <-----  Port   4
!! 
!!!!!!!!!!!!!!!!!!!!!!!!!!!!!!!!!!!!!!!!!!!!!!!!!!!!!!!!!!!!!!!!!!!!!!!!!!!!!!!!!!!!!!!!!!!!!!!!!!!!!!!!!!!!!!!!!!!!!!!!! Touchstone data
! Created: 10-Dec-2018 by IdEM R2012 (8.0.5)
# Hz S MA R 50

!
                   0         0.0574742849                    0      1.10340261e-006                    0        0.00170201038                    0      1.70487724e-006                    0
     1.10340261e-006                    0         0.0578861211                    0      6.60658714e-007                    0        0.00192111668                    0
       0.00170201038                    0      6.60658714e-007                    0         0.0577228862                    0      1.05122082e-006                    0
     1.70487724e-006                    0        0.00192111668                    0      1.05122082e-006                    0         0.0582612873                    0

!
            10000000         0.0694620022           14.5548236      3.42673566e-006   -76.61436140000002         0.0381053265           69.1095096      5.90316142e-006          -88.6308459
     3.42673566e-006   -76.61436140000002         0.0698129042           14.4401243      1.01644949e-005          -100.257954         0.0381229595           68.8513257
        0.0381053265           69.1095096      1.01644949e-005          -100.257954         0.0698680944           14.6884231      3.35925865e-006           39.7075181
     5.90316142e-006          -88.6308459         0.0381229595           68.8513257      3.35925865e-006           39.7075181           0.07029452           14.4863593

!
            20000000         0.0906842928           14.4981402 7.732170730000001e-006          -98.2636167  0.07178283520000001            52.246734       1.2061552e-005           -113.71615
7.732170730000001e-006          -98.2636167  0.09099276649999999           14.4432462      2.14015393e-005          -117.252973  0.07184281400000001           52.2125424
 0.07178283520000001            52.246734      2.14015393e-005          -117.252973         0.0914041241           14.6489878      6.20286686e-006           15.8937647
      1.2061552e-005           -113.71615  0.07184281400000001           52.2125424      6.20286686e-006           15.8937647          0.091709768            14.504346

!
            30000000          0.108772828           5.94750808      1.38579097e-005          -118.578128  0.09778121289999998           34.8361739      1.93926528e-005          -134.725328
     1.38579097e-005          -118.578128          0.109142263           5.99008936      3.45229367e-005          -134.539126  0.09795914170000002           34.9195052
 0.09778121289999998           34.8361739      3.45229367e-005          -134.539126          0.109838674    6.089526199999999 8.676061540000001e-006          -14.1819134
     1.93926528e-005          -134.725328  0.09795914170000002           34.9195052 8.676061540000001e-006          -14.1819134          0.110144112           6.05599877

!
            40000000          0.117989794          -6.42401121      2.19935392e-005          -140.673942          0.113846182           17.4752712      2.81456331e-005          -155.702255
     2.19935392e-005          -140.673942          0.118535398   -6.280447109999999      4.99293547e-005          -153.087187          0.114237542            17.650931
         0.113846182           17.4752712      4.99293547e-005          -153.087187          0.119411839          -6.28873973      1.06580426e-005   -47.09274880000001
     2.81456331e-005          -155.702255          0.114237542            17.650931      1.06580426e-005   -47.09274880000001           0.11985153          -6.21158685

!
            50000000           0.11586537          -20.7492961      3.22615436e-005          -164.466872          0.118663081          0.198370535        3.855946e-005          -177.435566
     3.22615436e-005          -164.466872          0.116706566          -20.4975745      6.77863124e-005          -172.977928          0.119377068          0.457531962
         0.118663081          0.198370535      6.77863124e-005          -172.977928          0.117654434          -20.6145958      1.21296591e-005   -83.10145060000001
       3.855946e-005          -177.435566          0.119377068          0.457531962      1.21296591e-005   -83.10145060000001          0.118364126          -20.4272468

!
            60000000           0.10144739          -36.3854264      4.46836673e-005           170.215434          0.111630278          -17.0167189      5.07926841e-005           159.762826
     4.46836673e-005           170.215434          0.102702762          -36.0046907      8.79984141e-005           165.789778          0.112778908          -16.6815824
         0.111630278          -17.0167189      8.79984141e-005           165.789778          0.103616511   -36.24199320000001       1.3198905e-005          -123.404843
     5.07926841e-005           159.762826          0.112778908          -16.6815824       1.3198905e-005          -123.404843          0.104727883          -35.9358652

!
            70000000  0.07479516310000002          -53.2902723 5.898142770000001e-005           143.467876         0.0928995945   -34.00515059999999      6.47221883e-005           135.712606
5.898142770000001e-005           143.467876         0.0765630442   -52.72208200000001       0.000109970059            143.22792  0.09457419610000001          -33.6183659
        0.0928995945   -34.00515059999999       0.000109970059            143.22792  0.07735392570000001          -53.1120311      1.42601504e-005          -169.207091
     6.47221883e-005           135.712606  0.09457419610000001          -33.6183659      1.42601504e-005          -169.207091  0.07897527720000001          -52.6578833

!
            80000000         0.0371713504          -72.6284065      7.43239689e-005           115.457083           0.06377692   -49.80828830000001 7.967214440000001e-005            110.41869
     7.43239689e-005           115.457083  0.03948377890000001          -71.5435296       0.000132311404           119.453808         0.0660043941          -49.4860288
          0.06377692   -49.80828830000001       0.000132311404           119.453808         0.0401135513   -72.20915030000001      1.61403221e-005           140.101055
7.967214440000001e-005            110.41869         0.0660043941          -49.4860288      1.61403221e-005           140.101055          0.042287282           -71.427104

!
            90000000 0.009297075009999999           112.587012       8.9254908e-005    86.55181210000001          0.027546967          -57.6054803      9.43206711e-005    84.17621060000001
      8.9254908e-005    86.55181210000001        0.00653720573             118.5086       0.000152850955    94.79660850000001         0.0301713901          -58.5536317
         0.027546967          -57.6054803       0.000152850955    94.79660850000001 0.006248001750000001           122.569789      1.97305639e-005    88.46422200000001
     9.43206711e-005    84.17621060000001         0.0301713901          -58.5536317      1.97305639e-005    88.46422200000001        0.00402453614           140.427044

!
           100000000         0.0585503149    79.18367739999999       0.000102048923           57.3418219         0.0170087274    53.58765560000001       0.000107067878    57.57245850000001
      0.000102048923           57.3418219         0.0553685331           79.6085537       0.000169283026           69.8106353         0.0145106915           47.7720771
        0.0170087274    53.58765560000001       0.000169283026           69.8106353         0.0549070331            79.536019      2.51557376e-005           40.2162148
      0.000107067878    57.57245850000001         0.0145106915           47.7720771      2.51557376e-005           40.2162148         0.0519004533    80.25168669999999

!
           110000000           0.10671562           59.9867144       0.000111422335           28.5127875  0.05446549729999999    57.37945910000001        0.00011678686           31.3264187
      0.000111422335           28.5127875          0.103456022           60.4850319       0.000180215895           45.1459257         0.0513560457           57.4913842
 0.05446549729999999    57.37945910000001       0.000180215895           45.1459257          0.102783518           60.2032837      3.16991513e-005          -3.21463273
       0.00011678686           31.3264187         0.0513560457           57.4913842      3.16991513e-005          -3.21463273         0.0997142093           60.8875068

!
           120000000          0.148762241           41.9275626       0.000117062338   0.6441958089999998          0.087809161           43.2543648       0.000123368303    6.040049590000001
      0.000117062338   0.6441958089999998          0.145665296           42.4728244       0.000185769247           21.3417446         0.0847965344           43.7817735
         0.087809161           43.2543648       0.000185769247           21.3417446          0.144584911           42.1228225      3.84791083e-005   -42.25745199999999
      0.000123368303    6.040049590000001         0.0847965344           43.7817735      3.84791083e-005   -42.25745199999999          0.141711673           42.8244296

!
           130000000          0.181482787            24.529346       0.000119541779          -25.9387124           0.11296635           27.5249572       0.000127587726          -17.9836799
      0.000119541779          -25.9387124          0.178726187            25.094584       0.000187208785          -1.31721778          0.110231995           28.1683511
          0.11296635           27.5249572       0.000187208785          -1.31721778          0.177083529           24.7284861      4.49368432e-005          -77.7055577
      0.000127587726          -17.9836799          0.110231995           28.1683511      4.49368432e-005          -77.7055577          0.174601192           25.4393321

!
           140000000          0.203266079    7.642505439999998       0.000119798069          -51.1857181          0.128513856             11.68418       0.000130509125          -40.7626703
      0.000119798069          -51.1857181          0.200951077    8.211551650000001       0.000186068963          -22.8021692          0.126150291           12.3788659
         0.128513856             11.68418       0.000186068963          -22.8021692          0.198646261    7.859838049999999 5.091216630000001e-005          -110.320835
      0.000130509125          -40.7626703          0.126150291           12.3788659 5.091216630000001e-005          -110.320835          0.196672166    8.571599620000001

!
           150000000          0.213604561   -8.894637319999999       0.000118630247   -75.24338930000002          0.134038428   -4.025879610000001       0.000132943508          -62.5255347
      0.000118630247   -75.24338930000002          0.211774898          -8.33085054       0.000183491955           -43.232001           0.13208775          -3.29702993
         0.134038428   -4.025879610000001       0.000183491955           -43.232001          0.208747707   -8.644102330000001      5.64954954e-005          -140.818043
      0.000132943508          -62.5255347           0.13208775          -3.29702993      5.64954954e-005          -140.818043           0.20733952   -7.936249939999998

!
           160000000          0.212575386          -25.2570187       0.000116433889   -98.33719480000001          0.129560698          -19.6219907       0.000135211764          -83.5521451
      0.000116433889   -98.33719480000001          0.211241596          -24.7054341       0.000180051466          -62.7317258          0.128041286          -18.8609088
         0.129560698          -19.6219907       0.000180051466          -62.7317258          0.207456106          -24.9521391       6.1836246e-005          -169.876252
      0.000135211764          -83.5521451          0.128041286          -18.8609088       6.1836246e-005          -169.876252           0.20663474          -24.2524616

!
           170000000          0.200608336          -41.5832089       0.000113151239          -120.639661          0.115354143          -35.0866451       0.000137178725          -104.027156
      0.000113151239          -120.639661          0.199760258            -41.05503       0.000175961692   -81.31032140000001          0.114269983          -34.2929621
         0.115354143          -35.0866451       0.000175961692   -81.31032140000001          0.195204548          -41.1897542      6.69773427e-005           161.874954
      0.000137178725          -104.027156          0.114269983          -34.2929621      6.69773427e-005           161.874954          0.194964673          -40.5077995

!
           180000000          0.178611226   -57.90798730000001       0.000108398533          -142.117166  0.09216078480000001   -50.07776200000001       0.000138487867          -123.935455
      0.000108398533          -142.117166           0.17821177   -57.42836370000001       0.000171542741          -98.7940881  0.09148965739999999   -49.26099059999999
 0.09216078480000001   -50.07776200000001       0.000171542741          -98.7940881          0.172919091           -57.364741      7.17254862e-005           133.900588
      0.000138487867          -123.935455  0.09148965739999999   -49.26099059999999      7.17254862e-005           133.900588          0.173220152          -56.7254334

!
           190000000          0.148351827   -74.07372239999999       0.000101816689          -162.352361  0.06171439000000001   -63.04938020000001       0.000138979824          -143.028829
      0.000101816689          -162.352361          0.148312609          -73.6989243       0.000167826584          -114.887203         0.0613768882   -62.25614070000001
 0.06171439000000001   -63.04938020000001       0.000167826584          -114.887203          0.142403406          -73.2589224      7.55893946e-005           105.833041
      0.000138979824          -143.028829         0.0613768882   -62.25614070000001      7.55893946e-005           105.833041          0.143142041   -72.72203690000001

!
           200000000          0.112819504          -89.5934101      9.36918683e-005           179.605321          0.027948858          -64.3642588       0.000139201984          -160.927029
     9.36918683e-005           179.605321          0.112968294          -89.4460528       0.000166948291          -129.470599         0.0277447546   -63.78898029999999
         0.027948858          -64.3642588       0.000166948291          -129.470599          0.106707267          -88.2291178      7.78579292e-005           77.5351043
      0.000139201984          -160.927029         0.0277447546   -63.78898029999999      7.78579292e-005           77.5351043          0.107680936   -87.93333749999999

!
           210000000         0.0761909556          -103.324683 8.571671599999999e-005           165.141207         0.0182086758            21.227858        0.00014066438           -177.40715
8.571671599999999e-005           165.141207         0.0762442966          -103.679362        0.00017164241          -143.058393  0.01800327880000001           23.2210282
        0.0182086758            21.227858        0.00017164241          -143.058393  0.07012975489999999          -100.639458 7.783454260000001e-005    49.08990730000001
       0.00014066438           -177.40715  0.01800327880000001           23.2210282 7.783454260000001e-005    49.08990730000001         0.0709992812          -100.924733

!
           220000000         0.0432988583          -112.208433      8.13896253e-005           155.108533          0.047587815    34.97103440000001       0.000145422688           167.249275
     8.13896253e-005           155.108533         0.0428237194          -113.713343       0.000183737193          -156.837977         0.0477910527    36.69222180000001
         0.047587815    34.97103440000001       0.000183737193          -156.837977          0.037920013           -105.35651 7.508016030000001e-005           20.6923235
      0.000145422688           167.249275         0.0477910527    36.69222180000001 7.508016030000001e-005           20.6923235         0.0381170627          -107.135279

!
           230000000         0.0194360302          -104.865269      8.49182085e-005           147.729303         0.0732712071           23.5483681       0.000155143376           152.227068
     8.49182085e-005           147.729303         0.0177342512          -107.989809       0.000203099277          -171.961614         0.0740273077           25.2111558
        0.0732712071           23.5483681       0.000203099277          -171.961614         0.0176695176           -82.232254 6.945166279999999e-005          -7.49492769
      0.000155143376           152.227068         0.0740273077           25.2111558 6.945166279999999e-005          -7.49492769         0.0161780217          -85.1425976

!
           240000000         0.0114968375           -61.284819 9.834938600000001e-005           138.730556         0.0897483619    8.734981679999999        0.00017049126           136.595381
9.834938600000001e-005           138.730556        0.00969125639   -50.40303410000001       0.000228177778           171.057265         0.0912743785           10.4232389
        0.0897483619    8.734981679999999       0.000228177778           171.057265         0.0173509782           -40.757612      6.09124362e-005          -35.4083976
       0.00017049126           136.595381         0.0912743785           10.4232389      6.09124362e-005          -35.4083976         0.0159785586   -34.33077589999999

!
           250000000         0.0106399783          -42.1235386       0.000120510285            125.41174         0.0952440869   -6.826605849999999       0.000191240715           119.712256
