!$Gore$
!C2C PCB Topology at Nominal
!Tuned Ballou BGA and Tuned Mayfield BOR
!Created with Channel Assembly Tool v1.0.4
# Hz S RI R 50
1e+07	0.02502518	-0.001208661	0.9698878	-0.0958024	0.001592392	0.003854123	-0.001157161	-7.427392e-05
	0.9698878	-0.09580242	0.02493072	-0.001264876	-0.001157108	-7.445858e-05	0.001491756	0.00388728
	0.001592392	0.003854146	-0.001157079	-7.449834e-05	0.02502256	-0.0011894	0.9699064	-0.09566397
	-0.001157132	-7.43137e-05	0.001491823	0.003887177	0.9699064	-0.09566395	0.02492788	-0.001245672
2e+07	0.02576238	-0.004952515	0.9546084	-0.187752	0.002906171	0.007830493	-0.001195151	-0.0004397659
	0.9546084	-0.187752	0.02553862	-0.005032976	-0.001194749	-0.0004393886	0.002513175	0.007921786
	0.002906149	0.007830486	-0.001194542	-0.0004390657	0.02576383	-0.004912889	0.9546699	-0.1874821
	-0.001195062	-0.0004397457	0.002512962	0.007920368	0.9546699	-0.187482	0.02553817	-0.004990592
3e+07	0.02569194	-0.008924794	0.9312125	-0.2775003	0.004999109	0.01132303	-0.001317071	-0.0007388773
	0.9312125	-0.2775003	0.02491158	-0.008848387	-0.001317124	-0.0007389585	0.004180176	0.01167025
	0.004999107	0.01132304	-0.001317079	-0.0007389489	0.02569873	-0.008861499	0.9313412	-0.2771091
	-0.001317063	-0.0007388845	0.00418016	0.01167013	0.9313412	-0.2771091	0.02492197	-0.008787437
4e+07	0.02478343	-0.01283794	0.8996059	-0.3644695	0.007824347	0.01431097	-0.001483926	-0.001000038
	0.8996059	-0.3644695	0.02348537	-0.01246098	-0.001484415	-0.0009997063	0.006445253	0.01502522
	0.007824348	0.01431096	-0.001484475	-0.0009996776	0.02480839	-0.01276567	0.8998245	-0.363969
	-0.001483938	-0.001000014	0.006445273	0.01502535	0.8998245	-0.363969	0.02350377	-0.01237134
5e+07	0.02326858	-0.01656735	0.8600099	-0.4479165	0.01124152	0.01663796	-0.001693869	-0.0012403
	0.8600099	-0.4479165	0.0213844	-0.01572925	-0.001694578	-0.001239772	0.00920843	0.01792069
	0.01124152	0.01663796	-0.001694595	-0.001239741	0.02330787	-0.01647845	0.8603385	-0.4473223
	-0.001693866	-0.00124028	0.009208451	0.01792075	0.8603385	-0.4473223	0.02142247	-0.01562521
6e+07	0.02122449	-0.02006401	0.8127623	-0.5271132	0.01510423	0.01821103	-0.001949963	-0.001461613
	0.8127623	-0.5271132	0.01873794	-0.01855324	-0.001951295	-0.001460799	0.01237828	0.02028973
	0.01510423	0.01821103	-0.001951299	-0.001460837	0.02129495	-0.01995277	0.8132184	-0.5264418
	-0.001949978	-0.001461637	0.01237825	0.02028967	0.8132184	-0.5264418	0.0187846	-0.01844969
7e+07	0.01870744	-0.02326254	0.7582873	-0.601356	0.0192605	0.01895762	-0.002256562	-0.001661795
	0.7582873	-0.601356	0.01565536	-0.02086955	-0.002258538	-0.00166015	0.01585231	0.02207836
	0.01926048	0.01895763	-0.002258601	-0.001660225	0.01882141	-0.02314286	0.7588876	-0.6006258
	-0.002256636	-0.001661848	0.0158522	0.02207824	0.7588876	-0.6006258	0.01570106	-0.02076289
8e+07	0.0157805	-0.02610728	0.6970884	-0.6699798	0.02354525	0.01883044	-0.002618634	-0.001834542
	0.6970884	-0.6699798	0.01223404	-0.02262723	-0.002620795	-0.001831819	0.01952008	0.023252
	0.02354521	0.01883047	-0.002620919	-0.001831843	0.01593083	-0.02599726	0.6978486	-0.6692132
	-0.00261877	-0.001834567	0.01951992	0.02325192	0.6978487	-0.6692132	0.01228607	-0.02251014
9e+07	0.01250592	-0.02855772	0.6297418	-0.7323721	0.02778466	0.01781418	-0.003039761	-0.00196981
	0.6297418	-0.7323721	0.008571612	-0.02378329	-0.003041749	-0.001966379	0.02326784	0.02379723
	0.02778461	0.01781425	-0.003041864	-0.001966287	0.01266979	-0.02846404	0.6306735	-0.7315968
	-0.003039896	-0.001969737	0.02326772	0.02379728	0.6306735	-0.7315968	0.008650146	-0.0236602
1e+08	0.008941276	-0.03058232	0.5568862	-0.7879846	0.03180423	0.01592835	-0.003520867	-0.002054973
	0.5568862	-0.7879846	0.004771115	-0.02430609	-0.003523014	-0.002051545	0.02698276	0.02372192
	0.03180418	0.01592848	-0.003523017	-0.002051336	0.009090781	-0.03049367	0.5579933	-0.7872326
	-0.00352087	-0.002054764	0.02698279	0.02372215	0.5579933	-0.7872326	0.004898037	-0.02419924
1.1e+08	0.005157684	-0.03212862	0.4791841	-0.8363289	0.03544418	0.01321648	-0.004061938	-0.002072553
	0.4791841	-0.8363289	0.0008997703	-0.0241612	-0.004064985	-0.002072673	0.03054396	0.02304248
	0.03544424	0.01321659	-0.004064925	-0.002072519	0.005282603	-0.03206672	0.4804714	-0.8356218
	-0.004061913	-0.002072442	0.03054397	0.02304265	0.4804714	-0.8356218	0.001073527	-0.02405891
1.2e+08	0.001179875	-0.03319539	0.3973791	-0.877009	0.0385392	0.009767152	-0.004654744	-0.002013154
	0.3973791	-0.877009	-0.002854486	-0.02337688	-0.00465959	-0.002013693	0.03386708	0.02182577
	0.03853931	0.009767211	-0.004659504	-0.002013597	0.001304967	-0.03314658	0.3988464	-0.8763747
	-0.004654714	-0.002013099	0.03386707	0.02182589	0.3988464	-0.8763747	-0.002666508	-0.0232959
1.3e+08	-0.002916047	-0.03375101	0.3122255	-0.9096892	0.04095362	0.005691771	-0.0052917	-0.001861388
	0.3122255	-0.9096892	-0.006404463	-0.02198695	-0.0052979	-0.001860409	0.03686437	0.02013422
	0.04095374	0.005691785	-0.005297814	-0.001860361	-0.002781926	-0.03371672	0.313869	-0.9091557
	-0.005291675	-0.001861365	0.03686435	0.02013433	0.313869	-0.9091557	-0.006219861	-0.02192889
1.4e+08	-0.00705342	-0.03378165	0.2245034	-0.9341077	0.04257426	0.001124642	-0.005960966	-0.00160239
	0.2245035	-0.9341077	-0.00966325	-0.02003101	-0.005967604	-0.001598918	0.03946305	0.01804561
	0.04257438	0.001124618	-0.005967532	-0.001598904	-0.006910953	-0.03376685	0.2263156	-0.933703
	-0.005960948	-0.001602384	0.03946301	0.0180457	0.2263156	-0.933703	-0.009491266	-0.0199929
1.5e+08	-0.01115708	-0.03328726	0.1350114	-0.9500788	0.04331407	-0.00378123	-0.006646603	-0.001222887
	0.1350114	-0.9500788	-0.01254623	-0.01755904	-0.006652722	-0.001216611	0.04160771	0.01564935
	0.04331418	-0.003781281	-0.006652669	-0.001216616	-0.011012	-0.03329594	0.136981	-0.9498299
	-0.006646591	-0.001222889	0.04160768	0.01564944	0.136981	-0.9498299	-0.01239202	-0.01753707
1.6e+08	-0.01515441	-0.03227921	0.04455892	-0.9574931	0.0431151	-0.008858994	-0.00732891	-0.000712205
	0.04455892	-0.9574931	-0.01497394	-0.01463334	-0.007333687	-0.0007032203	0.04326203	0.01304267
	0.04311518	-0.008859061	-0.007333652	-0.0007032338	-0.01501465	-0.03231299	0.04667132	-0.957426
	-0.007328904	-0.0007122105	0.043262	0.01304275	0.04667132	-0.957426	-0.01484098	-0.01462376
1.7e+08	-0.01897614	-0.03077907	-0.04604025	-0.9563181	0.04195047	-0.01393332	-0.007984971	-6.320875e-05
	-0.04604024	-0.9563181	-0.01687511	-0.01132894	-0.007987761	-5.18341e-05	0.04440964	0.01032662
	0.04195053	-0.0139334	-0.007987741	-5.184895e-05	-0.01885005	-0.03083702	-0.04380334	-0.9564575
	-0.007984968	-6.321474e-05	0.04440962	0.0103267	-0.04380334	-0.9564575	-0.0167663	-0.01132795
1.8e+08	-0.02255714	-0.02881781	-0.1359757	-0.9465979	0.03982554	-0.01882611	-0.0085894	0.0007268853
	-0.1359757	-0.9465979	-0.01818957	-0.007732742	-0.008589723	0.0007402233	0.04505421	0.007602065
	0.03982558	-0.01882619	-0.008589713	0.0007402113	-0.02245252	-0.02889681	-0.1336358	-0.9469661
	-0.0085894	0.0007268803	0.0450542	0.007602138	-0.1336358	-0.9469661	-0.01810759	-0.007736171
1.9e+08	-0.0258374	-0.02643526	-0.2244471	-0.9284519	0.03677783	-0.02336229	-0.009115285	0.001655861
	-0.2244471	-0.9284519	-0.01887073	-0.003941939	-0.009112788	0.001670691	0.04521885	0.004965819
	0.03677785	-0.02336235	-0.009112784	0.001670683	-0.0257609	-0.0265304	-0.2220288	-0.9290691
	-0.009115286	0.001655858	0.04521885	0.004965885	-0.2220288	-0.9290691	-0.01881796	-0.00394494
2e+08	-0.02876315	-0.0236795	-0.3106711	-0.9020733	0.03287605	-0.02737552	-0.009535281	0.002716074
	-0.3106711	-0.9020733	-0.01888774	-6.177341e-05	-0.00952971	0.002731904	0.04494473	0.002507019
	0.03287606	-0.02737558	-0.009529709	0.002731902	-0.02872001	-0.02378455	-0.3082018	-0.9029569
	-0.009535282	0.002716072	0.04494474	0.002507076	-0.3082018	-0.9029569	-0.01886601	-5.87031e-05
2.1e+08	-0.03128807	-0.02060612	-0.3938879	-0.8677273	0.02821805	-0.03071369	-0.009822811	0.003894276
	-0.3938879	-0.8677273	-0.01822708	0.003797113	-0.009813986	0.003910607	0.04428909	0.0003038673
	0.02821805	-0.03071374	-0.009813986	0.003910609	-0.03128195	-0.02071393	-0.3913975	-0.8688917
	-0.009822812	0.003894276	0.0442891	0.000303915	-0.3913975	-0.8688917	-0.01823731	0.003812654
2.2e+08	-0.03337455	-0.01727713	-0.4733677	-0.825748	0.02292779	-0.03324381	-0.009953307	0.005171729
	-0.4733677	-0.825748	-0.01689365	0.007521652	-0.009941113	0.005188047	0.04332267	-0.001579147
	0.02292778	-0.03324385	-0.009941112	0.005188051	-0.03340744	-0.01737998	-0.4708882	-0.8272042
	-0.009953308	0.00517173	0.04332268	-0.001579108	-0.4708882	-0.8272042	-0.01693558	0.00755663
2.3e+08	-0.03499477	-0.01375972	-0.5484165	-0.7765353	0.01715159	-0.03485644	-0.009905425	0.006524602
	-0.5484165	-0.7765353	-0.01491133	0.01099953	-0.009889809	0.00654038	0.04212671	-0.003093459
	0.01715157	-0.03485647	-0.009889807	0.006540386	-0.03506701	-0.01384966	-0.5459817	-0.7782908
	-0.009905425	0.006524604	0.04212673	-0.00309343	-0.5459817	-0.7782908	-0.01498325	0.01106119
2.4e+08	-0.03613166	-0.0101246	-0.6183821	-0.7205515	0.01105357	-0.03546919	-0.009662156	0.007924663
	-0.6183821	-0.7205516	-0.01232289	0.01412246	-0.009643135	0.007939358	0.04078964	-0.004208019
	0.01105356	-0.03546921	-0.009643132	0.007939365	-0.03624193	-0.01019376	-0.6160273	-0.7226099
	-0.009662155	0.007924666	0.04078966	-0.004207998	-0.6160273	-0.7226099	-0.01242155	0.01421801
2.5e+08	-0.0367795	-0.006444186	-0.6826597	-0.6583171	0.004810648	-0.03502952	-0.009211769	0.009340221
	-0.6826597	-0.6583171	-0.009189389	0.01678953	-0.009189441	0.009353285	0.03940348	-0.004910198
	0.004810636	-0.03502953	-0.009189436	0.009353292	-0.03692492	-0.006485078	-0.6804211	-0.6606778
	-0.009211768	0.009340224	0.0394035	-0.004910183	-0.6804211	-0.6606778	-0.009309979	0.0169257
2.6e+08	-0.03694426	-0.002790629	-0.7406969	-0.5904057	-0.001392955	-0.03351647	-0.008548527	0.01073728
	-0.7406969	-0.5904057	-0.005588946	0.01891032	-0.008523071	0.01074817	0.03806028	-0.005206009
	-0.001392966	-0.03351648	-0.008523065	0.01074817	-0.03712046	-0.002796431	-0.7386112	-0.5930642
	-0.008548525	0.01073728	0.03806029	-0.005206	-0.7386112	-0.5930642	-0.005725126	0.01909307
2.7e+08	-0.03664343	0.0007662968	-0.7919983	-0.5174396	-0.007371324	-0.03094147	-0.007673109	0.01208084
	-0.7919983	-0.5174396	-0.0016149	0.020408	-0.0076448	0.01208903	0.03684849	-0.00511965
	-0.007371333	-0.03094148	-0.007644793	0.01208904	-0.03684474	0.0008014719	-0.7901024	-0.520387
	-0.007673106	0.01208085	0.0368485	-0.005119645	-0.7901024	-0.520387	-0.001758984	0.02064211
2.8e+08	-0.03590554	0.004161247	-0.8361299	-0.4400838	-0.01294254	-0.02734812	-0.006592731	0.01333631
	-0.8361299	-0.4400838	0.00262655	0.02122194	-0.006561929	0.01334131	0.03584963	-0.004692373
	-0.01294254	-0.02734812	-0.006561921	0.01334132	-0.03612515	0.004242112	-0.8344602	-0.4433069
	-0.006592726	0.01333631	0.03584964	-0.004692372	-0.8344602	-0.4433069	0.002483364	0.02151075
2.9e+08	-0.03476913	0.007335272	-0.8727229	-0.3590403	-0.01793418	-0.022811	-0.005320928	0.01447084
	-0.8727229	-0.3590403	0.007019224	0.02131001	-0.005288079	0.01447223	0.03513515	-0.003980768
	-0.01793418	-0.022811	-0.005288071	0.01447223	-0.03499938	0.007465158	-0.871315	-0.3625215
	-0.005320922	0.01447084	0.03513516	-0.003980768	-0.871315	-0.3625215	0.006886554	0.02165515
3e+08	-0.03328148	0.01023756	-0.9014767	-0.2750417	-0.02218859	-0.01743352	-0.003877019	0.01545464
	-0.9014767	-0.2750417	0.01144026	0.02065031	-0.003842643	0.01545208	0.03476374	-0.003054495
	-0.02218859	-0.01743352	-0.003842635	0.01545208	-0.03351408	0.01041827	-0.9003649	-0.2787592
	-0.003877012	0.01545464	0.03476374	-0.003054496	-0.9003649	-0.2787592	0.01132819	0.02105155
3.1e+08	-0.0314968	0.01282692	-0.9221621	-0.1888445	-0.02556757	-0.01134496	-0.002285296	0.01626213
	-0.9221621	-0.1888445	0.01576373	0.01924235	-0.002249971	0.01625536	0.03477911	-0.001993566
	-0.02556757	-0.01134496	-0.002249962	0.01625537	-0.03172319	0.01305858	-0.9213786	-0.1927722
	-0.002285288	0.01626214	0.03477912	-0.001993567	-0.9213786	-0.1927722	0.01568244	0.01969745
3.2e+08	-0.02947434	0.0150728	-0.9346225	-0.1012226	-0.02795654	-0.004696672	-0.0005739503	0.01687281
	-0.9346225	-0.1012226	0.0198645	0.01710743	-0.0005382907	0.01686169	0.03520835	-0.0008852765
	-0.02795654	-0.004696671	-0.0005382813	0.01686169	-0.02968601	0.01535389	-0.9341973	-0.1053304
	-0.0005739411	0.01687282	0.03520835	-0.0008852782	-0.9341973	-0.1053304	0.01982385	0.01761217
3.3e+08	-0.02727617	0.01695602	-0.9387758	-0.01295962	-0.02926796	0.002342327	0.00122615	0.01727189
	-0.9387758	-0.01295962	0.02362214	0.01428848	0.001261519	0.01725637	0.03606081	0.0001791112
	-0.02926796	0.002342328	0.001261529	0.01725637	-0.02746497	0.01728333	-0.938736	-0.01721355
	0.00122616	0.01727189	0.03606081	0.0001791096	-0.938736	-0.01721355	0.02363129	0.01483667
3.4e+08	-0.02496489	0.01846889	-0.9346148	0.075158	-0.02944386	0.009590238	0.003082796	0.01745055
	-0.9346148	0.075158	0.0269248	0.01084899	0.00311726	0.01743072	0.03732778	0.001107823
	-0.02944386	0.009590239	0.003117271	0.01743072	-0.02512341	0.01883765	-0.9349842	0.07079541
	0.003082807	0.01745055	0.03732778	0.001107822	-0.9349842	0.07079541	0.02699179	0.01143266
3.5e+08	-0.02260142	0.01961496	-0.922207	0.1623483	-0.02845758	0.01685775	0.004963757	0.01740595
	-0.922207	0.1623483	0.02967283	0.006871368	0.004996749	0.017382	0.03898265	0.001812019
	-0.02845757	0.01685775	0.00499676	0.017382	-0.02272327	0.02001897	-0.9230055	0.1579178
	0.004963769	0.01740595	0.03898265	0.001812019	-0.9230055	0.1579178	0.02980425	0.00748092
3.6e+08	-0.02024289	0.0204082	-0.9016937	0.2478412	-0.02631447	0.0239535	0.006838069	0.01714088
	-0.9016937	0.2478412	0.03178211	0.002454513	0.006869071	0.01711308	0.04098184	0.002209148
	-0.02631447	0.0239535	0.006869083	0.01711308	-0.02032297	0.02084009	-0.9029372	0.2433863
	0.006838081	0.01714088	0.04098184	0.002209147	-0.9029372	0.2433863	0.03198279	0.00307906
3.7e+08	-0.01794064	0.02087189	-0.8732883	0.3308855	-0.02305172	0.03068947	0.00867711	0.01666305
	-0.8732883	0.3308855	0.03318688	-0.002289136	0.008705695	0.01663177	0.04326629	0.002226054
	-0.02305172	0.03068947	0.008705707	0.01663177	-0.01797539	0.02132336	-0.874988	0.326452
	0.008677123	0.01666305	0.04326629	0.002226054	-0.874988	0.326452	0.03345962	-0.001661451
3.8e+08	-0.01573874	0.02103699	-0.8372739	0.4107557	-0.01873721	0.03688639	0.01045551	0.01598431
	-0.8372739	0.4107557	0.03384201	-0.007237088	0.01048134	0.01594995	0.04576352	0.001801761
	-0.01873721	0.03688639	0.01048135	0.01594995	-0.01572629	0.02149915	-0.8394361	0.4063914
	0.01045552	0.01598431	0.04576352	0.001801761	-0.8394361	0.4063914	0.03418738	-0.006618699
3.9e+08	-0.01367269	0.02094037	-0.7940002	0.4867589	-0.01346745	0.04237865	0.01215174	0.01511955
	-0.7940002	0.4867589	0.03372451	-0.01226066	0.01217459	0.01508255	0.04839016	0.0008897953
	-0.01346745	0.04237865	0.0121746	0.01508254	-0.013613	0.02140408	-0.7966263	0.4825129
	0.01215175	0.01511954	0.04839016	0.0008897952	-0.7966263	0.4825129	0.03414076	-0.01166414
4e+08	-0.01176872	0.02062272	-0.7438797	0.5582406	-0.007364798	0.04701888	0.01374846	0.01408559
	-0.7438797	0.5582406	0.0328344	-0.01722907	0.01376821	0.01404638	0.05105491	-0.0005399983
	-0.007364797	0.04701889	0.01376822	0.01404638	-0.01166356	0.02107896	-0.7469655	0.5541628
	0.01374847	0.01408558	0.05105491	-0.0005399983	-0.7469655	0.5541628	0.03331744	-0.01666669
4.1e+08	-0.0100434	0.02012646	-0.6873833	0.6245906	-0.0005738905	0.05068193	0.0152325	0.01290008
	-0.6873833	0.6245906	0.03119477	-0.02201364	0.01524913	0.01285907	0.05366178	-0.002500245
	-0.0005738901	0.05068194	0.01524914	0.01285906	-0.009896344	0.02056671	-0.6909194	0.620731
	0.01523251	0.01290007	0.05366178	-0.002500245	-0.6909194	0.620731	0.0317382	-0.0214969
4.2e+08	-0.008503878	0.01949361	-0.6250354	0.6852481	0.006742491	0.05326807	0.01659462	0.01158044
	-0.6250354	0.6852481	0.02885102	-0.02649192	0.01660818	0.01153797	0.05611345	-0.004985464
	0.006742491	0.05326807	0.01660819	0.01153796	-0.00832015	0.01991023	-0.6290068	0.6816564
	0.01659463	0.01158043	0.05611345	-0.004985463	-0.6290068	0.6816564	0.02944633	-0.02603112
4.3e+08	-0.007148403	0.01876384	-0.5574085	0.7397064	0.014408	0.05470551	0.01782894	0.01014296
	-0.5574085	0.7397064	0.02586945	-0.03055165	0.01783956	0.01009929	0.05831476	-0.007972153
	0.014408	0.05470551	0.01783957	0.01009928	-0.006934717	0.01915035	-0.5617948	0.736431
	0.01782895	0.01014294	0.05831476	-0.007972152	-0.5617948	0.736431	0.02650619	-0.03015548
4.4e+08	-0.005967391	0.01797263	-0.4851176	0.7875165	0.0222376	0.054952	0.01893221	0.008602094
	-0.4851176	0.7875165	0.02233501	-0.03409432	0.01894006	0.008557406	0.06017602	-0.01141952
	0.0222376	0.054952	0.01894007	0.008557394	-0.005731667	0.01832405	-0.4898929	0.7846042
	0.01893222	0.008602082	0.06017602	-0.01141952	-0.4898929	0.7846042	0.02300117	-0.03376951
4.5e+08	-0.004944746	0.01714984	-0.4088139	0.8282905	0.03004261	0.05399564	0.019903	0.006970058
	-0.4088139	0.8282905	0.0183486	-0.03703837	0.01990825	0.006924414	0.06161621	-0.01527087
	0.03004261	0.05399564	0.01990826	0.006924402	-0.004695806	0.01746288	-0.4139472	0.825786
	0.019903	0.006970045	0.0616162	-0.01527087	-0.4139472	0.825786	0.01903096	-0.03678936
4.6e+08	-0.004059492	0.0163185	-0.3291791	0.8617044	0.0376357	0.05185479	0.0207407	0.005256634
	-0.3291791	0.8617044	0.01402369	-0.03932173	0.0207435	0.005209996	0.06256574	-0.01945552
	0.0376357	0.05185479	0.0207435	0.005209983	-0.003806694	0.01659175	-0.3346346	0.8596495
	0.0207407	0.00525662	0.06256574	-0.01945552	-0.3346346	0.8596495	0.01470826	-0.03915048
4.7e+08	-0.003287574	0.01549408	-0.2469187	0.8874998	0.04483577	0.04857712	0.02144468	0.00346927
	-0.2469187	0.8874998	0.009482676	-0.04090378	0.02144512	0.003421505	0.0629689	-0.02389124
	0.04483577	0.04857712	0.02144512	0.003421491	-0.003040424	0.01572812	-0.2526558	0.8859329
	0.02144468	0.003469257	0.0629689	-0.02389124	-0.2526558	0.8859329	0.01015517	-0.04080962
4.8e+08	-0.00260377	0.0146842	-0.1627563	0.9054852	0.05147253	0.04423794	0.02201344	0.001613446
	-0.1627563	0.9054852	0.004852812	-0.04176661	0.0220115	0.001564341	0.06278569	-0.02848709
	0.05147253	0.04423794	0.02201151	0.001564327	-0.002371515	0.01488156	-0.1687299	0.9044409
	0.02201344	0.001613432	0.06278569	-0.02848709	-0.1687299	0.9044409	0.005499164	-0.04174619
4.9e+08	-0.001983599	0.01388863	-0.0774264	0.915537	0.05739061	0.03893781	0.02244394	-0.0003067704
	-0.0774264	0.915537	0.000262108	-0.04191551	0.02243951	-0.0003574722	0.06199308	-0.03314655
	0.05739061	0.03893781	0.02243951	-0.0003574852	-0.001774825	0.01405376	-0.08358775	0.9150455
	0.02244394	-0.0003067836	0.06199308	-0.03314654	-0.08358775	0.9150455	0.0008689839	-0.04196284
5e+08	-0.001405159	0.01309985	0.008330702	0.9175992	0.06245325	0.03279952	0.02273115	-0.002287973
	0.008330701	0.9175992	-0.004164869	-0.04137872	0.02272397	-0.002340552	0.06058574	-0.0377708
	0.06245325	0.03279952	0.02272396	-0.002340565	-0.001227398	0.01323896	0.002033992	0.9176864
	0.02273115	-0.002287986	0.06058574	-0.03777079	0.002033993	0.9176864	-0.003609583	-0.04148535
5.1e+08	-0.0008508044	0.0123039	0.0937756	0.9116838	0.06654531	0.02596463	0.0228678	-0.004326602
	0.0937756	0.9116838	-0.008311056	-0.04020651	0.02285745	-0.004381311	0.05857599	-0.04226206
	0.06654531	0.02596463	0.02285745	-0.004381322	-0.0007101849	0.01242472	0.08739893	0.91237
	0.0228678	-0.004326613	0.05857599	-0.04226206	0.08739893	0.91237	-0.007817783	-0.04036173
5.2e+08	-0.0003085979	0.01148161	0.1781754	0.8978693	0.06957566	0.01858962	0.0228444	-0.006418068
	0.1781754	0.8978693	-0.01207073	-0.03846945	0.02283033	-0.006475085	0.05599321	-0.04652686
	0.06957566	0.01858962	0.02283033	-0.006475096	-0.0002095335	0.0115931	0.1717767	0.8991698
	0.02284439	-0.006418078	0.05599321	-0.04652685	0.1717767	0.8991698	-0.01164778	-0.03866066
5.3e+08	0.0002265366	0.01061006	0.2608092	0.8762997	0.0714789	0.0108417	0.02264951	-0.008555894
	0.2608092	0.8762997	-0.01535301	-0.03625609	0.02263103	-0.008615297	0.05288263	-0.05047906
