! S11 = S11
! S12 = S12
! S13 = S13
! S14 = S14
! S21 = S21
! S22 = S22
! S23 = S23
! S24 = S24
! S31 = S31
! S32 = S32
! S33 = S33
! S34 = S34
! S41 = S41
! S42 = S42
! S43 = S43
! S44 = S44
!
! FILE: \\dale\Sys2\Erdem\APN20060024M7F\P1TX1_P2RX1.s4p
!$DUT_CFG_DESC: Default 4-Port Configuration
!$NUMBER_PORTS: 4
!$DIFF_PORT_MAP: 1|2P|2|2P|0|UC|0|UC|
!$PORT_MAP: 1|1|<<<<<<|2|2|>>>>>>|3|3|<<<<<<|4|4|>>>>>>|
!
# GHz S RI R 50.00
!
! FREQ                  		S11                         			   S12                         			   S13                         			   S14
!                       		S21                         			   S22                         			   S23                         			   S24
!                       		S31                         			   S32                         			   S33                         			   S34
!                       		S41                         			   S42                         			   S43                         			   S44
!                       		
!                  	REAL     		    IMAG               	      REAL     		    IMAG               	      REAL     		    IMAG               	      REAL     		    IMAG               	      
0.01000000000      0.0698473528027534    0.0207272432744503        0.77772068977356    -0.533437609672546      0.0485283397138119    0.0286559090018272     -0.0348225794732571   0.00502856820821762    
                  0.778619945049286     -0.53230482339859      0.0778729766607285       0.0346076823771     -0.0291939657181501   0.00496206572279334      0.0589814968407154    0.0478399693965912    
                 0.0471251793205738    0.0297805648297071     -0.0275246426463127   0.00434470921754837      0.0718129426240921    0.0175552424043417       0.771074116230011    -0.529003202915192    
                -0.0273838900029659   0.00522398296743631      0.0525569729506969    0.0443712919950485       0.777277946472168    -0.529139459133148      0.0885537192225456    0.0385989211499691    
               
0.02000000000      0.0852924659848213  -0.00482809683308005       0.347645491361618    -0.865351319313049      0.0702089816331863    0.0139377433806658     -0.0228211898356676     0.028984896838665    
                  0.347900062799454    -0.865403473377228       0.114228613674641    0.0050159152597189     -0.0195737257599831    0.0241634510457516       0.104447945952415    0.0269781313836575    
                  0.071371428668499    0.0155613552778959     -0.0190335158258677    0.0230952445417643      0.0897225365042686  -0.00673421425744891        0.34452211856842    -0.857255935668945    
                -0.0185516253113747    0.0223445314913988      0.0978672429919243    0.0268469788134098        0.34791487455368    -0.862098813056946       0.122020862996578   0.00533276004716754    
               
0.03000000000      0.0676419287919998   -0.0268219001591206      -0.189364805817604    -0.908488631248474      0.0658545717597008  -0.00977102480828762    -0.00103328423574567    0.0356990285217762    
                  -0.18975006043911    -0.908649444580078        0.10137926787138   -0.0400810576975346    -0.00203914381563663      0.02962233312428       0.107487693428993   -0.0220285933464766    
                  0.068079762160778   -0.0107129206880927    -0.00240415171720088    0.0281533598899841      0.0707964301109314   -0.0293272435665131      -0.185780107975006    -0.899476587772369    
               -0.00277628260664642    0.0274111051112413       0.100318871438503   -0.0212519019842148       -0.18696229159832     -0.90617835521698        0.11297108232975   -0.0393697023391724    
               
0.04000000000      0.0395704992115498   -0.0186511222273111      -0.659439384937286    -0.647734761238098      0.0419437475502491   -0.0133979078382254      0.0174936950206757    0.0281620491296053    
                 -0.660440683364868    -0.648374497890472      0.0548168830573559   -0.0472663454711437      0.0119392732158303    0.0243966151028872      0.0643075704574585    -0.044572539627552    
                  0.041477907449007   -0.0157672092318535      0.0104771517217159    0.0237461365759373      0.0437418259680271   -0.0212441831827164      -0.650518178939819    -0.644087076187134    
                0.00990685913711786    0.0234921406954527      0.0566140748560429   -0.0417354181408882      -0.655852794647217    -0.647771179676056      0.0673213452100754   -0.0524487048387527    
               
0.05000000000      0.0313774943351746   0.00574777880683541      -0.913944780826569    -0.171343505382538      0.0232119150459766   0.00394050683826208      0.0192095544189215   0.00999869965016842    
                   -0.9146448969841    -0.170990899205208      0.0233229082077742   -0.0100778313353658      0.0160881131887436    0.0128458822146058      0.0187444519251585   -0.0155147379264236    
                 0.0217009223997593   0.00436658086255193      0.0152016468346119    0.0133739868178964      0.0336995497345924  8.87222558958456e-005      -0.909620881080627    -0.176475524902344    
                 0.0147400060668588    0.0139914881438017      0.0164017267525196   -0.0100534912198782      -0.912557601928711    -0.173890218138695      0.0280149690806866   -0.0181704554706812    
               
0.06000000000      0.0594079419970512    0.0439827851951122      -0.843683540821075     0.379462867975235      0.0447297878563404    0.0535496771335602      0.0337784849107265    0.0236721467226744    
                 -0.844197630882263     0.379317700862885      0.0560988113284111    0.0468969829380512      0.0310520716011524    0.0221891757100821      0.0483199283480644    0.0552434772253037    
                 0.0434377230703831    0.0530915036797524      0.0301451534032822    0.0219756979495287      0.0584316924214363     0.043496061116457      -0.841076493263245     0.380752295255661    
                 0.0297168493270874    0.0217434726655483       0.044494491070509    0.0534177049994469      -0.843969404697418     0.379720211029053      0.0610183142125607    0.0467249006032944    
               
0.07000000000      0.0959780588746071    0.0162746179848909      -0.489626705646515     0.768835783004761      0.0879884511232376    0.0330269336700439      0.0442092828452587   -0.0138232633471489    
                 -0.490056753158569     0.769208788871765       0.108876705169678    0.0249035470187664      0.0403083674609661  -0.00999609567224979       0.109519742429256     0.037502396851778    
                 0.0876067280769348    0.0352433547377586      0.0392647795379162  -0.00892124511301517      0.0976895689964294    0.0142537271603942      -0.485480397939682     0.763673782348633    
                 0.0387903079390526  -0.00823281239718199       0.103052079677582    0.0394801460206509      -0.489672005176544     0.767340958118439        0.11591574549675    0.0232771243900061    
               
0.08000000000      0.0878478139638901   -0.0206758566200733      0.0135506186634302       0.9072505235672       0.089292399585247  -0.00530053814873099      0.0255270786583424    -0.035722341388464    
                 0.0139020765200257     0.908136963844299       0.115477964282036    -0.026114059612155      0.0253075044602156   -0.0300148520618677       0.124439865350723    -0.017833299934864    
                 0.0916876792907715  -0.00421629985794425       0.025263698771596   -0.0285803340375423      0.0893111079931259   -0.0245197024196386      0.0127987684682012     0.900553822517395    
                 0.0254169628024101   -0.0278333202004433       0.118646562099457   -0.0152957504615188      0.0125102642923594     0.905840873718262       0.125085443258286   -0.0270191691815853    
               
0.09000000000      0.0515854470431805   -0.0262684244662523       0.513053774833679      0.74770599603653      0.0558286532759666    -0.019428726285696     0.00416263891384006   -0.0419979318976402    
                  0.513498723506927     0.748239159584045      0.0739038288593292   -0.0523435026407242     0.00753296772018075   -0.0374070294201374      0.0819174870848656   -0.0555695407092571    
                 0.0575704984366894    -0.021502111107111     0.00853442121297121   -0.0359734781086445       0.053102508187294   -0.0294876284897327       0.507479786872864     0.742755770683289    
                0.00929705984890461   -0.0353091284632683      0.0753074139356613   -0.0525076687335968       0.510994553565979      0.74735951423645      0.0863931328058243   -0.0563177242875099    
               
0.10000000000      0.0341051183640957   0.00663623120635748       0.839896440505981     0.336678713560104      0.0319454371929169   0.00725462008267641     -0.0175763461738825   -0.0371734648942947    
                   0.84063047170639     0.336494475603104      0.0338263027369976   -0.0237720366567373     -0.0115979043766856   -0.0372177176177502      0.0285576246678829   -0.0337669588625431    
                 0.0303941182792187   0.00527105061337352    -0.00977922882884741   -0.0371889732778072      0.0367070101201534  0.000818440283183008       0.832527220249176     0.338366627693176    
               -0.00890529621392488   -0.0372492559254169      0.0229808446019888   -0.0271711517125368       0.838299214839935     0.338102281093597      0.0439906753599644   -0.0344307236373425    
               
0.11000000000      0.0514972992241383    0.0391348451375961       0.886864006519318    -0.187584102153778      0.0391954630613327    0.0451079048216343     -0.0263765752315521   -0.0284784585237503    
                    0.8868368268013    -0.188049495220184      0.0426774807274342    0.0296667199581862     -0.0253096930682659   -0.0310149975121021      0.0220113415271044    0.0328128971159458    
                 0.0383699797093868    0.0458327643573284     -0.0250265672802925   -0.0318764671683311      0.0494966134428978    0.0332420952618122       0.887067258358002    -0.184206962585449    
                -0.0248673427850008    -0.032255757600069      0.0221821274608374    0.0371856242418289       0.887945890426636    -0.186959683895111      0.0436513088643551    0.0205411445349455    
               
0.12000000000       0.107928588986397    0.0419716723263264        0.61739581823349    -0.643636167049408       0.101017601788044    0.0588312372565269     -0.0607520565390587   -0.0106323594227433    
                  0.617806255817413    -0.643967628479004       0.113414436578751    0.0375932529568672      -0.056674100458622   -0.0121258851140738       0.104050345718861    0.0568637475371361    
                 0.0994987636804581    0.0597775764763355     -0.0556657947599888   -0.0127149252220988       0.108673714101315    0.0390079468488693        0.61239230632782    -0.642281770706177    
                -0.0551115237176418   -0.0133107947185636      0.0987687185406685    0.0593174435198307       0.616523146629334    -0.643644988536835       0.117540255188942     0.032770037651062    
               
0.13000000000       0.123613275587559    -0.008403729647398       0.165233194828033     -0.86963677406311       0.126325622200966   0.00687705352902412     -0.0494991168379784    0.0308831315487623    
                  0.165420353412628    -0.870049893856049       0.141060814261436   -0.0208185501396656     -0.0480138882994652    0.0261491779237986       0.145497605204582  -0.00134340405929834    
                  0.127101749181747   0.00896791554987431     -0.0476976968348026    0.0248295646160841        0.12378390878439   -0.0135221248492599       0.163645356893539    -0.863707959651947    
                -0.0480356328189373    0.0240383520722389       0.141418442130089   0.00282429857179523       0.165018677711487    -0.868518829345703       0.144835948944092   -0.0230736657977104    
               
0.14000000000      0.0900794342160225   -0.0389543771743774      -0.339943408966064    -0.818893611431122      0.0939946323633194   -0.0340308137238026     -0.0232442729175091    0.0479713939130306    
                 -0.340303093194962    -0.819333016872406        0.10438921302557   -0.0728581249713898     -0.0255394261330366    0.0433399453759193        0.11615938693285   -0.0650962442159653    
                 0.0965006947517395    -0.034254427999258     -0.0261341482400894    0.0420198403298855      0.0888979583978653   -0.0450221933424473      -0.336877316236496    -0.813447654247284    
                -0.0264606196433306    0.0416234359145164       0.112072676420212   -0.0611845515668392      -0.338953465223312    -0.817839503288269       0.113042056560516   -0.0746269300580025    
               
0.15000000000       0.052571527659893   -0.0187384635210037      -0.738696396350861     -0.49195471405983      0.0459322966635227   -0.0194863919168711     0.00104172935243696    0.0557751953601837    
                 -0.739411592483521    -0.492176502943039       0.041537668555975   -0.0633098855614662    -0.00373194762505591    0.0523851625621319      0.0471906363964081   -0.0661931410431862    
                 0.0464669652283192   -0.0220082979649305    -0.00531652290374041    0.0516102313995361      0.0506682172417641    -0.025693254545331      -0.732192933559418    -0.489465951919556    
               -0.00623670406639576    0.0518257357180119      0.0417075641453266   -0.0607946030795574      -0.737399518489838    -0.492258012294769      0.0553997606039047   -0.0694017261266708    
               
0.16000000000      0.0611969009041786    0.0234720688313246      -0.884078741073608   0.00325970444828272      0.0430022180080414    0.0319131352007389      0.0316601432859898    0.0500754006206989    
                 -0.884436309337616   0.00366925122216344      0.0252900533378124  -0.00133833533618599      0.0259993858635426    0.0525602661073208      0.0164396520704031  -0.00234455079771578    
                  0.040893442928791    0.0311036724597216      0.0243930853903294    0.0534854456782341      0.0564093962311745    0.0150210605934262      -0.878462970256805  -0.000512772530782968    
                 0.0238603055477142    0.0537107028067112      0.0133460024371743   0.00631085969507694      -0.884015262126923   0.00189864169806242      0.0348394364118576   -0.0179975628852844    
               
0.17000000000       0.102734558284283    0.0370992980897427      -0.731115579605103     0.493395656347275      0.0860673859715462    0.0638491660356522      0.0527236647903919    0.0345293208956718    
                 -0.730883598327637     0.493481338024139      0.0757249742746353    0.0457152910530567      0.0524406209588051    0.0363791063427925      0.0644362270832062    0.0645107924938202    
                 0.0856380611658096    0.0643818527460098      0.0524112097918987    0.0370360128581524       0.093481756746769    0.0318709313869476      -0.731984198093414     0.492986291646957    
                 0.0521812662482262    0.0371204726397991      0.0651920437812805     0.067572757601738      -0.732368052005768     0.494836747646332       0.074543870985508    0.0326260030269623    
               
0.18000000000       0.150061681866646  -0.00307662622071803      -0.330178707838058     0.798924922943115        0.15274304151535    0.0283886846154928      0.0741835460066795   -0.0158439092338085    
                 -0.330221027135849     0.799326777458191       0.146463975310326   0.00559015106409788      0.0720597803592682   -0.0122086042538285       0.152752980589867    0.0259901210665703    
                  0.152027651667595     0.029977286234498      0.0715613290667534   -0.0111005567014217       0.142569541931152  -0.00741014443337917      -0.326736599206924     0.795767068862915    
                 0.0713615193963051    -0.010340727865696       0.149980619549751    0.0315097533166409      -0.329008549451828     0.799285709857941       0.142476141452789  -0.00568826356902719    
               
0.19000000000       0.131504163146019   -0.0593670979142189       0.156238675117493     0.848328113555908       0.144491299986839   -0.0404509752988815      0.0452830009162426   -0.0518042594194412    
                  0.156388103961945     0.848873019218445       0.143072620034218   -0.0668739378452301      0.0459510087966919   -0.0474139675498009       0.157208725810051   -0.0576110519468784    
                  0.146144881844521   -0.0389602519571781      0.0462629459798336   -0.0461034625768662       0.122544005513191   -0.0617677345871925       0.156372457742691     0.843272864818573    
                 0.0468092523515224     -0.04557204246521       0.155473828315735   -0.0526017770171165       0.157307520508766     0.847735166549683       0.138495579361916    -0.070141963660717    
               
0.20000000000      0.0773899927735329   -0.0675487592816353       0.602502524852753     0.626031577587128      0.0832289606332779   -0.0611869059503078      0.0162773765623569   -0.0627540946006775    
                  0.602909028530121     0.626483142375946      0.0788731127977371   -0.0984537899494171      0.0188681874424219   -0.0591821894049644      0.0860543102025986     -0.10094241052866    
                 0.0852513313293457    -0.062273383140564      0.0199690442532301   -0.0583387352526188      0.0691774562001228   -0.0666597932577133       0.599187850952148     0.621903002262115    
                 0.0209796112030745   -0.0581198520958424      0.0833431780338287   -0.0963373184204102       0.602514863014221     0.625168144702911       0.081046998500824   -0.0967566221952438    
               
0.21000000000      0.0530713871121407    -0.020474286749959       0.850701630115509     0.182458519935608      0.0439785942435265   -0.0117445159703493     -0.0171774681657553   -0.0687327235937119    
                  0.851363301277161     0.182611376047134      0.0244474112987518   -0.0535507015883923     -0.0111672906205058   -0.0681793242692947      0.0156999807804823   -0.0553366355597973    
                 0.0432769358158112   -0.0139711229130626    -0.00948989018797874   -0.0681505501270294      0.0468772798776627   -0.0188442375510931       0.844969987869263     0.181187495589256    
               -0.00921556446701288   -0.0684390813112259      0.0126556074246764    -0.048282615840435       0.850129544734955     0.181644067168236      0.0332585833966732   -0.0577850118279457    
               
0.22000000000      0.0912978798151016    0.0185614340007305       0.800058603286743    -0.321631848812103       0.078561432659626    0.0437324680387974     -0.0581141486763954   -0.0520531497895718    
                  0.800307035446167    -0.322222054004669      0.0470754019916058    0.0145234409719706     -0.0550520718097687   -0.0569444373250008      0.0299742594361305    0.0292140059173107    
                 0.0767285227775574    0.0440136902034283     -0.0540193393826485   -0.0582870878279209      0.0876401141285896     0.019278634339571       0.796885192394257    -0.317641168832779    
                -0.0536465607583523   -0.0586360469460487      0.0314694605767727    0.0382438898086548       0.799690902233124    -0.321947306394577      0.0514293760061264   0.00253938673995435    
               
0.23000000000       0.147107630968094   0.00528309214860201        0.47956445813179    -0.705868482589722       0.149851098656654     0.044761884957552     -0.0886766985058784    -0.015892282128334    
                  0.479580938816071    -0.706117391586304       0.127198070287704    0.0246746502816677     -0.0880835950374603   -0.0171645786613226        0.12870529294014    0.0572855435311794    
                  0.149141564965248    0.0451375246047974     -0.0877642333507538   -0.0177689418196678       0.145526379346848   0.00703404471278191       0.476085186004639     -0.70587569475174    
                -0.0870658159255981   -0.0183436777442694       0.128380656242371    0.0607806369662285        0.47735458612442     -0.70722097158432       0.129924058914185    0.0167781375348568    
               
