! Tyco Electronics Strada Whisper System
! FEXT_H11112_G1112
!! 
!! SYSTEM DESCRIPTION: Daughtercard-Footprint-Connector-Footprint-Daughtercard
!! PCB DESCRIPTION: DC: 140mil, Megtron7N, upper layer route, 15mil stub, 6-6-6mil 4" traces
!! CONNECTOR DESCRIPTION: Next-Gen STRADA Whisper Direct-Plug Orthogonal Connector
!! MODEL DESCRIPTION: Tyco Electronics System 4-port S-parameter 
!! MODEL STATUS: Developmental
!! MODEL GEOMETRY: Channel Model
!! MODEL FREQUENCY RANGE: DC to 60 GHz in 10 MHz frequency steps
!! MODEL EDGE RATE LIMITATION: 8.3 ps (Using conservative 0.5/Fmax rule of thumb)
!! 
!! TIME-DOMAIN TRANSFORM CAUTIONS: 
!! 1.) Do not simulate transient edge rates faster than the number listed above.  Edge rates faster than this number 
!!     contain significant spectral content at frequencies above the model's highest frequency. 
!! 2.) Even when simulating edge rates that are slower than the number listed above, be aware that the best time 
!!     resolution possible with a direct iFFT is (1 / 2Fmax).  As a result, time resolution is typically not adequate 
!!     for most time-domain simulations unless tricks such as windowing are used to minimize leakage and aliasing. 
!! 3.) Because the model has a uniform frequency step, a direct iFFT will result in an impulse that that has a time 
!!     length given by either (1 / Fstep) or (1 / 2Fstep), depending on the transform being used.  Care has been taken 
!!     in selecting the frequency step to ensure a settled impulse response for the model.  Therefore, convolution with 
!!     the model's impulse response should present no issues.  However, if directly concatenating s-parameter models 
!!     in the frequency domain a user must either interpolate necessary interim frequencies or complete impulse response 
!!     zero-padding.  Impulse response zero-padding is more difficult, but more accurate. 
!! 
!! PORT DEFINITIONS: 
!! Port   1  ----->  TX Side	H11     G11     RX Side  <-----  Port   3
!! Port   2  ----->  TX Side	H12     G12     RX Side  <-----  Port   4
!! 
!!!!!!!!!!!!!!!!!!!!!!!!!!!!!!!!!!!!!!!!!!!!!!!!!!!!!!!!!!!!!!!!!!!!!!!!!!!!!!!!!!!!!!!!!!!!!!!!!!!!!!!!!!!!!!!!!!!!!!!!
! Touchstone data
! Created: 10-Dec-2018 by IdEM R2012 (8.0.5)
# Hz S MA R 50

!
                   0         0.0276104757                    0      3.51525471e-005                  180        0.00199318505                    0      2.89417905e-005                  180
     3.51525471e-005                  180         0.0274218517                    0      3.00428234e-005                  180        0.00186619137                    0
       0.00199318505                    0      3.00428234e-005                  180         0.0277289835                    0      3.45298043e-005                  180
     2.89417905e-005                  180        0.00186619137                    0      3.45298043e-005                  180         0.0276779639                    0

!
            10000000         0.0299547763           13.2506347      3.52499956e-005           169.124246         0.0140282695           74.7986993      3.08744548e-005           151.413271
     3.52499956e-005           169.124246          0.029805857           13.7757724      3.61432532e-005           138.321935         0.0139243463           75.4406856
        0.0140282695           74.7986993      3.61432532e-005           138.321935         0.0301808869           13.7721879       3.4588741e-005          -179.699209
     3.08744548e-005           151.413271         0.0139243463           75.4406856       3.4588741e-005          -179.699209         0.0301906805           14.3017307

!
            20000000         0.0350516589           21.7291351      3.56329862e-005           158.280069         0.0276016195           71.8419256      3.60638532e-005            127.18696
     3.56329862e-005           158.280069  0.03499626229999999           22.6452526      5.01906484e-005           111.086642         0.0274290219           72.4345727
        0.0276016195           71.8419256      5.01906484e-005           111.086642         0.0355337164           22.5038578 3.489277409999999e-005          -179.253328
     3.60638532e-005            127.18696         0.0274290219           72.4345727 3.489277409999999e-005          -179.253328         0.0356896179           23.4000242

!
            30000000         0.0415738578            25.373913      3.62993581e-005           147.484745         0.0407786198            66.218045 4.324522920000001e-005           107.883221
     3.62993581e-005           147.484745         0.0416387752           26.5965882      6.73386273e-005    93.04376840000001         0.0405520756    66.91359009999999
        0.0407786198            66.218045      6.73386273e-005    93.04376840000001         0.0423685711           26.2151688      3.55443006e-005          -178.609652
4.324522920000001e-005           107.883221         0.0405520756    66.91359009999999      3.55443006e-005          -178.609652  0.04271365360000001           27.3736423

!
            40000000         0.0485062709           25.6038427      3.72492373e-005           136.752787         0.0533294049    59.93897549999999      5.14570535e-005           92.2074798
     3.72492373e-005           136.752787         0.0487129592           27.1117093 8.570142449999998e-005           79.3062879         0.0530770223    60.77891870000001
        0.0533294049    59.93897549999999 8.570142449999998e-005           79.3062879  0.04962641250000001           26.4442384      3.66918705e-005           -177.83096
     5.14570535e-005           92.2074798         0.0530770223    60.77891870000001      3.66918705e-005           -177.83096         0.0501909297            27.834846

!
            50000000         0.0552025724           23.6356756      3.84832726e-005           126.091243  0.06506723590000001    53.41424910000001      6.01334526e-005    78.92333410000001
     3.84832726e-005           126.091243         0.0555772636    25.43825500000001       0.000104601933           67.7250102  0.06482647850000001           54.4180651
 0.06506723590000001    53.41424910000001       0.000104601933           67.7250102         0.0566459511           24.4631394      3.84941616e-005          -177.112098
     6.01334526e-005    78.92333410000001  0.06482647850000001           54.4180651      3.84941616e-005          -177.112098  0.05746219140000001           26.0897929

!
            60000000         0.0612460397           20.2510204      4.00019262e-005           115.498828  0.07582827609999999    46.78111950000001       6.8954808e-005           67.2157177
     4.00019262e-005           115.498828         0.0618216462           22.3720391       0.000123763284           57.3416726         0.0756445426           47.9618083
 0.07582827609999999    46.78111950000001       0.000123763284           57.3416726         0.0630058273           21.0729922      4.10807759e-005          -176.737469
      6.8954808e-005           67.2157177         0.0756445426           47.9618083      4.10807759e-005          -176.737469         0.0641119024    22.95332970000001

!
            70000000         0.0663517303           15.9232396      4.18048888e-005           104.966499         0.0854695515           40.0973511 7.773602059999999e-005           56.5861237
     4.18048888e-005           104.966499         0.0671671594           18.3957287       0.000143060092           47.6834983  0.08539513660000001    41.46609970000001
        0.0854695515           40.0973511       0.000143060092           47.6834983         0.0684197069           16.7536869      4.45231129e-005          -176.995439
7.773602059999999e-005           56.5861237  0.08539513660000001    41.46609970000001      4.45231129e-005          -176.995439         0.0698596283           18.9126947

!
            80000000  0.07031492659999999           10.9384575 4.389049230000001e-005    94.47893740000001  0.09386809390000001           33.3896736 8.636746399999998e-005           46.7285852
4.389049230000001e-005    94.47893740000001         0.0714137906           13.8048767       0.000162433852           38.4934124           0.09396129    34.95778690000001
 0.09386809390000001           33.3896736       0.000162433852           38.4934124  0.07268247430000001           11.7940999      4.88258198e-005          -178.096878
8.636746399999998e-005           46.7285852           0.09396129    34.95778690000001      4.88258198e-005          -178.096878  0.07450523200000001           14.2632887

!
            90000000         0.0729843739           5.46983768      4.62551107e-005           84.0164753          0.100919687           26.6701158      9.47853371e-005           37.4501941
     4.62551107e-005           84.0164753  0.07441357849999999           8.78463311       0.000181859157           29.6194785          0.101243982           28.4500621
         0.100919687           26.6701158       0.000181859157           29.6194785         0.0756427207           6.36977263      5.39375419e-005           179.860907
     9.47853371e-005           37.4501941          0.101243982           28.4500621      5.39375419e-005           179.860907         0.0779011148    9.188665670000003

!
           100000000         0.0742474829          -0.38088586      4.88925685e-005           73.5570599          0.106537254            19.942761       0.000102956435           28.6252393
     4.88925685e-005           73.5570599  0.07605570759999999           3.45326451       0.000201327772           20.9652409           0.10716058           21.9489026
         0.106537254            19.942761       0.000201327772           20.9652409         0.0771876224          0.585948505      5.97705752e-005           176.882079
      0.000102956435           28.6252393           0.10716058           21.9489026      5.97705752e-005           176.882079         0.0799369856    3.805072179999999

!
           110000000         0.0740215565   -6.561324170000001      5.17935715e-005           63.0779929          0.110649202           13.2070661       0.000110870036           20.1689301
     5.17935715e-005           63.0779929         0.0762574493          -2.11309785       0.000220839732           12.4655293          0.111643182           15.4563039
         0.110649202           13.2070661       0.000220839732           12.4655293         0.0772339241          -5.49919904      6.62192497e-005           173.036741
      0.000110870036           20.1689301          0.111643182           15.4563039      6.62192497e-005           173.036741         0.0805306496          -1.81356711

!
           120000000          0.072248532          -13.0585376 5.494516970000001e-005           52.5572962          0.113198096           6.45978186       0.000118533482           12.0219473
5.494516970000001e-005           52.5572962         0.0749582738   -7.866117709999998       0.000240397484           4.07386137           0.11463718           8.97224372
         0.113198096           6.45978186       0.000240397484           4.07386137  0.07572237110000001          -11.8630938      7.31723687e-005           168.425766
      0.000118533482           12.0219473           0.11463718           8.97224372      7.31723687e-005           168.425766         0.0796220265          -7.62136753

!
           130000000          0.068892366          -19.8988639 5.833025829999999e-005    41.97468049999999          0.114139935         -0.303747487       0.000125969735           4.14096932
5.833025829999999e-005    41.97468049999999  0.07211599639999999          -13.7769161       0.000260001467          -4.24447008          0.116100346           2.49613513
         0.114139935         -0.303747487       0.000260001467          -4.24447008  0.07261458609999999          -18.5157027      8.05196455e-005           163.156442
      0.000125969735           4.14096932          0.116100346           2.49613513      8.05196455e-005           163.156442         0.0771692273          -13.5923618

!
           140000000         0.0639391597          -27.1596525      6.19271219e-005           31.3121704          0.113444281   -7.088577009999999       0.000133215953          -3.50746527
     6.19271219e-005           31.3121704         0.0677044901          -19.8316189       0.000279646444           -12.516336          0.116002632          -3.97187818
         0.113444281   -7.088577009999999       0.000279646444           -12.516336         0.0678922183           -25.505323      8.81539245e-005           157.329301
      0.000133215953          -3.50746527          0.116002632          -3.97187818      8.81539245e-005           157.329301  0.07314621699999999   -19.71641290000001

!
           150000000         0.0574012339          -35.0031818      6.57090422e-005           20.5544763          0.111095322          -13.8992862       0.000140322426          -10.9511954
     6.57090422e-005           20.5544763         0.0617127703          -26.0302498 0.0002993183040000001          -20.7630668          0.114326839          -10.4295614
         0.111095322          -13.8992862 0.0002993183040000001          -20.7630668         0.0615588903          -32.9389448 9.597104190000001e-005           151.032783
      0.000140322426          -10.9511954          0.114326839          -10.4295614 9.597104190000001e-005           151.032783         0.0675418795          -25.9986803

!
           160000000         0.0493291332          -43.7651659      6.96440011e-005    9.689206310000001          0.107093891          -20.7391471       0.000147351277          -18.2155413
     6.96440011e-005    9.689206310000001         0.0541453619          -32.3904021       0.000318991264   -29.00179359999999          0.111070167          -16.8709499
         0.107093891          -20.7391471       0.000318991264   -29.00179359999999         0.0536468309   -41.03591170000001       0.000103868695           144.342416
      0.000147351277          -18.2155413          0.111070167          -16.8709499       0.000103868695           144.342416  0.06036041949999999          -32.4641212

!
           170000000          0.039845628   -54.20869620000001      7.36945418e-005          -1.29300062          0.101460298          -27.6092613       0.000154374429          -25.3256424
     7.36945418e-005          -1.29300062  0.04502390160000001          -38.9622867       0.000338625544          -37.2462113          0.106246624          -23.2841284
         0.101460298          -27.6092613       0.000338625544          -37.2462113  0.04423464740000001          -50.2769533       0.000111745223           137.322162
      0.000154374429          -25.3256424          0.106246624          -23.2841284       0.000111745223           137.322162         0.0516231259           -39.173146

!
           180000000         0.0292642032          -68.4039363      7.78178631e-005          -12.3983693  0.09423772050000001          -34.5075662       0.000161470355          -32.3081468
     7.78178631e-005          -12.3983693         0.0343901386   -45.88344770000001       0.000358165674          -45.5069828         0.0998901281   -29.64788359999999
 0.09423772050000001          -34.5075662       0.000358165674          -45.5069828         0.0335030994   -61.89607850000001       0.000119498884           130.026585
      0.000161470355          -32.3081468         0.0998901281   -29.64788359999999       0.000119498884           130.026585         0.0413718419          -46.2713497

!
           190000000         0.0186758441          -93.5641945      8.19662458e-005          -23.6298848         0.0854957428          -41.4275075       0.000168719349           -39.192212
     8.19662458e-005          -23.6298848         0.0223122306          -53.6428872       0.000377539704          -53.7919226         0.0920581217          -35.9261252
        0.0854957428          -41.4275075       0.000377539704          -53.7919226         0.0219840988   -80.02565730000001       0.000127028013           122.503132
      0.000168719349           -39.192212         0.0920581217          -35.9261252       0.000127028013           122.503132         0.0296764199          -54.1821945

!
           200000000         0.0133985135          -150.198368      8.60879071e-005   -34.98719220000001         0.0753334967          -48.3558784       0.000176197316          -46.0097109
     8.60879071e-005   -34.98719220000001 0.008924821180000001   -65.91490890000002       0.000396659582           -62.106057         0.0828354613          -42.0576063
        0.0753334967          -48.3558784       0.000396659582           -62.106057         0.0123854208          -123.268498       0.000134232276           114.794154
      0.000176197316          -46.0097109         0.0828354613          -42.0576063       0.000134232276           114.794154         0.0166661832          -64.7987579

!
           210000000         0.0214903901            156.80383      9.01283619e-005          -46.4665213         0.0638817859          -55.2684119        0.00018396853          -52.7945605
     9.01283619e-005          -46.4665213        0.00610189432           131.280152       0.000415423008          -70.4516368         0.0723385978   -47.93486430000001
        0.0638817859          -55.2684119       0.000415423008          -70.4516368         0.0156954971           164.923596       0.000141015068           106.938521
       0.00018396853          -52.7945605         0.0723385978   -47.93486430000001       0.000141015068           106.938521        0.00340891122          -114.612346

!
           220000000         0.0360488078           133.295972 9.403232539999999e-005   -58.06067230000001  0.05130357910000001          -62.1184986        0.00019207828           -59.581218
9.403232539999999e-005   -58.06067230000001         0.0217953911           114.440245       0.000433716931          -78.8281685         0.0607209048          -53.3554979
 0.05130357910000001          -62.1184986       0.000433716931          -78.8281685         0.0294490116           134.001413       0.000147286884           98.9727343
       0.00019207828           -59.581218         0.0607209048          -53.3554979       0.000147286884           98.9727343         0.0136996835           122.752003

!
           230000000         0.0527090574           119.341257      9.77461167e-005   -69.75910260000001         0.0377924917            -68.80001       0.000200546629          -66.4025692
     9.77461167e-005   -69.75910260000001         0.0385398371           106.058214 0.0004514227169999999          -87.2325187         0.0481833183   -57.89082609999999
        0.0377924917            -68.80001 0.0004514227169999999          -87.2325187         0.0458704285           118.656466       0.000152969284    90.93154440000001
      0.000200546629          -66.4025692         0.0481833183   -57.89082609999999       0.000152969284    90.93154440000001         0.0300092789           109.844487

!
           240000000         0.0704084581           108.680591       0.000101220434   -81.54814949999999         0.0235699252   -74.96971390000002       0.000209364604   -73.28760710000002
      0.000101220434   -81.54814949999999         0.0560387196    98.64431470000001       0.000468422745          -95.6591358  0.03500938720000001   -60.44827539999999
        0.0235699252   -74.96971390000002       0.000468422745          -95.6591358         0.0633998021           107.674259       0.000157998852           82.8480983
      0.000209364604   -73.28760710000002  0.03500938720000001   -60.44827539999999       0.000157998852           82.8480983         0.0471839279           101.230059

!
           250000000         0.0886737839           99.4775722       0.000104413272           -93.411411 0.008894990429999999          -78.0826416       0.000218493772          -80.2593863
