!
!4 port subset of full cascaded channels using these ports:7 37 8 38
# Hz S RI R 50
0	0.01084061	0.0002781405	-3.103451e-05	1.606284e-07	0.00213659	9.191487e-05	-4.077264e-05	2.058106e-07
	-3.103408e-05	1.60944e-07	0.0125608	0.0002809536	-2.525035e-05	1.299261e-07	0.001829216	9.423245e-05
	0.002140529	9.280093e-05	-2.525078e-05	1.298307e-07	0.01248411	0.0002803103	-3.105056e-05	1.634772e-07
	-4.077271e-05	2.059502e-07	0.001824681	9.264004e-05	-3.105037e-05	1.635543e-07	0.01132659	0.0002815991
1e+07	0.05651811	0.02742922	-0.0002838747	-0.00019748	0.05186776	0.06111196	-0.0003409224	-0.0002361276
	-0.0002838746	-0.00019748	0.056522	0.02739839	-0.0002394156	-0.0001670397	0.05187301	0.06112049
	0.05186776	0.06111196	-0.0002394156	-0.0001670397	0.05650506	0.02738258	-0.0002830287	-0.0001968174
	-0.0003409224	-0.0002361276	0.05187301	0.06112049	-0.0002830287	-0.0001968174	0.0565222	0.02741793
2e+07	0.0795993	-0.003261331	-0.0005706566	-2.239489e-05	0.123944	0.02848478	-0.0006945572	-2.810844e-05
	-0.0005706634	-2.239421e-05	0.07957881	-0.003323726	-0.0004791088	-1.882762e-05	0.1239422	0.02848668
	0.1239529	0.02849244	-0.0004791044	-1.882627e-05	0.07956841	-0.003286766	-0.0005688024	-2.232362e-05
	-0.0006945451	-2.809848e-05	0.1239616	0.02849013	-0.0005687991	-2.232451e-05	0.07959721	-0.003331237
3e+07	0.05685008	-0.03193301	-0.0007665843	0.0003745604	0.1161013	-0.05048029	-0.0009242141	0.0004713777
	-0.0007665843	0.00037456	0.05682364	-0.03197383	-0.0006465395	0.0003108769	0.1161152	-0.05043873
	0.1161013	-0.05048039	-0.0006465395	0.0003108772	0.05685724	-0.0320189	-0.0007640549	0.0003731203
	-0.0009242141	0.0004713776	0.1161151	-0.05043855	-0.0007640549	0.0003731205	0.05683462	-0.03192482
4e+07	0.02343928	-0.01869089	-0.000587636	0.001144911	0.04060934	-0.06786106	-0.0006735125	0.001379733
	-0.0005876335	0.001144916	0.02346405	-0.01871821	-0.0005034886	0.0009671556	0.04066238	-0.06779856
	0.04061199	-0.06785888	-0.0005034861	0.0009671443	0.02346459	-0.01887321	-0.0005861601	0.001140999
	-0.0006735083	0.001379726	0.04066487	-0.06779919	-0.0005861621	0.001141002	0.02347956	-0.01865687
5e+07	0.02743529	0.01634046	0.0004987535	0.001599685	0.004971196	-0.002656646	0.0006011768	0.001883619
	0.0004987562	0.001599686	0.02753249	0.01624758	0.0004251205	0.001359736	0.005075377	-0.00262298
	0.004971912	-0.002657286	0.000425107	0.001359727	0.02738125	0.01606406	0.0004967041	0.001594845
	0.0006011636	0.00188361	0.005075468	-0.002623729	0.0004967064	0.001594847	0.02755108	0.01632738
6e+07	0.06098631	0.02065517	0.001589228	0.0008910437	0.05867418	0.04665368	0.001873022	0.001073995
	0.001589231	0.0008910507	0.06106162	0.02044568	0.001352824	0.0007456261	0.05876669	0.04663608
	0.05867365	0.04665488	0.001352815	0.0007456283	0.06082857	0.02039455	0.001583953	0.000888521
	0.001873012	0.001074015	0.05876666	0.04663605	0.001583953	0.000888529	0.06108605	0.02054338
7e+07	0.07291528	-0.008768167	0.00183499	-0.0001891581	0.1218411	0.008070384	0.002217053	-0.0002001289
	0.001834996	-0.0001891604	0.07288082	-0.008985872	0.001543701	-0.0001716057	0.1218816	0.008078562
	0.1218414	0.008071117	0.001543699	-0.0001716052	0.07276083	-0.008953535	0.001828704	-0.0001879919
	0.002217066	-0.0002001275	0.1218817	0.008077656	0.001828711	-0.0001879894	0.07291924	-0.008870437
8e+07	0.04916213	-0.02713937	0.001710405	-0.001226631	0.1057418	-0.06516807	0.00206738	-0.001500786
	0.001710402	-0.001226625	0.04913164	-0.02722787	0.001436225	-0.001033352	0.105817	-0.06505773
	0.1057412	-0.06516719	0.001436227	-0.001033363	0.04911232	-0.02734993	0.001705131	-0.001221218
	0.002067378	-0.001500783	0.1058158	-0.06505827	0.001705131	-0.001221208	0.04918244	-0.02710248
9e+07	0.02565145	-0.008982451	0.0008216196	-0.002533818	0.0326307	-0.07369658	0.0009399361	-0.003039441
	0.0008216277	-0.002533807	0.0258254	-0.009030967	0.0006954413	-0.002142897	0.03287269	-0.07355846
	0.03263056	-0.07369563	0.0006954293	-0.002142916	0.02562062	-0.009366107	0.0008209886	-0.002524718
	0.0009399421	-0.003039443	0.03287165	-0.07355811	0.0008210006	-0.002524709	0.0258888	-0.008891984
1e+08	0.03825715	0.01894965	-0.001352302	-0.002805333	0.005153874	-0.008533087	-0.001606161	-0.003303783
	-0.001352299	-0.002805332	0.03860933	0.01867449	-0.00115953	-0.002376325	0.005526891	-0.008557371
	0.005153875	-0.008532895	-0.001159542	-0.00237633	0.03805912	0.01844022	-0.001345828	-0.002797504
	-0.001606174	-0.003303788	0.005526813	-0.008556836	-0.001345827	-0.002797504	0.03868586	0.01882216
1.1e+08	0.06902801	0.01358136	-0.002952206	-0.001134834	0.06057019	0.03328419	-0.003470733	-0.001386094
	-0.002952217	-0.001134957	0.06927872	0.01303699	-0.002512222	-0.0009343634	0.06084088	0.03308274
	0.06057047	0.03328419	-0.002512057	-0.0009346043	0.06864932	0.01315	-0.002941885	-0.001133034
	-0.00347063	-0.001386221	0.06084066	0.03308201	-0.002942	-0.001133216	0.06936802	0.01319926
1.2e+08	0.0725754	-0.0165479	-0.002926264	0.0007777858	0.1170547	-0.009269635	-0.003535797	0.0008674421
	-0.00292649	0.0007776376	0.07252259	-0.01706247	-0.002455217	0.0006859965	0.1171426	-0.00939195
	0.1170551	-0.009269769	-0.002455784	0.0006854694	0.07221913	-0.01682156	-0.00291641	0.0007732462
	-0.003535804	0.000867175	0.1171411	-0.009392404	-0.002916786	0.0007730005	0.07263438	-0.01689065
1.3e+08	0.04619634	-0.02811118	-0.002285233	0.002297985	0.09474149	-0.07770936	-0.002782508	0.002784298
	-0.002285666	0.00229814	0.0461505	-0.028269	-0.00190453	0.001941438	0.0949047	-0.07758094
	0.09474174	-0.07770949	-0.001905185	0.001942284	0.04600459	-0.02840966	-0.002279051	0.002287519
	-0.002782723	0.002784056	0.09490317	-0.0775803	-0.002279621	0.002287432	0.04627721	-0.02809263
1.4e+08	0.02851301	-0.005791466	-0.0006157808	0.003845114	0.02391009	-0.07913274	-0.0006965261	0.004613964
	-0.0006159356	0.003845775	0.02895203	-0.005853423	-0.0005079339	0.003244966	0.02444058	-0.07897633
	0.02391039	-0.07913285	-0.0005073845	0.003245596	0.02833732	-0.006320684	-0.0006181589	0.003831431
	-0.0006968814	0.004613913	0.02443985	-0.0789754	-0.00061873	0.003831627	0.02909747	-0.005666135
1.5e+08	0.04700522	0.01770073	0.002464369	0.003670127	0.003230544	-0.01434243	0.002919176	0.004332615
	0.002464931	0.003670663	0.04779246	0.017108	0.002110194	0.003093697	0.003986858	-0.01457234
	0.003230921	-0.0143426	0.002110781	0.003093579	0.0465849	0.01702715	0.002452469	0.003661374
	0.002918866	0.004332816	0.003986463	-0.01457183	0.002452122	0.003661823	0.04795956	0.01729657
1.6e+08	0.07581003	0.005532885	0.004302377	0.0009908495	0.05971589	0.02101587	0.005062109	0.001242555
	0.004303073	0.0009907482	0.0762151	0.004366587	0.003651823	0.0007908152	0.06019596	0.02042486
	0.0597162	0.02101556	0.003652026	0.0007904277	0.07514073	0.005004082	0.004287905	0.0009920755
	0.005062004	0.001242907	0.06019531	0.02042524	0.004287888	0.0009925663	0.07639612	0.004559153
1.7e+08	0.07310712	-0.02513761	0.003797337	-0.001659509	0.1101098	-0.02458889	0.004599719	-0.001882683
	0.003797698	-0.001659952	0.07288036	-0.02611139	0.003172532	-0.001446052	0.1101967	-0.02500108
	0.11011	-0.02458921	0.003172428	-0.001446368	0.07247435	-0.02541576	0.003786181	-0.001650078
	0.004599862	-0.001882357	0.110196	-0.02500037	0.003786414	-0.001649736	0.07308057	-0.0259122
1.8e+08	0.04465505	-0.03161781	0.002504037	-0.003479086	0.08255943	-0.08834233	0.0030833	-0.004200338
	0.002504059	-0.003479534	0.04452703	-0.03192101	0.002066263	-0.002936258	0.08278247	-0.08828278
	0.08255949	-0.08834257	0.00206603	-0.002936382	0.04425956	-0.03190229	0.002499906	-0.00346321
	0.00308361	-0.004200188	0.08278216	-0.08828186	0.002500234	-0.003463099	0.04474688	-0.03171346
1.9e+08	0.03126415	-0.006237836	5.82401e-05	-0.00501092	0.0141884	-0.08346286	4.136116e-05	-0.006026916
	5.80603e-05	-0.005011222	0.03196353	-0.006485686	2.268059e-05	-0.00421431	0.01505032	-0.08339344
	0.01418848	-0.08346306	2.247481e-05	-0.004214253	0.03090021	-0.006812451	6.665465e-05	-0.004993976
	4.167824e-05	-0.006027005	0.01505037	-0.08339272	6.692633e-05	-0.004994077	0.03221937	-0.006271395
2e+08	0.05400593	0.01379745	-0.003742515	-0.004205395	-0.0003175315	-0.01932517	-0.004436701	-0.004982155
	-0.003742765	-0.004205508	0.05512665	0.01263254	-0.003193476	-0.003525236	0.000858713	-0.01995562
	-0.0003174573	-0.01932542	-0.003193563	-0.003525091	0.05332491	0.01305521	-0.003723565	-0.004198783
	-0.004436536	-0.004982415	0.0008587892	-0.01995518	-0.003723453	-0.004198987	0.05541306	0.01282615
2.1e+08	0.08104015	-0.003522509	-0.005582237	-0.0005084258	0.05680482	0.0100615	-0.006581737	-0.0006968045
	-0.005582443	-0.0005083823	0.08142952	-0.005491717	-0.004722289	-0.0003624275	0.05743753	0.008854677
	0.0568048	0.01006128	-0.004722264	-0.0003622986	0.0800473	-0.004051389	-0.005564326	-0.0005156945
	-0.006581785	-0.0006970853	0.05743752	0.008855051	-0.005564364	-0.0005158716	0.08172035	-0.005308192
2.2e+08	0.07343055	-0.0344517	-0.004422084	0.002765435	0.1013629	-0.03793405	-0.005375799	0.003169913
	-0.004422187	0.002765552	0.0728553	-0.03599824	-0.00367651	0.002389443	0.101327	-0.03879943
	0.1013628	-0.03793421	-0.00367643	0.002389509	0.07249974	-0.03464064	-0.004411584	0.002749665
	-0.005376003	0.003169754	0.101327	-0.038799	-0.004411694	0.002749582	0.07316128	-0.03580758
2.3e+08	0.04344538	-0.03701241	-0.00238815	0.004693439	0.06929268	-0.09691058	-0.002989188	0.005660307
	-0.00238816	0.004693553	0.04309101	-0.03752486	-0.001944113	0.003952307	0.06948249	-0.0970182
	0.06929263	-0.09691068	-0.00194403	0.00395231	0.04282489	-0.03719531	-0.002388199	0.004672239
	-0.002989422	0.005660324	0.06948268	-0.09701784	-0.002388303	0.004672244	0.04342322	-0.0373259
2.4e+08	0.03329199	-0.009483953	0.0007835541	0.0059898	0.003689931	-0.0862757	0.0009504323	0.007226342
	0.0007836007	0.005989872	0.03416883	-0.00998465	0.0006997036	0.00501874	0.004847794	-0.08641281
	0.003689905	-0.08627578	0.0006997573	0.005018699	0.03271572	-0.01001025	0.000767483	0.005971229
	0.0009502898	0.007226496	0.00484801	-0.08641261	0.0007674286	0.005971285	0.03455057	-0.009788555
2.5e+08	0.05899933	0.007788746	0.005118596	0.004422878	-0.005020476	-0.02312631	0.006079113	0.005262176
	0.005118657	0.004422899	0.060385	0.005910548	0.004351689	0.003685082	-0.003476359	-0.02435
	-0.005020521	-0.02312639	0.004351701	0.003685029	0.05804289	0.007081933	0.005092718	0.004420981
	0.006079119	0.005262362	-0.003476198	-0.0243499	0.005092719	0.004421038	0.06080038	0.006061684
2.6e+08	0.08443689	-0.01336532	0.006748793	-0.0002731835	0.05234218	0.000596402	0.00797807	-0.0002076293
	0.006748836	-0.0002732016	0.08465969	-0.01632662	0.005689609	-0.0003151277	0.05298757	-0.001435662
	0.05234212	0.0005963493	0.005689591	-0.0003151654	0.08312061	-0.01379165	0.006729495	-0.0002581485
	0.007978186	-0.0002075203	0.05298767	-0.001435577	0.006729524	-0.0002581231	0.0850645	-0.0161992
2.7e+08	0.073023	-0.04439252	0.004782007	-0.004041443	0.09122827	-0.04922266	0.005840094	-0.004667333
	0.004782019	-0.00404147	0.07186486	-0.04664099	0.003954464	-0.003469742	0.09087383	-0.05068384
	0.09122822	-0.04922268	0.003954437	-0.003469757	0.07179826	-0.04439751	0.00477471	-0.004019466
	0.005840225	-0.004667339	0.09087393	-0.05068376	0.004774735	-0.004019471	0.07227797	-0.04650439
2.8e+08	0.04183705	-0.04401894	0.00195526	-0.005882401	0.05526332	-0.1033083	0.002518066	-0.007094691
	0.001955255	-0.005882419	0.04104704	-0.04478071	0.001555905	-0.004941246	0.05525432	-0.1036635
	0.05526329	-0.1033083	0.001555879	-0.004941245	0.0409928	-0.04400381	0.001961361	-0.00585738
	0.002518136	-0.007094769	0.05525443	-0.1036634	0.001961368	-0.005857395	0.04149101	-0.04463619
2.9e+08	0.03397264	-0.01495854	-0.001857886	-0.006749547	-0.007259262	-0.08737817	-0.002218843	-0.008171909
	-0.001857894	-0.006749553	0.03489777	-0.01576601	-0.001614266	-0.005633863	-0.005919748	-0.08782131
	-0.007259278	-0.08737818	-0.001614283	-0.00563385	0.03319035	-0.01533057	-0.00183339	-0.006731729
	-0.00221885	-0.008171987	-0.005919671	-0.0878213	-0.001833398	-0.006731739	0.03540202	-0.01563447
3e+08	0.0616916	0.0002546137	-0.006538937	-0.004329264	-0.01044782	-0.02553695	-0.007781997	-0.005179319
	-0.006538942	-0.004329264	0.06320104	-0.002484277	-0.005540415	-0.003581352	-0.008671932	-0.02751622
	-0.01044783	-0.02553696	-0.005540421	-0.003581336	0.0604806	-0.0003063774	-0.006507076	-0.004334656
	-0.00778204	-0.005179351	-0.008671894	-0.02751623	-0.006507087	-0.004334653	0.06373895	-0.002423169
3.1e+08	0.08581335	-0.02369686	-0.007763683	0.001323608	0.04682547	-0.007268378	-0.009205409	0.001434981
	-0.007763683	0.001323609	0.08561426	-0.02781887	-0.006523092	0.00121517	0.0472623	-0.0102911
	0.04682546	-0.00726838	-0.006523089	0.001215183	0.0842081	-0.02391656	-0.007745567	0.001299494
	-0.009205438	0.001434987	0.04726231	-0.01029111	-0.007745571	0.001299505	0.08612118	-0.02779511
3.2e+08	0.07148204	-0.05481941	-0.004859183	0.005439922	0.08016204	-0.05844749	-0.005970938	0.00631964
	-0.004859182	0.005439919	0.06941293	-0.05784235	-0.00399294	0.004646646	0.07922113	-0.06059577
	0.08016204	-0.05844749	-0.003992932	0.004646654	0.07000075	-0.05454513	-0.004857742	0.005412536
	-0.005970943	0.006319648	0.07922114	-0.06059577	-0.004857736	0.005412545	0.06991783	-0.05780414
3.3e+08	0.03921688	-0.05232824	-0.001220987	0.00699355	0.04083895	-0.1075403	-0.00168661	0.008441564
	-0.001220991	0.006993546	0.03771102	-0.05332129	-0.0009163679	0.005859738	0.04039871	-0.1081724
	0.04083896	-0.1075403	-0.0009163575	0.005859741	0.038185	-0.05201882	-0.001234555	0.006966755
	-0.001686615	0.008441556	0.04039871	-0.1081724	-0.001234546	0.006966757	0.03825069	-0.05327432
3.4e+08	0.0327887	-0.02207798	0.003118669	0.007260454	-0.01830921	-0.0867121	0.003710154	0.008826942
	0.003118663	0.007260453	0.033557	-0.02319845	0.002681731	0.006036382	-0.01697191	-0.08750834
	-0.01830921	-0.0867121	0.002681738	0.006036381	0.03184376	-0.02219341	0.00308566	0.007245798
	0.003710131	0.008826935	-0.01697192	-0.08750834	0.003085668	0.007245792	0.03416584	-0.02317494
3.5e+08	0.06185157	-0.008213484	0.007952907	0.003929134	-0.01617827	-0.02648553	0.009484857	0.00473828
	0.007952901	0.003929138	0.06325006	-0.01189834	0.006717864	0.003219119	-0.01437939	-0.02932039
	-0.01617826	-0.02648553	0.00671787	0.003219112	0.06044346	-0.008526299	0.007916505	0.003944032
	0.009484826	0.004738298	-0.01437941	-0.02932038	0.007916505	0.003944026	0.06388958	-0.0119718
3.6e+08	0.08501832	-0.03416012	0.008588442	-0.002612921	0.04072245	-0.01354001	0.01021856	-0.00294991
	0.008588441	-0.002612914	0.08405368	-0.03951866	0.007191307	-0.002312227	0.040662	-0.01764309
	0.04072246	-0.01354002	0.007191308	-0.002312235	0.08319361	-0.03407983	0.008574335	-0.002578962
	0.01021855	-0.002949866	0.04066199	-0.01764308	0.008574332	-0.002578966	0.08463591	-0.03964237
3.7e+08	0.06846992	-0.0654839	0.004637532	-0.006912278	0.06859098	-0.06569966	0.005749428	-0.008070844
	0.004637535	-0.006912272	0.06509886	-0.0692485	0.0037792	-0.005879213	0.06674023	-0.0685439
	0.06859099	-0.06569967	0.003779196	-0.005879219	0.0668035	-0.0648479	0.004644493	-0.006880961
	0.005749461	-0.008070806	0.06674021	-0.06854388	0.004644491	-0.006880961	0.06566556	-0.06934774
3.8e+08	0.03509393	-0.06152915	0.000203609	-0.007975969	0.02637243	-0.1097062	0.000514572	-0.009641591
	0.0002036145	-0.007975966	0.03254291	-0.06263854	4.183893e-05	-0.006665401	0.02522064	-0.1105638
	0.02637244	-0.1097062	4.183348e-05	-0.006665403	0.03394362	-0.06084403	0.0002254575	-0.007949927
	0.0005146265	-0.009641591	0.02522062	-0.1105638	0.0002254577	-0.007949926	0.03314866	-0.06272637
3.9e+08	0.02935606	-0.03021056	-0.004519006	-0.007495083	-0.02912244	-0.08433477	-0.005370306	-0.009157829
	-0.004519001	-0.007495085	0.02970815	-0.0315554	-0.003862348	-0.006204361	-0.02801992	-0.08544965
	-0.02912243	-0.08433478	-0.003862354	-0.006204361	0.0283243	-0.02998387	-0.00447814	-0.007485935
	-0.005370269	-0.009157873	-0.02801993	-0.08544962	-0.004478138	-0.007485937	0.03039004	-0.03167759
4e+08	0.05933612	-0.01699532	-0.009309153	-0.003229381	-0.02183099	-0.02602795	-0.01112691	-0.003946253
	-0.00930915	-0.003229386	0.06033198	-0.02160131	-0.007841411	-0.002604935	-0.02026677	-0.02972774
	-0.02183099	-0.02602796	-0.007841415	-0.002604932	0.05782	-0.01697695	-0.009270148	-0.003255543
	-0.01112692	-0.00394631	-0.02026677	-0.0297277	-0.009270149	-0.003255548	0.06103827	-0.02184709
4.1e+08	0.08196253	-0.04433271	-0.009185369	0.004107153	0.03443525	-0.01833438	-0.01097337	0.004712734
	-0.00918537	0.00410715	0.0798456	-0.05087603	-0.007663062	0.003577541	0.03354797	-0.02350532
	0.03443525	-0.01833439	-0.007663062	0.003577545	0.08001799	-0.04388079	-0.009178262	0.004063214
	-0.01097342	0.004712706	0.03354797	-0.02350529	-0.009178267	0.004063211	0.08046269	-0.05118311
4.2e+08	0.06373661	-0.07603415	-0.004105602	0.008406859	0.05687786	-0.07115462	-0.005162058	0.009861731
	-0.004105604	0.008406857	0.05865092	-0.08037763	-0.003304106	0.007123783	0.0537671	-0.07459724
	0.05687786	-0.07115463	-0.003304104	0.007123786	0.06198482	-0.07497782	-0.004123288	0.008373774
	-0.005162107	0.009861749	0.05376709	-0.07459721	-0.004123295	0.008373776	0.05923639	-0.08064425
4.3e+08	0.02911371	-0.07111458	0.001072867	0.008780179	0.01216761	-0.1099863	0.0009719359	0.01063749
	0.001072865	0.008780179	0.02517618	-0.07210348	0.001046626	0.007316782	0.01000589	-0.1109156
	0.01216761	-0.1099864	0.001046629	0.007316784	0.02794035	-0.06999748	0.00104262	0.008757829
	0.0009719198	0.01063753	0.01000588	-0.1109156	0.001042616	0.008757836	0.02580648	-0.07235384
4.4e+08	0.02343994	-0.03867483	0.006008737	0.007430326	-0.03941117	-0.08040032	0.007142053	0.009135904
	0.006008735	0.007430328	0.02310339	-0.04003369	0.005113495	0.006119264	-0.03879353	-0.08169692
	-0.03941117	-0.08040032	0.005113499	0.006119263	0.02242238	-0.03804635	0.005961458	0.007428836
	0.007142074	0.009135944	-0.03879353	-0.08169689	0.005961459	0.007428847	0.02381479	-0.04032963
4.5e+08	0.05411934	-0.02544298	0.01055559	0.002242401	-0.02709847	-0.0243211	0.01264677	0.002816215
	0.01055559	0.002242403	0.05441123	-0.03081363	0.008867589	0.001749949	-0.02604168	-0.02878522
	-0.02709846	-0.02432111	0.008867591	0.001749945	0.05260878	-0.02503838	0.01051635	0.002280967
	0.01264681	0.002816224	-0.02604166	-0.02878519	0.01051636	0.002280974	0.05513748	-0.03125854
4.6e+08	0.07665199	-0.05374309	0.009519668	-0.005766529	0.02827537	-0.02184903	0.01142865	-0.006677506
	0.009519668	-0.005766529	0.07300022	-0.06127808	0.007909478	-0.004977346	0.02622679	-0.0279567
	0.02827537	-0.02184903	0.007909479	-0.004977347	0.07470974	-0.05287818	0.009522548	-0.005713179
	0.01142868	-0.006677526	0.0262268	-0.02795668	0.009522558	-0.00571318	0.07360059	-0.06179242
4.7e+08	0.05714442	-0.08604196	0.00325877	-0.009869135	0.04529911	-0.07504966	0.00420279	-0.01162972
	0.003258772	-0.009869135	0.04995381	-0.09066075	0.002564262	-0.008334141	0.04058837	-0.0788732
	0.0452991	-0.07504966	0.00256426	-0.008334143	0.05542694	-0.08453839	0.003289107	-0.009837059
	0.004202794	-0.01162975	0.04058837	-0.07887319	0.003289115	-0.009837066	0.05050484	-0.09111183
4.8e+08	0.0210734	-0.08050653	-0.002577192	-0.009359397	-0.001547195	-0.1086212	-0.002738746	-0.01137494
	-0.002577193	-0.009359397	0.01543999	-0.08100545	-0.002321813	-0.007774593	-0.004997937	-0.1093544
	-0.001547202	-0.1086212	-0.002321813	-0.007774593	0.0199899	-0.07893342	-0.002539219	-0.009343943
	-0.002738764	-0.01137496	-0.004997929	-0.1093544	-0.00253922	-0.009343951	0.01604422	-0.08143293
4.9e+08	0.01497165	-0.0467591	-0.007534024	-0.007049401	-0.04896685	-0.07513145	-0.00896418	-0.008739359
	-0.007534024	-0.007049402	0.01370764	-0.04779069	-0.006389312	-0.005767871	-0.04906348	-0.07636097
	-0.04896685	-0.07513145	-0.006389313	-0.005767869	0.01408569	-0.04570167	-0.007482562	-0.007057328
	-0.008964201	-0.008739361	-0.04906346	-0.07636095	-0.007482566	-0.007057335	0.01439613	-0.0482753
5e+08	0.04631503	-0.03290371	-0.01164058	-0.0009878753	-0.03176939	-0.02158747	-0.0139833	-0.001368893
