!
!4 port subset of full cascaded channels using these ports:15 37 16 38
# Hz S RI R 50
0	0.01160304	0.0002780321	7.127758e-08	-1.641263e-11	0.001903653	9.192266e-05	-2.490819e-07	1.275273e-10
	7.127217e-08	-1.631245e-11	0.0125608	0.0002809536	4.200344e-07	-1.340794e-10	0.001829216	9.423245e-05
	0.001907602	9.280862e-05	4.200314e-07	-1.350599e-10	0.01318796	0.0002801382	7.795762e-08	1.718242e-11
	-2.490848e-07	1.2655e-10	0.001824681	9.264004e-05	7.796707e-08	1.69138e-11	0.01132659	0.0002815991
1e+07	0.05746668	0.02813347	6.300893e-06	4.724095e-06	0.05284851	0.06182119	3.297672e-06	2.238869e-06
	6.300893e-06	4.724095e-06	0.056522	0.02739839	8.067566e-06	6.013368e-06	0.05187301	0.06112049
	0.05284851	0.06182119	8.067566e-06	6.013368e-06	0.05747321	0.02811134	4.901036e-06	3.36593e-06
	3.297672e-06	2.238869e-06	0.05187301	0.06112049	4.901035e-06	3.36593e-06	0.0565222	0.02741793
2e+07	0.080425	-0.003526009	1.355902e-05	-7.594332e-07	0.1249391	0.02795235	6.730888e-06	-1.467323e-06
	1.355874e-05	-7.59627e-07	0.07957881	-0.003323726	1.754178e-05	-6.69477e-07	0.1239422	0.02848668
	0.124948	0.02795913	1.754174e-05	-6.695934e-07	0.08040057	-0.003529856	1.025921e-05	-1.452465e-06
	6.730784e-06	-1.467376e-06	0.1239616	0.02849013	1.025932e-05	-1.452311e-06	0.07959721	-0.003331237
3e+07	0.05542439	-0.03168222	1.610519e-05	-1.298206e-05	0.1145315	-0.05087763	6.792755e-06	-8.406737e-06
	1.61052e-05	-1.298205e-05	0.05682364	-0.03197383	2.086113e-05	-1.633464e-05	0.1161152	-0.05043873
	0.1145314	-0.0508778	2.086113e-05	-1.633464e-05	0.05540244	-0.03175116	1.096031e-05	-1.143325e-05
	6.792755e-06	-8.406739e-06	0.1161151	-0.05043855	1.09603e-05	-1.143325e-05	0.05683462	-0.03192482
4e+07	0.0213103	-0.01464726	4.332114e-06	-3.075654e-05	0.03782213	-0.06420466	-2.118102e-06	-1.733012e-05
	4.331942e-06	-3.07566e-05	0.02346405	-0.01871821	6.424873e-06	-3.811144e-05	0.04066238	-0.06779856
	0.0378249	-0.06420249	6.42488e-06	-3.811123e-05	0.02127801	-0.01471772	-3.724355e-07	-2.390994e-05
	-2.118158e-06	-1.732996e-05	0.04066487	-0.06779919	-3.723981e-07	-2.39098e-05	0.02347956	-0.01865687
5e+07	0.02935737	0.02300224	-2.678351e-05	-3.019005e-05	0.006491825	0.004244635	-2.131064e-05	-1.230492e-05
	-2.678366e-05	-3.019015e-05	0.02753249	0.01624758	-3.04371e-05	-3.855894e-05	0.005075377	-0.00262298
	0.00649249	0.004243959	-3.043679e-05	-3.855893e-05	0.02933538	0.02292204	-2.477754e-05	-1.96541e-05
	-2.131028e-05	-1.230486e-05	0.005075468	-0.002623729	-2.477716e-05	-1.965386e-05	0.02755108	0.01632738
6e+07	0.0665785	0.02409234	-4.440488e-05	-2.46377e-07	0.06474412	0.05009073	-2.708133e-05	1.077557e-05
	-4.440525e-05	-2.462794e-07	0.06106162	0.02044568	-5.342301e-05	-5.278747e-06	0.05876669	0.04663608
	0.06474359	0.05009199	-5.342291e-05	-5.278889e-06	0.06656342	0.02397244	-3.517584e-05	6.631529e-06
	-2.708138e-05	1.077504e-05	0.05876666	0.04663605	-3.517553e-05	6.630907e-06	0.06108605	0.02054338
7e+07	0.07594024	-0.009539108	-3.523491e-05	2.97551e-05	0.1253508	0.006097833	-1.321742e-05	2.910742e-05
	-3.523488e-05	2.975526e-05	0.07288082	-0.008985872	-4.697795e-05	3.106508e-05	0.1218816	0.008078562
	0.1253511	0.00609853	-4.697794e-05	3.106509e-05	0.07588981	-0.009701104	-2.34383e-05	3.055088e-05
	-1.321769e-05	2.910761e-05	0.1218817	0.008077656	-2.343869e-05	3.055093e-05	0.07291924	-0.008870437
8e+07	0.04654338	-0.02601607	-1.233573e-05	5.171916e-05	0.1022711	-0.06572844	9.170641e-06	3.698505e-05
	-1.233588e-05	5.171903e-05	0.04913164	-0.02722787	-2.238959e-05	6.124166e-05	0.105817	-0.06505773
	0.1022705	-0.06572753	-2.238938e-05	6.124189e-05	0.04644694	-0.02617785	5.152664e-07	4.555579e-05
	9.170671e-06	3.6985e-05	0.1058158	-0.06505827	5.152473e-07	4.555572e-05	0.04918244	-0.02710248
9e+07	0.02296375	-0.000221618	3.160311e-05	5.775841e-05	0.02814021	-0.06540194	4.079372e-05	2.721934e-05
	3.160287e-05	5.775841e-05	0.0258254	-0.009030967	2.980419e-05	7.34907e-05	0.03287269	-0.07355846
	0.02814008	-0.06540096	2.980473e-05	7.349066e-05	0.02285307	-0.0003606832	3.959998e-05	4.125634e-05
	4.07937e-05	2.721944e-05	0.03287165	-0.07355811	3.959975e-05	4.125662e-05	0.0258888	-0.008891984
1e+08	0.04382972	0.03076303	7.34144e-05	1.813845e-05	0.009947333	0.004127872	5.768824e-05	-1.380471e-05
	7.341423e-05	1.813837e-05	0.03860933	0.01867449	8.289852e-05	3.216577e-05	0.005526891	-0.008557371
	0.00994738	0.004128089	8.289874e-05	3.216558e-05	0.04374485	0.0306235	6.668781e-05	-1.715301e-06
	5.76885e-05	-1.380487e-05	0.005526813	-0.008556836	6.668819e-05	-1.715169e-06	0.03868586	0.01882216
1.1e+08	0.07997541	0.01846266	6.553553e-05	-4.143509e-05	0.07242668	0.03817775	3.273968e-05	-5.565609e-05
	6.553557e-05	-4.143494e-05	0.06927872	0.01303699	8.203405e-05	-3.59309e-05	0.06084088	0.03308274
	0.07242699	0.03817773	8.203379e-05	-3.593136e-05	0.07989689	0.01826384	4.743881e-05	-5.161798e-05
	3.273925e-05	-5.565675e-05	0.06084066	0.03308201	4.743861e-05	-5.161849e-05	0.06936802	0.01319926
1.2e+08	0.07835009	-0.01833706	2.366892e-05	-7.341212e-05	0.1233483	-0.01319246	-1.173211e-05	-6.707931e-05
	2.366906e-05	-7.341209e-05	0.07252259	-0.01706247	4.152297e-05	-7.857559e-05	0.1171426	-0.00939195
	0.1233487	-0.01319263	4.152239e-05	-7.857561e-05	0.07821051	-0.0185864	3.524213e-06	-7.218905e-05
	-1.173314e-05	-6.707947e-05	0.1171411	-0.009392404	3.523515e-06	-7.21893e-05	0.07263438	-0.01689065
1.3e+08	0.04353035	-0.02625751	-2.741101e-05	-8.019906e-05	0.09018929	-0.07835735	-5.752582e-05	-5.252907e-05
	-2.741102e-05	-8.019913e-05	0.0461505	-0.028269	-1.457424e-05	-9.69035e-05	0.0949047	-0.07758094
	0.0901895	-0.07835747	-1.457439e-05	-9.690302e-05	0.04331642	-0.02648877	-4.671114e-05	-6.746145e-05
	-5.75269e-05	-5.252833e-05	0.09490317	-0.0775803	-4.671219e-05	-6.746111e-05	0.04627721	-0.02809263
1.4e+08	0.02701432	0.007013815	-8.607498e-05	-4.844944e-05	0.01931833	-0.06654582	-9.295061e-05	-5.270382e-07
	-8.607494e-05	-4.844919e-05	0.02895203	-0.005853423	-8.730161e-05	-7.201173e-05	0.02444058	-0.07897633
	0.01931864	-0.06654591	-8.730139e-05	-7.201168e-05	0.02678156	0.006839156	-9.479219e-05	-2.146214e-05
	-9.29508e-05	-5.254801e-07	0.02443985	-0.0789754	-9.479273e-05	-2.146079e-05	0.02909747	-0.005666135
1.5e+08	0.05765544	0.03316199	-0.0001034508	3.05016e-05	0.01271643	0.002781913	-7.328719e-05	7.3009e-05
	-0.0001034504	3.050156e-05	0.04779246	0.017108	-0.0001206574	1.315698e-05	0.003986858	-0.01457234
	0.01271683	0.002781722	-0.0001206574	1.315698e-05	0.05746913	0.0330006	-8.952493e-05	5.840888e-05
	-7.328609e-05	7.301008e-05	0.003986463	-0.01457183	-8.952422e-05	5.841014e-05	0.04795956	0.01729657
1.6e+08	0.09268265	0.01031469	-5.281822e-05	9.400274e-05	0.07787936	0.02593693	-3.986883e-06	0.0001062238
	-5.281806e-05	9.400238e-05	0.0762151	0.004366587	-7.653991e-05	9.099467e-05	0.06019596	0.02042486
	0.07787965	0.02593658	-7.653985e-05	9.099475e-05	0.09250398	0.01007661	-2.493475e-05	0.0001050964
	-3.985566e-06	0.0001062238	0.06019531	0.02042524	-2.493356e-05	0.0001050968	0.07639612	0.004559153
1.7e+08	0.08199666	-0.0288683	1.726285e-05	0.0001049943	0.1193554	-0.03123062	6.350395e-05	8.905338e-05
	1.726274e-05	0.000104994	0.07288036	-0.02611139	-4.72842e-06	0.0001158437	0.1101967	-0.02500108
	0.1193555	-0.03123096	-4.728296e-06	0.0001158436	0.08172153	-0.0291509	4.517324e-05	9.945778e-05
	6.350491e-05	8.905264e-05	0.110196	-0.02500037	4.517427e-05	9.945739e-05	0.07308057	-0.0259122
1.8e+08	0.04280732	-0.02972621	8.32456e-05	8.047476e-05	0.07759111	-0.08939807	0.0001179782	3.80481e-05
	8.324539e-05	8.047455e-05	0.04452703	-0.03192101	6.999031e-05	0.0001046565	0.08278247	-0.08828278
	0.07759115	-0.08939828	6.99903e-05	0.0001046564	0.04244666	-0.02995211	0.0001072141	5.950175e-05
	0.0001179785	3.804687e-05	0.08278216	-0.08828186	0.0001072146	5.950079e-05	0.04474688	-0.03171346
1.9e+08	0.03217784	0.009400022	0.0001312943	4.956632e-06	0.01076295	-0.06732754	0.0001311601	-5.961002e-05
	0.000131294	4.956526e-06	0.03196353	-0.006485686	0.0001377224	3.53574e-05	0.01505032	-0.08339344
	0.01076305	-0.06732773	0.0001377222	3.53574e-05	0.031816	0.009256395	0.0001380413	-3.275643e-05
	0.0001311594	-5.961111e-05	0.01505037	-0.08339272	0.000138041	-3.275751e-05	0.03221937	-0.006271395
2e+08	0.07053905	0.03110316	0.0001017327	-9.408874e-05	0.01488818	0.0007250181	5.379661e-05	-0.0001431528
	0.0001017323	-9.408857e-05	0.05512665	0.01263254	0.0001278764	-7.577015e-05	0.000858713	-0.01995562
	0.01488826	0.0007247473	0.0001278764	-7.577009e-05	0.07024604	0.03097366	7.838324e-05	-0.0001283086
	5.379541e-05	-0.000143153	0.0008587892	-0.01995518	7.838233e-05	-0.0001283091	0.05541306	0.01282615
2.1e+08	0.1040052	-0.0004931525	1.100348e-05	-0.000135318	0.08150016	0.01339763	-5.348839e-05	-0.0001403851
	1.10034e-05	-0.0001353177	0.08142952	-0.005491717	4.118356e-05	-0.0001374302	0.05743753	0.008854677
	0.08150012	0.0133974	4.118354e-05	-0.0001374302	0.1037178	-0.0007184186	-2.713769e-05	-0.0001446737
	-5.348915e-05	-0.0001403845	0.05743752	0.008855051	-2.713844e-05	-0.0001446734	0.08172035	-0.005308192
2.2e+08	0.08552005	-0.04128477	-7.200151e-05	-0.0001123678	0.1134898	-0.04827796	-0.0001257232	-8.345459e-05
	-7.20014e-05	-0.0001123676	0.0728553	-0.03599824	-4.807293e-05	-0.0001302228	0.101327	-0.03879943
	0.1134897	-0.0482781	-4.807292e-05	-0.0001302227	0.08510669	-0.04154805	-0.0001065171	-0.0001002814
	-0.0001257234	-8.345381e-05	0.101327	-0.038799	-0.0001065175	-0.0001002809	0.07316128	-0.03580758
2.3e+08	0.04286794	-0.03610631	-0.0001357231	-5.28582e-05	0.06432468	-0.09898362	-0.0001707397	5.078786e-06
	-0.000135723	-5.28581e-05	0.04309101	-0.03752486	-0.000124345	-8.425965e-05	0.06948249	-0.0970182
	0.06432462	-0.0989837	-0.0001243449	-8.42596e-05	0.04236131	-0.03627825	-0.0001621609	-2.248388e-05
	-0.0001707394	5.079475e-06	0.06948268	-0.09701784	-0.0001621608	-2.24833e-05	0.04342322	-0.0373259
2.4e+08	0.03729323	0.007581533	-0.0001533375	5.844902e-05	0.002340333	-0.06764579	-0.0001420034	0.0001378541
	-0.0001533372	5.844907e-05	0.03416883	-0.00998465	-0.0001667472	2.263193e-05	0.004847794	-0.08641281
	0.002340315	-0.06764587	-0.0001667471	2.263184e-05	0.03680181	0.007517667	-0.0001554905	0.0001064973
	-0.0001420026	0.0001378543	0.00484801	-0.08641261	-0.0001554901	0.0001064977	0.03455057	-0.009788555
2.5e+08	0.08176482	0.02509982	-6.957551e-05	0.000153801	0.01650188	-0.001905185	-1.578432e-06	0.000204978
	-6.957536e-05	0.0001538008	0.060385	0.005910548	-0.0001052874	0.0001369383	-0.003476359	-0.02435
	0.01650183	-0.001905274	-0.0001052874	0.0001369382	0.08136941	0.02505558	-3.499746e-05	0.0001922025
	-1.577876e-06	0.0002049777	-0.003476198	-0.0243499	-3.499699e-05	0.0001922024	0.06080038	0.006061684
2.6e+08	0.1133033	-0.01384098	4.754908e-05	0.0001547799	0.08338383	0.0006153969	0.0001263189	0.0001478104
	4.754904e-05	0.0001547797	0.08465969	-0.01632662	1.215809e-05	0.0001643405	0.05298757	-0.001435662
	0.08338376	0.0006153457	1.21581e-05	0.0001643404	0.1129192	-0.01400385	9.588468e-05	0.0001596695
	0.000126319	0.0001478099	0.05298767	-0.001435577	9.588484e-05	0.0001596692	0.0850645	-0.0161992
2.7e+08	0.08800637	-0.05566579	0.0001262891	9.506487e-05	0.1058304	-0.06435629	0.0001834452	5.057459e-05
	0.000126289	9.506482e-05	0.07186486	-0.04664099	0.0001028343	0.0001207525	0.09087383	-0.05068384
	0.1058303	-0.0643563	0.0001028343	0.0001207525	0.08746472	-0.0558646	0.0001657327	7.443691e-05
	0.000183445	5.05743e-05	0.09087393	-0.05068376	0.0001657327	7.443666e-05	0.07227797	-0.04650439
2.8e+08	0.04250438	-0.04531071	0.0001734732	5.620341e-06	0.05038003	-0.1071879	0.0002043316	-6.745637e-05
	0.0001734732	5.620336e-06	0.04104704	-0.04478071	0.0001661617	4.343061e-05	0.05525432	-0.1036635
	0.05038	-0.1071879	0.0001661616	4.343061e-05	0.04186034	-0.04537856	0.0001999262	-3.474151e-05
	0.0002043313	-6.74565e-05	0.05525443	-0.1036634	0.0001999261	-3.474166e-05	0.04149101	-0.04463619
2.9e+08	0.04117818	0.002016338	0.0001496332	-0.0001277446	-0.006065325	-0.06749302	0.0001236347	-0.0002192581
	0.0001496332	-0.0001277446	0.03489777	-0.01576601	0.0001713336	-8.830975e-05	-0.005919748	-0.08782131
	-0.00606534	-0.06749303	0.0001713336	-8.830971e-05	0.04057245	0.002087433	0.0001447951	-0.0001851547
	0.0001236345	-0.000219258	-0.005919671	-0.0878213	0.0001447949	-0.0001851547	0.03540202	-0.01563447
3e+08	0.09049994	0.01572197	1.480871e-05	-0.0001987305	0.017497	-0.004976628	-7.445676e-05	-0.0002473874
	1.480871e-05	-0.0001987305	0.06320104	-0.002484277	6.01326e-05	-0.0001857186	-0.008671932	-0.02751622
	0.01749698	-0.004976638	6.013261e-05	-0.0001857186	0.09002757	0.0158175	-3.230332e-05	-0.0002389096
	-7.445681e-05	-0.0002473873	-0.008671894	-0.02751623	-3.230339e-05	-0.0002389095	0.06373895	-0.002423169
3.1e+08	0.1199053	-0.02941911	-0.0001112672	-0.0001501669	0.08358492	-0.0122948	-0.0002020369	-0.0001267456
	-0.0001112672	-0.0001501669	0.08561426	-0.02781887	-7.231805e-05	-0.000169134	0.0472623	-0.0102911
	0.08358491	-0.0122948	-7.231804e-05	-0.000169134	0.119456	-0.02947358	-0.0001692012	-0.0001479299
	-0.0002020368	-0.0001267455	0.04726231	-0.01029111	-0.0001692012	-0.0001479299	0.08612118	-0.02779511
3.2e+08	0.08857447	-0.07187588	-0.0001708078	-5.78293e-05	0.09645728	-0.07945193	-0.0002268804	3.992168e-06
	-0.0001708078	-5.782931e-05	0.06941293	-0.05784235	-0.0001503532	-9.167313e-05	0.07922113	-0.06059577
	0.09645728	-0.07945193	-0.0001503532	-9.167312e-05	0.08793192	-0.07196917	-0.0002130982	-2.70265e-05
	-0.0002268804	3.992175e-06	0.07922114	-0.06059577	-0.0002130981	-2.702649e-05	0.06991783	-0.05780414
3.3e+08	0.04058013	-0.0570365	-0.0001919554	5.194717e-05	0.0357491	-0.1140664	-0.000214329	0.0001387416
	-0.0001919555	5.194716e-05	0.03771102	-0.05332129	-0.000190709	9.045878e-06	0.04039871	-0.1081724
	0.03574911	-0.1140664	-0.000190709	9.045875e-06	0.03982577	-0.05695312	-0.0002158686	0.0001023059
	-0.0002143291	0.0001387416	0.04039871	-0.1081724	-0.0002158686	0.0001023058	0.03825069	-0.05327432
3.4e+08	0.04273859	-0.006643867	-0.0001231604	0.0001929117	-0.01456304	-0.066856	-7.987647e-05	0.0002930839
	-0.0001231604	0.0001929118	0.033557	-0.02319845	-0.0001539489	0.0001519361	-0.01697191	-0.08750834
	-0.01456304	-0.06685601	-0.0001539489	0.0001519361	0.04205525	-0.006388284	-0.0001092605	0.0002582255
	-7.987651e-05	0.0002930839	-0.01697192	-0.08750834	-0.0001092605	0.0002582255	0.03416584	-0.02317494
3.5e+08	0.09597536	0.003722069	5.402918e-05	0.0002240528	0.01780631	-0.008373313	0.0001647422	0.0002655713
	5.402923e-05	0.0002240528	0.06325006	-0.01189834	-4.057669e-07	0.0002171571	-0.01437939	-0.02932039
	0.01780633	-0.008373316	-4.057725e-07	0.0002171571	0.09547199	0.004001916	0.0001144696	0.0002634507
	0.0001647422	0.0002655714	-0.01437941	-0.02932038	0.0001144696	0.0002634507	0.06388958	-0.0119718
3.6e+08	0.1231787	-0.0466967	0.0001715173	0.0001233321	0.08212063	-0.02522924	0.0002712427	7.963356e-05
	0.0001715174	0.0001233321	0.08405368	-0.03951866	0.0001309936	0.0001532543	0.040662	-0.01764309
	0.08212063	-0.02522924	0.0001309936	0.0001532543	0.1227142	-0.04660857	0.0002379689	0.0001114774
	0.0002712428	7.963357e-05	0.04066199	-0.01764308	0.0002379689	0.0001114774	0.08463591	-0.03964237
3.7e+08	0.08641325	-0.0895004	0.0002003991	6.756932e-06	0.08540461	-0.09353193	0.0002505887	-7.326329e-05
	0.0002003991	6.756878e-06	0.06509886	-0.0692485	0.0001855022	4.857624e-05	0.06674023	-0.0685439
	0.08540462	-0.09353195	0.0001855022	4.857625e-05	0.08571399	-0.08945997	0.0002431626	-3.544259e-05
	0.0002505888	-7.326336e-05	0.06674021	-0.06854388	0.0002431626	-3.544261e-05	0.06566556	-0.06934774
3.8e+08	0.0361069	-0.07069254	0.0001906247	-0.0001119678	0.02040307	-0.1196367	0.0002004668	-0.0002101114
	0.0001906247	-0.0001119679	0.03254291	-0.06263854	0.0001971779	-6.574598e-05	0.02522064	-0.1105638
	0.02040307	-0.1196368	0.0001971779	-6.574598e-05	0.03528502	-0.07042396	0.0002094502	-0.0001717962
	0.0002004668	-0.0002101115	0.02522062	-0.1105638	0.0002094503	-0.0001717963	0.03314866	-0.06272637
3.9e+08	0.04107355	-0.01752087	7.883247e-05	-0.000247613	-0.0232612	-0.06570522	1.654402e-05	-0.0003524446
	7.883242e-05	-0.000247613	0.02970815	-0.0315554	0.0001189708	-0.0002073633	-0.02801992	-0.08544965
	-0.0232612	-0.06570522	0.0001189708	-0.0002073633	0.04036544	-0.0170457	5.417994e-05	-0.0003189746
	1.654394e-05	-0.0003524448	-0.02801993	-0.08544962	5.417991e-05	-0.0003189747	0.03039004	-0.03167759
4e+08	0.09758318	-0.009968797	-0.0001295479	-0.0002284972	0.01734247	-0.01198528	-0.0002609194	-0.0002584282
	-0.000129548	-0.0002284972	0.06033198	-0.02160131	-6.700871e-05	-0.0002297736	-0.02026677	-0.02972774
	0.01734248	-0.01198529	-6.700871e-05	-0.0002297736	0.09710946	-0.009477094	-0.0002036107	-0.0002644914
	-0.0002609196	-0.0002584283	-0.02026677	-0.0297277	-0.0002036108	-0.0002644914	0.06103827	-0.02184709
4.1e+08	0.1226132	-0.06494133	-0.0002222856	-7.774944e-05	0.07896068	-0.03807416	-0.0003272658	-1.062642e-05
	-0.0002222856	-7.774937e-05	0.0798456	-0.05087603	-0.0001824355	-0.000119725	0.03354797	-0.02350532
	0.07896068	-0.03807417	-0.0001824355	-0.000119725	0.1221961	-0.06469444	-0.0002957376	-5.402246e-05
	-0.0003272659	-1.062631e-05	0.03354797	-0.02350529	-0.0002957377	-5.40224e-05	0.08046269	-0.05118311
4.2e+08	0.08085519	-0.107871	-0.0002126568	5.217899e-05	0.07266296	-0.1065229	-0.000252043	0.0001503527
	-0.0002126568	5.217905e-05	0.05865092	-0.08037763	-0.00020582	3.074147e-06	0.0537671	-0.07459724
	0.07266297	-0.1065229	-0.00020582	3.074144e-06	0.08015416	-0.1076875	-0.000253318	0.0001065559
	-0.000252043	0.0001503528	0.05376709	-0.07459721	-0.000253318	0.0001065559	0.05923639	-0.08064425
4.3e+08	0.02831314	-0.08543008	-0.0001710173	0.0001683145	0.004296077	-0.1238672	-0.0001646967	0.0002745912
	-0.0001710172	0.0001683146	0.02517618	-0.07210348	-0.0001867666	0.0001209349	0.01000589	-0.1109156
	0.004296069	-0.1238672	-0.0001867667	0.0001209349	0.02747557	-0.08496079	-0.0001822947	0.0002365924
	-0.0001646966	0.0002745914	0.01000588	-0.1109156	-0.0001822947	0.0002365925	0.02580648	-0.07235384
4.4e+08	0.03553904	-0.02954386	-2.194528e-05	0.0002881099	-0.03227378	-0.0639827	6.011785e-05	0.0003931908
	-2.194523e-05	0.0002881099	0.02310339	-0.04003369	-7.114064e-05	0.0002509546	-0.03879353	-0.08169692
	-0.03227378	-0.0639827	-7.114058e-05	0.0002509547	0.03486821	-0.0288327	1.473498e-05	0.0003633341
	6.0118e-05	0.0003931908	-0.03879353	-0.08169689	1.473502e-05	0.0003633342	0.02381479	-0.04032963
4.5e+08	0.09493971	-0.02427592	0.0002057288	0.0002127516	0.01599445	-0.01568345	0.0003560419	0.0002269563
	0.0002057288	0.0002127516	0.05441123	-0.03081363	0.0001365598	0.0002239635	-0.02604168	-0.02878522
	0.01599446	-0.01568346	0.0001365599	0.0002239635	0.09456425	-0.02356566	0.0002932182	0.0002427311
	0.000356042	0.0002269562	-0.02604166	-0.02878519	0.0002932182	0.0002427311	0.05513748	-0.03125854
4.6e+08	0.1178855	-0.08325961	0.0002594792	1.745158e-05	0.07403775	-0.05067991	0.0003654551	-7.547107e-05
	0.0002594792	1.745155e-05	0.07300022	-0.06127808	0.0002227423	7.208586e-05	0.02622679	-0.0279567
	0.07403775	-0.05067991	0.0002227423	7.208588e-05	0.1175838	-0.08285934	0.0003380224	-2.010996e-05
	0.000365455	-7.547115e-05	0.0262268	-0.02795668	0.0003380224	-2.011002e-05	0.07360059	-0.06179242
4.7e+08	0.07144001	-0.1261162	0.000206943	-0.0001135276	0.05819522	-0.1182957	0.0002306443	-0.0002288593
	0.000206943	-0.0001135276	0.04995381	-0.09066075	0.0002105184	-5.833542e-05	0.04058837	-0.0788732
	0.05819521	-0.1182957	0.0002105184	-5.833547e-05	0.07079559	-0.1258014	0.000242803	-0.0001803959
	0.0002306442	-0.0002288593	0.04058837	-0.07887319	0.000242803	-0.0001803959	0.05050484	-0.09111183
4.8e+08	0.01670014	-0.1002003	0.0001357632	-0.0002163788	-0.01262589	-0.1266687	0.0001102128	-0.0003268243
	0.0001357631	-0.0002163788	0.01543999	-0.08100545	0.0001616916	-0.0001703217	-0.004997937	-0.1093544
	-0.0126259	-0.1266687	0.0001616917	-0.0001703217	0.01590047	-0.09953542	0.0001371909	-0.0002916333
	0.0001102127	-0.0003268244	-0.004997929	-0.1093544	0.0001371909	-0.0002916333	0.01604422	-0.08143293
