!
!4 port subset of full cascaded channels using these ports:9 37 10 38
# Hz S RI R 50
0	0.01091996	0.0002811079	-1.190466e-05	5.399068e-09	0.002146597	9.420002e-05	-1.156055e-05	5.4014e-09
	-1.190459e-05	5.399755e-09	0.0125608	0.0002809536	-8.930133e-06	4.470452e-09	0.001829216	9.423245e-05
	0.002149776	9.260734e-05	-8.930259e-06	4.451913e-09	0.01243833	0.0002814422	-1.098045e-05	5.136564e-09
	-1.156063e-05	5.383534e-09	0.001824681	9.264004e-05	-1.098041e-05	5.140029e-09	0.01132659	0.0002815991
1e+07	0.05649762	0.02744146	-0.0001492355	-0.0001067236	0.05186838	0.06114278	-0.000158363	-0.0001133552
	-0.0001492355	-0.0001067236	0.056522	0.02739839	-0.0001286819	-9.11324e-05	0.05187301	0.06112049
	0.05186838	0.06114278	-0.0001286819	-9.11324e-05	0.05652387	0.0274565	-0.0001428335	-0.0001010928
	-0.000158363	-0.0001133552	0.05187301	0.06112049	-0.0001428335	-0.0001010928	0.0565222	0.02741793
2e+07	0.07957702	-0.003177072	-0.0002860927	-1.907986e-05	0.1239513	0.02855754	-0.0003021672	-2.005501e-05
	-0.0002860966	-1.908116e-05	0.07957881	-0.003323726	-0.0002386484	-1.432439e-05	0.1239422	0.02848668
	0.1239572	0.02856162	-0.0002386432	-1.43199e-05	0.07961103	-0.00317194	-0.000270242	-1.747239e-05
	-0.00030216	-2.005048e-05	0.1239616	0.02849013	-0.0002702382	-1.747216e-05	0.07959721	-0.003331237
3e+07	0.05691414	-0.03180808	-0.0004103953	0.0001490478	0.1161287	-0.05036884	-0.0004351098	0.0001551479
	-0.0004103953	0.0001490478	0.05682364	-0.03197383	-0.0003470777	0.0001123591	0.1161152	-0.05043873
	0.1161285	-0.05036862	-0.0003470777	0.0001123594	0.05687114	-0.03185451	-0.0003904705	0.0001373585
	-0.0004351097	0.0001551481	0.1161151	-0.05043855	-0.0003904705	0.0001373584	0.05683462	-0.03192482
4e+07	0.02356106	-0.0186482	-0.0003898705	0.0005852139	0.0406588	-0.0677362	-0.0004178472	0.0006209058
	-0.0003898692	0.0005852168	0.02346405	-0.01871821	-0.0003570082	0.0004928854	0.04066238	-0.06779856
	0.04066129	-0.06773413	-0.0003570051	0.000492879	0.02346929	-0.01859296	-0.0003781376	0.0005572929
	-0.0004178436	0.0006209017	0.04066487	-0.06779919	-0.0003781391	0.0005572936	0.02347956	-0.01865687
5e+07	0.02745968	0.01630629	0.0002062733	0.0009148994	0.005018127	-0.002522346	0.000219621	0.0009758512
	0.0002062744	0.0009148994	0.02753249	0.01624758	0.0001659063	0.0008075303	0.005075377	-0.00262298
	0.005018842	-0.002522997	0.000165899	0.0008075247	0.02747253	0.01646102	0.0001968663	0.00087866
	0.0002196138	0.0009758456	0.005075468	-0.002623729	0.000196867	0.000878661	0.02755108	0.01632738
6e+07	0.06087411	0.02073063	0.0008430273	0.0005348989	0.05870508	0.04682822	0.0009002541	0.000565836
	0.0008430285	0.000534903	0.06106162	0.02044568	0.0007376593	0.0004642967	0.05876669	0.04663608
	0.05870452	0.04682942	0.0007376546	0.0004642975	0.06103512	0.02079998	0.0008079414	0.0005077969
	0.0009002483	0.0005658466	0.05876666	0.04663605	0.0008079403	0.0005078015	0.06108605	0.02054338
7e+07	0.07287138	-0.008478473	0.0009655241	-2.132686e-05	0.1218945	0.008316263	0.001022155	-2.782521e-05
	0.0009655279	-2.132811e-05	0.07288082	-0.008985872	0.0008169413	-2.238301e-05	0.1218816	0.008078562
	0.1218948	0.008316992	0.0008169402	-2.238283e-05	0.07298108	-0.008595192	0.0009148957	-2.127541e-05
	0.001022162	-2.782395e-05	0.1218817	0.008077656	0.0009148987	-2.127344e-05	0.07291924	-0.008870437
8e+07	0.04936796	-0.02683216	0.00100151	-0.0005094392	0.1058664	-0.06488749	0.001060227	-0.0005380031
	0.001001507	-0.0005094369	0.04913164	-0.02722787	0.0008582213	-0.0004008039	0.105817	-0.06505773
	0.1058658	-0.06488663	0.000858224	-0.0004008099	0.04925785	-0.02694799	0.0009565988	-0.0004754014
	0.001060227	-0.0005380022	0.1058158	-0.06505827	0.0009565982	-0.0004753962	0.04918244	-0.02710248
9e+07	0.02595021	-0.008913751	0.0006879607	-0.001348373	0.0328037	-0.07343945	0.0007335805	-0.001432858
	0.0006879637	-0.001348367	0.0258254	-0.009030967	0.0006471683	-0.001148082	0.03287269	-0.07355846
	0.03280355	-0.07343852	0.0006471634	-0.001148094	0.02576543	-0.008784269	0.0006700978	-0.001288591
	0.0007335839	-0.00143286	0.03287165	-0.07355811	0.0006701036	-0.001288585	0.0258888	-0.008891984
1e+08	0.03832885	0.018867	-0.000577514	-0.001719881	0.005312462	-0.008296537	-0.0006193822	-0.001831775
	-0.0005775128	-0.00171988	0.03860933	0.01867449	-0.0004754409	-0.001534109	0.005526891	-0.008557371
	0.005312582	-0.008296285	-0.0004754481	-0.001534113	0.03838691	0.01916335	-0.0005538307	-0.001654078
	-0.0006193895	-0.001831778	0.005526813	-0.008556836	-0.0005538303	-0.001654079	0.03868586	0.01882216
1.1e+08	0.06886504	0.01371593	-0.001618073	-0.0008124368	0.06069259	0.03357264	-0.001728116	-0.000853567
	-0.001618074	-0.0008124372	0.06927872	0.01303699	-0.001425201	-0.0007172372	0.06084088	0.03308274
	0.06069249	0.03357205	-0.001425201	-0.0007172282	0.06917407	0.0138137	-0.001552041	-0.000770847
	-0.001728117	-0.0008535583	0.06084066	0.03308201	-0.001552042	-0.0007708485	0.06936802	0.01319926
1.2e+08	0.07256878	-0.01607124	-0.001649355	0.0002349729	0.1172242	-0.008878266	-0.001743615	0.0002623008
	-0.001649355	0.0002349736	0.07252259	-0.01706247	-0.001411841	0.0002076242	0.1171426	-0.00939195
	0.1172231	-0.008878645	-0.001411838	0.0002076273	0.07275742	-0.01628863	-0.001565634	0.0002252154
	-0.001743613	0.0002623049	0.1171411	-0.009392404	-0.001565635	0.0002252149	0.07263438	-0.01689065
1.3e+08	0.04659827	-0.02766108	-0.001488259	0.001035674	0.09503774	-0.07729372	-0.001570382	0.001096889
	-0.001488259	0.001035673	0.0461505	-0.028269	-0.001288892	0.0008409062	0.0949047	-0.07758094
	0.09503654	-0.0772933	-0.001288889	0.0008409119	0.04642579	-0.02785318	-0.001425458	0.0009739356
	-0.001570378	0.001096895	0.09490317	-0.0775803	-0.00142546	0.0009739361	0.04627721	-0.02809263
1.4e+08	0.02902347	-0.005741704	-0.0007802663	0.002176793	0.02427873	-0.07879246	-0.000827727	0.002310789
	-0.000780267	0.002176792	0.02895203	-0.005853423	-0.0007600669	0.001872007	0.02444058	-0.07897633
	0.02427805	-0.07879183	-0.0007600575	0.001872007	0.02876157	-0.00554468	-0.0007646026	0.002086054
	-0.0008277172	0.002310789	0.02443985	-0.0789754	-0.0007646032	0.002086056	0.02909747	-0.005666135
1.5e+08	0.04714984	0.01753794	0.001147404	0.002434739	0.003560076	-0.01405947	0.001229421	0.002587414
	0.001147404	0.002434739	0.04779246	0.017108	0.0009640138	0.002191502	0.003986858	-0.01457234
	0.003559602	-0.01405905	0.0009640183	0.002191494	0.04726675	0.01795476	0.001104143	0.002344315
	0.001229426	0.002587407	0.003986463	-0.01457183	0.001104144	0.002344317	0.04795956	0.01729657
1.6e+08	0.07562875	0.005704266	0.002486861	0.0009030215	0.05998362	0.0213669	0.002651995	0.0009404953
	0.002486861	0.0009030214	0.0762151	0.004366587	0.002204932	0.0008107522	0.06019596	0.02042486
	0.05998299	0.02136728	0.00220493	0.0008107473	0.07608785	0.005807764	0.002387871	0.0008535757
	0.002651994	0.0009404901	0.06019531	0.02042524	0.002387873	0.0008535763	0.07639612	0.004559153
1.7e+08	0.0731789	-0.02449764	0.002300682	-0.0006522151	0.1104539	-0.02410378	0.002426916	-0.0007123478
	0.002300682	-0.0006522151	0.07288036	-0.02611139	0.001989276	-0.0005750553	0.1101967	-0.02500108
	0.1104533	-0.02410314	0.001989274	-0.0005750578	0.07343532	-0.02482845	0.002186139	-0.0006254565
	0.002426914	-0.0007123511	0.110196	-0.02500037	0.00218614	-0.0006254568	0.07308057	-0.0259122
1.8e+08	0.04529979	-0.03106213	0.001821838	-0.001714084	0.08308856	-0.08785503	0.001915556	-0.001814719
	0.001821837	-0.001714083	0.04452703	-0.03192101	0.001590352	-0.001425432	0.08278247	-0.08828278
	0.08308824	-0.08785423	0.001590348	-0.001425435	0.04506086	-0.03132524	0.001748236	-0.001620393
	0.001915551	-0.001814723	0.08278216	-0.08828186	0.001748237	-0.001620394	0.04474688	-0.03171346
1.9e+08	0.032022	-0.006259676	0.0006441848	-0.003026819	0.01480513	-0.08311572	0.0006793362	-0.003208048
	0.0006441857	-0.003026819	0.03196353	-0.006485686	0.0006679789	-0.002625553	0.01505032	-0.08339344
	0.01480512	-0.08311507	0.0006679726	-0.002625551	0.0316974	-0.00599434	0.0006385076	-0.002906941
	0.0006793303	-0.003208046	0.01505037	-0.08339272	0.0006385079	-0.002906942	0.03221937	-0.006271395
2e+08	0.05424229	0.01350518	-0.00190629	-0.003012746	0.0002214384	-0.0190742	-0.002037549	-0.00319513
	-0.00190629	-0.003012746	0.05512665	0.01263254	-0.001627796	-0.002732515	0.000858713	-0.01995562
	0.0002214874	-0.01907379	-0.001627796	-0.002732509	0.05443327	0.01402552	-0.001839158	-0.00290328
	-0.00203755	-0.003195124	0.0008587892	-0.01995518	-0.00183916	-0.002903281	0.05541306	0.01282615
2.1e+08	0.08086425	-0.003351191	-0.003411167	-0.0007730194	0.05725151	0.01040269	-0.003631316	-0.0007932666
	-0.003411168	-0.0007730194	0.08142952	-0.005491717	-0.00304202	-0.0007085787	0.05743753	0.008854677
	0.0572515	0.01040308	-0.003042017	-0.0007085766	0.08147273	-0.003264852	-0.003278499	-0.0007221897
	-0.003631314	-0.000793264	0.05743752	0.008855051	-0.0032785	-0.0007221894	0.08172035	-0.005308192
2.2e+08	0.07362184	-0.03369706	-0.002863532	0.00127417	0.1019204	-0.03742945	-0.003013915	0.00137758
	-0.002863532	0.00127417	0.0728553	-0.03599824	-0.002495449	0.001129303	0.101327	-0.03879943
	0.1019204	-0.03742905	-0.002495447	0.001129304	0.07393917	-0.03415316	-0.002721201	0.001224114
	-0.003013913	0.001377582	0.101327	-0.038799	-0.002721202	0.001224115	0.07316128	-0.03580758
2.3e+08	0.04436621	-0.03642645	-0.001957567	0.002504253	0.07009255	-0.09643913	-0.002050216	0.002648125
	-0.001957567	0.002504253	0.04309101	-0.03752486	-0.001717684	0.002118947	0.06948249	-0.0970182
	0.0700927	-0.0964388	-0.001717681	0.002118947	0.04406205	-0.03676574	-0.001880172	0.002375376
	-0.002050213	0.002648125	0.06948268	-0.09701784	-0.001880172	0.002375377	0.04342322	-0.0373259
2.4e+08	0.03430227	-0.009658263	-0.0002766754	0.003837788	0.004578367	-0.08601958	-0.000286903	0.004061219
	-0.0002766753	0.003837788	0.03416883	-0.00998465	-0.0003638575	0.003351535	0.004847794	-0.08641281
	0.004578563	-0.08601939	-0.0003638558	0.003351532	0.03392463	-0.00933639	-0.0002883353	0.00369127
	-0.0002869002	0.004061216	0.00484801	-0.08641261	-0.0002883345	0.00369127	0.03455057	-0.009788555
2.5e+08	0.0593184	0.00730485	0.002818038	0.003410177	-0.004263924	-0.0230021	0.003004978	0.00361028
	0.002818038	0.003410177	0.060385	0.005910548	0.002435208	0.003112957	-0.003476359	-0.02435
	-0.004263791	-0.02300199	0.002435207	0.003112955	0.05958899	0.007905289	0.002723445	0.003287723
	0.003004977	0.003610277	-0.003476198	-0.0243499	0.002723446	0.003287723	0.06080038	0.006061684
2.6e+08	0.08426839	-0.01324475	0.004338853	0.0004099699	0.05297229	0.000840637	0.004611549	0.0004000288
	0.004338853	0.0004099704	0.08465969	-0.01632662	0.003886974	0.0003960483	0.05298757	-0.001435662
	0.05297239	0.0008407307	0.003886973	0.0003960475	0.08501858	-0.01320001	0.00417282	0.0003642126
	0.004611547	0.0004000285	0.05298767	-0.001435577	0.00417282	0.0003642128	0.0850645	-0.0161992
2.7e+08	0.07334556	-0.04358666	0.003286722	-0.00207921	0.09200649	-0.0487876	0.003451636	-0.002234601
	0.003286722	-0.00207921	0.07186486	-0.04664099	0.002880938	-0.001851647	0.09087383	-0.05068384
	0.09200659	-0.04878752	0.002880937	-0.001851646	0.07371013	-0.04418164	0.003120437	-0.002000347
	0.003451635	-0.002234601	0.09087393	-0.05068376	0.003120437	-0.002000348	0.07227797	-0.04650439
2.8e+08	0.0430331	-0.04348342	0.001869203	-0.003352896	0.05633627	-0.102952	0.001947737	-0.003541023
	0.001869204	-0.003352896	0.04104704	-0.04478071	0.001644389	-0.002872449	0.05525432	-0.1036635
	0.05633637	-0.102952	0.001644388	-0.002872449	0.04265698	-0.04390452	0.001795067	-0.003186608
	0.001947736	-0.003541022	0.05525443	-0.1036634	0.001795067	-0.003186608	0.04149101	-0.04463619
2.9e+08	0.03521089	-0.01536413	-0.0003037655	-0.004553046	-0.006112242	-0.08731739	-0.0003293362	-0.004811335
	-0.0003037654	-0.004553046	0.03489777	-0.01576601	-0.0001373821	-0.003996329	-0.005919748	-0.08782131
	-0.006112172	-0.08731739	-0.0001373822	-0.003996328	0.03478216	-0.01499618	-0.0002678145	-0.004383164
	-0.0003293364	-0.004811334	-0.005919671	-0.0878213	-0.0002678147	-0.004383164	0.03540202	-0.01563447
3e+08	0.06205956	-0.000481424	-0.00383524	-0.003599937	-0.009500618	-0.02563717	-0.004081789	-0.003805282
	-0.00383524	-0.003599937	0.06320104	-0.002484277	-0.003343056	-0.003305262	-0.008671932	-0.02751622
	-0.009500583	-0.02563717	-0.003343056	-0.003305262	0.06240836	0.0001777827	-0.003710375	-0.003471124
	-0.004081789	-0.003805282	-0.008671894	-0.02751623	-0.003710375	-0.003471124	0.06373895	-0.002423169
3.1e+08	0.08562843	-0.02367774	-0.005219967	0.0001805703	0.04760892	-0.007210174	-0.005540639	0.0002328096
	-0.005219967	0.0001805703	0.08561426	-0.02781887	-0.004692283	0.0001235786	0.0472623	-0.0102911
	0.04760894	-0.007210175	-0.004692282	0.0001235786	0.0865059	-0.02369601	-0.005022042	0.0002148293
	-0.005540639	0.0002328096	0.04726231	-0.01029111	-0.005022042	0.0002148294	0.08612118	-0.02779511
3.2e+08	0.07191888	-0.05402312	-0.003531866	0.003033716	0.08113204	-0.05817112	-0.003700301	0.003247937
	-0.003531866	0.003033716	0.06941293	-0.05784235	-0.003108608	0.002711334	0.07922113	-0.06059577
	0.08113205	-0.05817112	-0.003108608	0.002711334	0.07231175	-0.05476629	-0.003346316	0.002921461
	-0.003700301	0.003247937	0.07922114	-0.06059577	-0.003346316	0.002921461	0.06991783	-0.05780414
3.3e+08	0.04065893	-0.05191614	-0.001547805	0.004206767	0.04215033	-0.1073946	-0.001599173	0.004437607
	-0.001547805	0.004206767	0.03771102	-0.05332129	-0.001360934	0.003636406	0.04039871	-0.1081724
	0.04215033	-0.1073946	-0.001360934	0.003636406	0.0402008	-0.05242125	-0.001483926	0.004001979
	-0.001599174	0.004437606	0.04039871	-0.1081724	-0.001483927	0.004001979	0.03825069	-0.05327432
3.4e+08	0.03420568	-0.02278323	0.001067374	0.005127356	-0.0169524	-0.08694318	0.001137809	0.00541123
	0.001067375	0.005127356	0.033557	-0.02319845	0.0008093116	0.004517165	-0.01697191	-0.08750834
	-0.01695241	-0.08694318	0.0008093106	0.004517166	0.03372403	-0.02237775	0.001000733	0.004938147
	0.001137809	0.00541123	-0.01697192	-0.08750834	0.001000734	0.004938147	0.03416584	-0.02317494
3.5e+08	0.06221203	-0.009252337	0.004909861	0.003568779	-0.01510101	-0.02689809	0.005217573	0.00376666
	0.004909861	0.003568779	0.06325006	-0.01189834	0.004307135	0.003295545	-0.01437939	-0.02932039
	-0.01510103	-0.02689808	0.004307136	0.003295545	0.06263258	-0.008553301	0.004752793	0.003440682
	0.005217574	0.00376666	-0.01437941	-0.02932038	0.004752793	0.003440682	0.06388958	-0.0119718
3.6e+08	0.0847698	-0.03428355	0.006011392	-0.0009827989	0.04159599	-0.01374611	0.006373541	-0.001088442
	0.006011392	-0.0009827988	0.08405368	-0.03951866	0.005416929	-0.0008368838	0.040662	-0.01764309
	0.04159597	-0.01374609	0.005416929	-0.0008368839	0.08575517	-0.03438222	0.005784179	-0.0009993226
	0.006373542	-0.001088442	0.04066199	-0.01764308	0.005784179	-0.0009993227	0.08463591	-0.03964237
3.7e+08	0.0689793	-0.06474604	0.003571977	-0.004099935	0.06969033	-0.06565798	0.003731799	-0.004377901
	0.003571977	-0.004099935	0.06509886	-0.0692485	0.003152218	-0.003673319	0.06674023	-0.0685439
	0.06969031	-0.06565797	0.003152218	-0.003673319	0.06937839	-0.06564192	0.003372603	-0.00395071
	0.003731799	-0.004377901	0.06674021	-0.06854388	0.003372603	-0.00395071	0.06566556	-0.06934774
3.8e+08	0.03672886	-0.06129749	0.0009956578	-0.005017098	0.02785481	-0.1098498	0.001007087	-0.005286711
	0.0009956577	-0.005017098	0.03254291	-0.06263854	0.0008688161	-0.004365187	0.02522064	-0.1105638
	0.02785479	-0.1098498	0.0008688164	-0.004365187	0.03617683	-0.06188571	0.0009488316	-0.004773882
	0.001007087	-0.005286712	0.02522062	-0.1105638	0.0009488316	-0.004773882	0.03314866	-0.06272637
3.9e+08	0.030882	-0.03126551	-0.001979779	-0.005525476	-0.02763515	-0.084935	-0.002102267	-0.005823988
	-0.001979779	-0.005525476	0.02970815	-0.0315554	-0.001620577	-0.004880852	-0.02801992	-0.08544965
	-0.02763517	-0.08493497	-0.001620577	-0.004880852	0.03034218	-0.03082928	-0.001876745	-0.005321642
	-0.002102267	-0.005823989	-0.02801993	-0.08544962	-0.001876745	-0.005321642	0.03039004	-0.03167759
4e+08	0.05961469	-0.01836982	-0.005996141	-0.003312531	-0.02071272	-0.02682032	-0.006364234	-0.003490213
	-0.005996141	-0.003312532	0.06033198	-0.02160131	-0.005285179	-0.003078966	-0.02026677	-0.02972774
	-0.02071272	-0.02682029	-0.00528518	-0.003078966	0.06009567	-0.01764667	-0.005805846	-0.003192503
	-0.006364235	-0.003490213	-0.02026677	-0.0297277	-0.005805846	-0.003192503	0.06103827	-0.02184709
4.1e+08	0.08158504	-0.04462223	-0.006676115	0.001975162	0.03530798	-0.01886157	-0.007071423	0.002144127
	-0.006676115	0.001975162	0.0798456	-0.05087603	-0.006025798	0.00172469	0.03354797	-0.02350532
	0.03530798	-0.01886154	-0.006025798	0.00172469	0.08265481	-0.0448137	-0.00642324	0.001968032
	-0.007071423	0.002144128	0.03354797	-0.02350529	-0.00642324	0.001968032	0.08046269	-0.05118311
4.2e+08	0.06425798	-0.07538398	-0.003388473	0.00523871	0.05801702	-0.07140002	-0.003526665	0.005583273
	-0.003388473	0.00523871	0.05865092	-0.08037763	-0.002993623	0.004701031	0.0537671	-0.07459724
	0.05801702	-0.07139999	-0.002993623	0.004701031	0.06463895	-0.07643185	-0.003181343	0.005049958
	-0.003526665	0.005583274	0.05376709	-0.07459721	-0.003181343	0.005049958	0.05923639	-0.08064425
4.3e+08	0.03087103	-0.07109729	-0.0002224583	0.005739614	0.01372822	-0.1104718	-0.0001817332	0.006041758
	-0.0002224578	0.005739614	0.02517618	-0.07210348	-0.0001768498	0.005017259	0.01000589	-0.1109156
	0.01372822	-0.1104718	-0.0001768498	0.00501726	0.03021175	-0.07176404	-0.0001991695	0.005459188
	-0.000181732	0.006041759	0.01000588	-0.1109156	-0.0001991689	0.005459188	0.02580648	-0.07235384
4.4e+08	0.02499162	-0.04010459	0.003004343	0.005719677	-0.03789542	-0.08141889	0.003184073	0.006020418
	0.003004342	0.005719677	0.02310339	-0.04003369	0.002537316	0.005061468	-0.03879353	-0.08169692
	-0.03789541	-0.08141885	0.002537317	0.005061467	0.02438528	-0.0396416	0.002860016	0.005506477
	0.003184074	0.006020419	-0.03879353	-0.08169689	0.002860015	0.005506478	0.02381479	-0.04032963
4.5e+08	0.05423102	-0.0271622	0.007050492	0.002833383	-0.02604869	-0.02553202	0.007475822	0.002978326
	0.007050491	0.002833384	0.05441123	-0.03081363	0.006236907	0.002657091	-0.02604168	-0.02878522
	-0.02604867	-0.025532	0.006236908	0.002657089	0.05475692	-0.02642598	0.006826849	0.002728893
	0.007475822	0.002978326	-0.02604166	-0.02878519	0.006826848	0.002728894	0.05513748	-0.03125854
4.6e+08	0.07606955	-0.05419922	0.00718186	-0.003131991	0.02903713	-0.02272459	0.007600291	-0.003372772
	0.00718186	-0.003131991	0.07300022	-0.06127808	0.006488479	-0.002763714	0.02622679	-0.0279567
	0.02903714	-0.02272457	0.006488479	-0.002763714	0.07719745	-0.05448959	0.006907857	-0.003095704
	0.007600291	-0.003372773	0.0262268	-0.02795668	0.006907857	-0.003095704	0.07360059	-0.06179242
4.7e+08	0.05760645	-0.08548395	0.002969331	-0.006409952	0.04637054	-0.07560328	0.003072254	-0.006821752
	0.002969332	-0.006409951	0.04995381	-0.09066075	0.002621056	-0.005757004	0.04058837	-0.0788732
	0.04637054	-0.07560327	0.002621055	-0.005757004	0.05794395	-0.08667704	0.002761034	-0.006180123
	0.003072254	-0.006821752	0.04058837	-0.07887319	0.002761035	-0.006180123	0.05050484	-0.09111183
4.8e+08	0.02287384	-0.08070986	-0.000756261	-0.006333726	-1.688439e-05	-0.1094679	-0.0008604882	-0.006659939
	-0.0007562615	-0.006333726	0.01543999	-0.08100545	-0.0007004562	-0.005554572	-0.004997937	-0.1093544
	-1.687726e-05	-0.1094679	-0.0007004563	-0.005554573	0.02209355	-0.08144607	-0.0007499159	-0.006018443
	-0.0008604895	-0.006659939	-0.004997929	-0.1093544	-0.0007499164	-0.006018442	0.01604422	-0.08143293
4.9e+08	0.01646131	-0.04856016	-0.004102615	-0.005688255	-0.04753743	-0.07658347	-0.004342615	-0.005977574
	-0.004102614	-0.005688256	0.01370764	-0.04779069	-0.003523746	-0.005038962	-0.04906348	-0.07636097
	-0.04753741	-0.07658345	-0.003523747	-0.005038961	0.01577805	-0.04807055	-0.003912995	-0.005471408
	-0.004342615	-0.005977574	-0.04906346	-0.07636095	-0.003912995	-0.005471409	0.01439613	-0.0482753
