!
!4 port subset of full cascaded channels using these ports:61 37 62 38
# Hz S RI R 50
0	0.012808	0.0002808772	-1.208161e-06	5.105531e-10	0.001995512	9.416984e-05	-1.256582e-06	5.221269e-10
	-1.208161e-06	5.104692e-10	0.0125608	0.0002809536	-1.181707e-06	5.31621e-10	0.001829216	9.423245e-05
	0.001990979	9.257801e-05	-1.181723e-06	5.300454e-10	0.01111513	0.0002814482	-1.22282e-06	5.404842e-10
	-1.256597e-06	5.205445e-10	0.001824681	9.264004e-05	-1.22282e-06	5.403992e-10	0.01132659	0.0002815991
1e+07	0.05743898	0.0281653	-1.330383e-05	-6.921655e-06	0.05281984	0.06186201	-1.374874e-05	-6.739236e-06
	-1.330383e-05	-6.921655e-06	0.056522	0.02739839	-1.287341e-05	-7.091206e-06	0.05187301	0.06112049
	0.05281984	0.06186201	-1.287341e-05	-7.091206e-06	0.05744771	0.02816026	-1.330018e-05	-6.921739e-06
	-1.374874e-05	-6.739236e-06	0.05187301	0.06112049	-1.330018e-05	-6.921739e-06	0.0565222	0.02741793
2e+07	0.08040462	-0.003384796	-1.035013e-05	8.94499e-06	0.1249156	0.02809357	-1.052146e-05	1.016543e-05
	-1.034918e-05	8.945243e-06	0.07957881	-0.003323726	-1.025235e-05	7.78098e-06	0.1239422	0.02848668
	0.1249396	0.02809622	-1.024972e-05	7.78201e-06	0.08041858	-0.003430795	-1.041756e-05	8.952847e-06
	-1.052056e-05	1.016637e-05	0.1239616	0.02849013	-1.0419e-05	8.952275e-06	0.07959721	-0.003331237
3e+07	0.05551919	-0.03143425	1.972914e-05	4.824165e-07	0.1146459	-0.05064654	2.09534e-05	1.73341e-06
	1.972912e-05	4.823489e-07	0.05682364	-0.03197383	1.840558e-05	-5.959934e-07	0.1161152	-0.05043873
	0.1146457	-0.05064652	1.840552e-05	-5.960611e-07	0.05549849	-0.03148223	1.959099e-05	6.095725e-07
	2.095338e-05	1.733323e-06	0.1161151	-0.05043855	1.959103e-05	6.096374e-07	0.05683462	-0.03192482
4e+07	0.02154981	-0.01446831	1.964251e-05	-4.989015e-05	0.03804614	-0.06406162	2.117696e-05	-5.023008e-05
	1.964254e-05	-4.98902e-05	0.02346405	-0.01871821	1.804542e-05	-4.924805e-05	0.04066238	-0.06779856
	0.03804851	-0.06406236	1.804536e-05	-4.924758e-05	0.02150661	-0.0144885	1.954492e-05	-4.958948e-05
	2.11769e-05	-5.022962e-05	0.04066487	-0.06779919	1.954491e-05	-4.958946e-05	0.02347956	-0.01865687
5e+07	0.02954565	0.02304823	-4.203813e-05	-6.85758e-05	0.006626058	0.004276111	-4.242014e-05	-6.947781e-05
	-4.203817e-05	-6.857581e-05	0.02753249	0.01624758	-4.160359e-05	-6.72506e-05	0.005075377	-0.00262298
	0.006626017	0.004275422	-4.160282e-05	-6.725032e-05	0.02953958	0.02305196	-4.195853e-05	-6.815729e-05
	-4.241938e-05	-6.947752e-05	0.005075468	-0.002623729	-4.195855e-05	-6.81573e-05	0.02755108	0.01632738
6e+07	0.06659053	0.02421962	-7.711171e-05	-9.960207e-06	0.06470647	0.0502492	-7.862668e-05	-8.59733e-06
	-7.711174e-05	-9.960183e-06	0.06106162	0.02044568	-7.537128e-05	-1.091904e-05	0.05876669	0.04663608
	0.0647064	0.05024916	-7.537126e-05	-1.091997e-05	0.06662362	0.02417666	-7.683905e-05	-9.643917e-06
	-7.862666e-05	-8.598257e-06	0.05876666	0.04663605	-7.683903e-05	-9.643855e-06	0.06108605	0.02054338
7e+07	0.07598092	-0.009102661	-2.576335e-05	3.606422e-05	0.12539	0.006559449	-2.510774e-05	3.949428e-05
	-2.576335e-05	3.606423e-05	0.07288082	-0.008985872	-2.618318e-05	3.293982e-05	0.1218816	0.008078562
	0.12539	0.006558607	-2.618321e-05	3.294014e-05	0.07598234	-0.009212782	-2.555798e-05	3.622637e-05
	-2.510778e-05	3.949461e-05	0.1218817	0.008077656	-2.555797e-05	3.622633e-05	0.07291924	-0.008870437
8e+07	0.04696632	-0.02540495	3.615615e-05	-1.128007e-05	0.1026812	-0.06516549	3.973391e-05	-9.342719e-06
	3.615613e-05	-1.128006e-05	0.04913164	-0.02722787	3.273969e-05	-1.288909e-05	0.105817	-0.06505773
	0.1026802	-0.06516599	3.273978e-05	-1.288942e-05	0.04688346	-0.02551588	3.621055e-05	-1.104236e-05
	3.9734e-05	-9.343046e-06	0.1058158	-0.06505827	3.621056e-05	-1.104236e-05	0.04918244	-0.02710248
9e+07	0.02376475	0.0001160087	-2.574964e-06	-9.888775e-05	0.02882453	-0.06513577	3.563656e-07	-0.0001003272
	-2.574954e-06	-9.888771e-05	0.0258254	-0.009030967	-5.401818e-06	-9.693952e-05	0.03287269	-0.07355846
	0.02882343	-0.06513537	-5.401943e-06	-9.694007e-05	0.02365695	8.951352e-05	-2.53931e-06	-9.838841e-05
	3.562329e-07	-0.0001003277	0.03287165	-0.07355811	-2.539334e-06	-9.838841e-05	0.0258888	-0.008891984
1e+08	0.04452726	0.03067248	-0.0001117378	-8.247972e-05	0.01044238	0.004059156	-0.0001124264	-8.395635e-05
	-0.0001117378	-8.247971e-05	0.03860933	0.01867449	-0.0001106813	-8.020872e-05	0.005526891	-0.008557371
	0.01044233	0.004059737	-0.000110682	-8.020873e-05	0.04450272	0.03068482	-0.0001113413	-8.172616e-05
	-0.0001124271	-8.395636e-05	0.005526813	-0.008556836	-0.0001113412	-8.172616e-05	0.03868586	0.01882216
1.1e+08	0.08036531	0.01843036	-0.0001256308	2.862994e-05	0.07254534	0.03827347	-0.0001271304	3.101867e-05
	-0.0001256308	2.862989e-05	0.06927872	0.01303699	-0.0001233168	2.68583e-05	0.06084088	0.03308274
	0.0725451	0.03827272	-0.0001233162	2.685885e-05	0.08039358	0.01829461	-0.0001247949	2.907755e-05
	-0.0001271298	3.101924e-05	0.06084066	0.03308201	-0.0001247948	2.907755e-05	0.06936802	0.01319926
1.2e+08	0.07865341	-0.01798065	-2.634386e-05	6.889035e-05	0.1235535	-0.01259102	-2.40185e-05	7.327882e-05
	-2.634394e-05	6.889035e-05	0.07252259	-0.01706247	-2.787425e-05	6.472705e-05	0.1171426	-0.00939195
	0.1235519	-0.0125914	-2.787378e-05	6.472614e-05	0.07855871	-0.01817926	-2.566246e-05	6.891067e-05
	-2.401797e-05	7.327794e-05	0.1171411	-0.009392404	-2.56624e-05	6.891074e-05	0.07263438	-0.01689065
1.3e+08	0.04431746	-0.02554872	3.732851e-05	-2.132762e-05	0.0910064	-0.0775932	4.298068e-05	-2.007887e-05
	3.732853e-05	-2.132754e-05	0.0461505	-0.028269	3.217788e-05	-2.243723e-05	0.0949047	-0.07758094
	0.09100492	-0.07759244	3.217681e-05	-2.24383e-05	0.04411581	-0.02565398	3.764759e-05	-2.128409e-05
	4.297975e-05	-2.007991e-05	0.09490317	-0.0775803	3.764773e-05	-2.128405e-05	0.04627721	-0.02809263
1.4e+08	0.02848717	0.007379319	-4.661423e-05	-0.0001146857	0.02061003	-0.06629552	-4.298357e-05	-0.0001176477
	-4.66142e-05	-0.0001146857	0.02895203	-0.005853423	-4.996507e-05	-0.0001112058	0.02444058	-0.07897633
	0.0206094	-0.06629456	-4.996642e-05	-0.0001112054	0.02833472	0.007410926	-4.643204e-05	-0.0001141832
	-4.29848e-05	-0.0001176473	0.02443985	-0.0789754	-4.64319e-05	-0.0001141833	0.02909747	-0.005666135
1.5e+08	0.05910284	0.03271983	-0.0001703875	-5.005665e-05	0.01372392	0.00240734	-0.0001713359	-5.204587e-05
	-0.0001703875	-5.005669e-05	0.04779246	0.017108	-0.0001686005	-4.70631e-05	0.003986858	-0.01457234
	0.01372357	0.002407803	-0.0001686007	-4.706222e-05	0.05909937	0.03274218	-0.0001695497	-4.914499e-05
	-0.0001713361	-5.204503e-05	0.003986463	-0.01457183	-0.0001695497	-4.914507e-05	0.04795956	0.01729657
1.6e+08	0.09338582	0.009695635	-0.0001431231	8.717827e-05	0.07824207	0.02569712	-0.000144091	8.998351e-05
	-0.0001431231	8.717829e-05	0.0762151	0.004366587	-0.0001405951	8.483801e-05	0.06019596	0.02042486
	0.0782414	0.0256975	-0.0001405948	8.483801e-05	0.093422	0.009564604	-0.0001416218	8.741885e-05
	-0.0001440906	8.998352e-05	0.06019531	0.02042524	-0.0001416218	8.741884e-05	0.07639612	0.004559153
1.7e+08	0.08242101	-0.02869909	-1.181375e-05	0.0001003319	0.1197424	-0.03072612	-7.918066e-06	0.0001045101
	-1.181375e-05	0.0001003319	0.07288036	-0.02611139	-1.442209e-05	9.589307e-05	0.1101967	-0.02500108
	0.1197418	-0.03072534	-1.442246e-05	9.589265e-05	0.08232193	-0.02893903	-1.073649e-05	9.985464e-05
	-7.918326e-06	0.0001045096	0.110196	-0.02500037	-1.07364e-05	9.985465e-05	0.07308057	-0.0259122
1.8e+08	0.04414966	-0.02896393	3.417034e-05	-2.251458e-05	0.07886298	-0.08861703	4.108937e-05	-2.269362e-05
	3.417035e-05	-2.251459e-05	0.04452703	-0.03192101	2.792421e-05	-2.261373e-05	0.08278247	-0.08828278
	0.07886275	-0.08861607	2.792336e-05	-2.261358e-05	0.04387917	-0.02912173	3.458983e-05	-2.287776e-05
	4.108862e-05	-2.269357e-05	0.08278216	-0.08828186	3.458995e-05	-2.287783e-05	0.04474688	-0.03171346
1.9e+08	0.03462513	0.009404122	-8.572581e-05	-0.0001009928	0.01276151	-0.06734013	-8.202023e-05	-0.0001054889
	-8.572583e-05	-0.0001009928	0.03196353	-0.006485686	-8.900863e-05	-9.608077e-05	0.01505032	-0.08339344
	0.01276164	-0.06733945	-8.900903e-05	-9.608001e-05	0.03437339	0.009441532	-8.545447e-05	-0.0001005954
	-8.202061e-05	-0.0001054882	0.01505037	-0.08339272	-8.545442e-05	-0.0001005955	0.03221937	-0.006271395
2e+08	0.07274135	0.02972066	-0.0001999467	5.79805e-06	0.01643993	-0.0002892221	-0.0002011579	3.234205e-06
	-0.0001999468	5.798053e-06	0.05512665	0.01263254	-0.0001973543	9.305893e-06	0.000858713	-0.01995562
	0.01644002	-0.000288824	-0.0001973541	9.306401e-06	0.07267785	0.02978592	-0.0001986329	6.629338e-06
	-0.0002011577	3.234641e-06	0.0008587892	-0.01995518	-0.0001986329	6.629253e-06	0.05541306	0.01282615
2.1e+08	0.1049044	-0.002088031	-0.0001303256	0.0001455615	0.08203501	0.01251754	-0.000130782	0.0001481787
	-0.0001303256	0.0001455615	0.08142952	-0.005491717	-0.0001276739	0.0001428723	0.05743753	0.008854677
	0.082035	0.01251791	-0.0001276737	0.0001428723	0.104914	-0.00219907	-0.0001282827	0.0001452531
	-0.0001307819	0.0001481787	0.05743752	0.008855051	-0.0001282827	0.0001452531	0.08172035	-0.005308192
2.2e+08	0.08597106	-0.04164366	1.499124e-05	0.0001246083	0.113965	-0.04810932	1.989945e-05	0.0001278925
	1.499125e-05	0.0001246083	0.0728553	-0.03599824	1.160316e-05	0.0001203243	0.101327	-0.03879943
	0.1139651	-0.04810888	1.160298e-05	0.0001203243	0.08582681	-0.0418966	1.620046e-05	0.0001234116
	1.98993e-05	0.0001278925	0.101327	-0.038799	1.620049e-05	0.0001234116	0.07316128	-0.03580758
2.3e+08	0.0446577	-0.03563428	3.486761e-05	-1.749281e-05	0.06598562	-0.09840848	4.224197e-05	-1.930128e-05
	3.486762e-05	-1.749281e-05	0.04309101	-0.03752486	2.811731e-05	-1.648195e-05	0.06948249	-0.0970182
	0.06598585	-0.09840813	2.811709e-05	-1.648163e-05	0.04429916	-0.03578738	3.515938e-05	-1.833743e-05
	4.224175e-05	-1.930103e-05	0.06948268	-0.09701784	3.515939e-05	-1.833749e-05	0.04342322	-0.0373259
2.4e+08	0.0405928	0.006879318	-0.000108159	-7.172167e-05	0.004982365	-0.06818125	-0.0001048548	-7.758568e-05
	-0.000108159	-7.172168e-05	0.03416883	-0.00998465	-0.0001109892	-6.563276e-05	0.004847794	-0.08641281
	0.004982603	-0.06818109	-0.0001109891	-6.56324e-05	0.04026355	0.006973019	-0.0001078995	-7.148961e-05
	-0.0001048547	-7.758538e-05	0.00484801	-0.08641261	-0.0001078995	-7.148967e-05	0.03455057	-0.009788555
2.5e+08	0.08457691	0.02240572	-0.0002001132	6.512632e-05	0.01848305	-0.003848562	-0.0002017061	6.194699e-05
	-0.0002001132	6.512633e-05	0.060385	0.005910548	-0.0001966705	6.896901e-05	-0.003476359	-0.02435
	0.0184832	-0.003848489	-0.0001966703	6.896912e-05	0.08448288	0.02252589	-0.000198408	6.568854e-05
	-0.0002017059	6.194709e-05	-0.003476198	-0.0243499	-0.0001984081	6.568853e-05	0.06080038	0.006061684
2.6e+08	0.1141838	-0.0168025	-9.542711e-05	0.0001921159	0.08391482	-0.001173896	-9.564611e-05	0.0001941765
	-9.542711e-05	0.0001921159	0.08465969	-0.01632662	-9.25988e-05	0.0001891896	0.05298757	-0.001435662
	0.08391491	-0.001173814	-9.259871e-05	0.0001891895	0.1141672	-0.01689564	-9.307302e-05	0.0001910407
	-9.564604e-05	0.0001941765	0.05298767	-0.001435577	-9.307303e-05	0.0001910407	0.0850645	-0.0161992
2.7e+08	0.08819434	-0.05689904	4.989076e-05	0.0001383809	0.1061954	-0.06474673	5.517813e-05	0.0001404992
	4.989076e-05	0.0001383809	0.07186486	-0.04664099	4.604669e-05	0.0001343902	0.09087383	-0.05068384
	0.1061955	-0.06474664	4.604663e-05	0.0001343903	0.0879888	-0.05714684	5.092327e-05	0.0001363751
	5.517808e-05	0.0001404992	0.09087393	-0.05068376	5.092327e-05	0.0001363751	0.07227797	-0.04650439
2.8e+08	0.04444971	-0.04540991	4.221324e-05	-1.163526e-05	0.05224596	-0.1070194	4.937974e-05	-1.496268e-05
	4.221324e-05	-1.163526e-05	0.04104704	-0.04478071	3.537321e-05	-9.63458e-06	0.05525432	-0.1036635
	0.05224607	-0.1070194	3.537322e-05	-9.634469e-06	0.04399892	-0.04552121	4.213914e-05	-1.293446e-05
	4.937972e-05	-1.496259e-05	0.05525443	-0.1036634	4.213913e-05	-1.293448e-05	0.04149101	-0.04463619
2.9e+08	0.04506791	0.0003151722	-0.0001129141	-3.935445e-05	-0.002959203	-0.06877616	-0.00011035	-4.632719e-05
	-0.0001129141	-3.935445e-05	0.03489777	-0.01576601	-0.0001150783	-3.237542e-05	-0.005919748	-0.08782131
	-0.002959127	-0.06877617	-0.0001150782	-3.237535e-05	0.04467747	0.0004989583	-0.0001127855	-3.928724e-05
	-0.00011035	-4.632712e-05	-0.005919671	-0.0878213	-0.0001127855	-3.928724e-05	0.03540202	-0.01563447
3e+08	0.09360994	0.01137102	-0.0001778977	0.0001159616	0.01967673	-0.008099756	-0.0001800305	0.000112189
	-0.0001778977	0.0001159616	0.06320104	-0.002484277	-0.0001735851	0.0001199649	-0.008671932	-0.02751622
	0.01967676	-0.008099767	-0.0001735851	0.0001199649	0.09350392	0.0115612	-0.0001759409	0.0001161364
	-0.0001800305	0.000112189	-0.008671894	-0.02751623	-0.0001759409	0.0001161364	0.06373895	-0.002423169
3.1e+08	0.1203497	-0.03407114	-4.738272e-05	0.0002220296	0.08381581	-0.01521105	-4.771651e-05	0.000223379
	-4.738272e-05	0.0002220296	0.08561426	-0.02781887	-4.430611e-05	0.0002188658	0.0472623	-0.0102911
	0.08381582	-0.01521105	-4.43061e-05	0.0002188658	0.1203099	-0.03413408	-4.49921e-05	0.0002200777
	-4.77165e-05	0.000223379	0.04726231	-0.01029111	-4.49921e-05	0.0002200777	0.08612118	-0.02779511
3.2e+08	0.08803133	-0.07421134	8.865127e-05	0.0001402151	0.09639883	-0.08055894	9.374883e-05	0.0001411765
	8.865127e-05	0.0001402151	0.06941293	-0.05784235	8.458332e-05	0.000136492	0.07922113	-0.06059577
	0.09639884	-0.08055894	8.458331e-05	0.000136492	0.087765	-0.07442806	8.919107e-05	0.0001374265
	9.374882e-05	0.0001411765	0.07922114	-0.06059577	8.919107e-05	0.0001374265	0.06991783	-0.05780414
3.3e+08	0.04225244	-0.05786676	5.527376e-05	-9.494087e-06	0.03752919	-0.1144329	6.174644e-05	-1.406226e-05
	5.527376e-05	-9.494088e-06	0.03771102	-0.05332129	4.859087e-05	-6.694392e-06	0.04039871	-0.1081724
	0.03752919	-0.1144329	4.859088e-05	-6.694372e-06	0.04172135	-0.05790449	5.461955e-05	-1.112982e-05
	6.174645e-05	-1.406224e-05	0.04039871	-0.1081724	5.461954e-05	-1.112982e-05	0.03825069	-0.05327432
3.4e+08	0.0468236	-0.009537336	-0.0001038933	-1.187948e-05	-0.01127779	-0.0690368	-0.0001022935	-1.966693e-05
	-0.0001038933	-1.187948e-05	0.033557	-0.02319845	-0.0001052927	-4.277088e-06	-0.01697191	-0.08750834
	-0.01127781	-0.0690368	-0.0001052927	-4.277099e-06	0.04639429	-0.009237877	-0.0001040039	-1.192409e-05
	-0.0001022934	-1.966695e-05	-0.01697192	-0.08750834	-0.0001040039	-1.192409e-05	0.03416584	-0.02317494
3.5e+08	0.09891252	-0.002522487	-0.000141536	0.0001527931	0.01984265	-0.01284027	-0.0001443725	0.0001485099
	-0.0001415361	0.0001527931	0.06325006	-0.01189834	-0.0001363673	0.0001567865	-0.01437939	-0.02932039
	0.01984264	-0.01284025	-0.0001363673	0.0001567865	0.09881539	-0.002248671	-0.0001394915	0.0001525273
	-0.0001443726	0.00014851	-0.01437941	-0.02932038	-0.0001394915	0.0001525273	0.06388958	-0.0119718
3.6e+08	0.1226119	-0.05321235	6.3316e-06	0.000234372	0.08165064	-0.0293823	5.536965e-06	0.000235024
	6.331599e-06	0.000234372	0.08405368	-0.03951866	9.691882e-06	0.0002309069	0.040662	-0.01764309
	0.08165063	-0.02938228	9.691887e-06	0.0002309069	0.1225588	-0.05323011	8.472438e-06	0.000231534
	5.536969e-06	0.0002350241	0.04066199	-0.01764308	8.472438e-06	0.000231534	0.08463591	-0.03964237
3.7e+08	0.08454727	-0.09299356	0.0001273626	0.000129985	0.08452335	-0.0953953	0.0001318153	0.0001299761
	0.0001273626	0.000129985	0.06509886	-0.0692485	0.0001232	0.0001264377	0.06674023	-0.0685439
	0.08452333	-0.09539528	0.0001232	0.0001264377	0.08423273	-0.09315314	0.0001271192	0.0001265411
	0.0001318153	0.0001299761	0.06674021	-0.06854388	0.0001271192	0.0001265411	0.06566556	-0.06934774
3.8e+08	0.03697629	-0.07224967	7.13404e-05	-1.377508e-05	0.0217306	-0.1205506	7.67913e-05	-1.922681e-05
	7.13404e-05	-1.377508e-05	0.03254291	-0.06263854	6.493945e-05	-1.036785e-05	0.02522064	-0.1105638
	0.02173058	-0.1205506	6.493944e-05	-1.036786e-05	0.0363889	-0.072188	6.993716e-05	-1.555943e-05
	7.679129e-05	-1.922683e-05	0.02522062	-0.1105638	6.993716e-05	-1.555944e-05	0.03314866	-0.06272637
3.9e+08	0.04485469	-0.02164143	-8.633395e-05	6.677683e-06	-0.0201577	-0.06881518	-8.583613e-05	-1.619664e-06
	-8.633395e-05	6.677682e-06	0.02970815	-0.0315554	-8.69449e-05	1.467309e-05	-0.02801992	-0.08544965
	-0.02015771	-0.06881515	-8.694494e-05	1.467311e-05	0.04441575	-0.02120832	-8.677034e-05	6.616641e-06
	-8.583617e-05	-1.619657e-06	-0.02801993	-0.08544962	-8.677034e-05	6.616635e-06	0.03039004	-0.03167759
4e+08	0.09976423	-0.0181666	-9.827844e-05	0.0001740566	0.01881806	-0.01782816	-0.0001019661	0.000169403
	-9.827844e-05	0.0001740566	0.06033198	-0.02160131	-9.230187e-05	0.0001778837	-0.02026677	-0.02972774
	0.01881806	-0.01782812	-9.230188e-05	0.0001778838	0.09970216	-0.01780008	-9.631427e-05	0.0001733611
	-0.0001019661	0.000169403	-0.02026677	-0.0297277	-9.631427e-05	0.0001733611	0.06103827	-0.02184709
4.1e+08	0.1203643	-0.07328607	5.990426e-05	0.000230194	0.07732785	-0.04342473	5.835206e-05	0.0002302881
	5.990426e-05	0.000230194	0.0798456	-0.05087603	6.353677e-05	0.0002263425	0.03354797	-0.02350532
	0.07732786	-0.0434247	6.35368e-05	0.0002263425	0.1203152	-0.07324693	6.152486e-05	0.0002265532
	5.835208e-05	0.0002302882	0.03354797	-0.02350529	6.152486e-05	0.0002265532	0.08046269	-0.05118311
4.2e+08	0.0770123	-0.1123627	0.00016256	0.0001085407	0.0705198	-0.1090306	0.0001660359	0.0001078559
	0.00016256	0.0001085407	0.05865092	-0.08037763	0.0001583498	0.0001050662	0.0537671	-0.07459724
	0.07051981	-0.1090306	0.0001583498	0.0001050662	0.07667146	-0.1124436	0.0001612927	0.0001046532
	0.0001660359	0.0001078559	0.05376709	-0.07459721	0.0001612927	0.0001046532	0.05923639	-0.08064425
4.3e+08	0.02780289	-0.08750517	8.720614e-05	-2.542181e-05	0.004773666	-0.1251952	9.14384e-05	-3.136604e-05
	8.720614e-05	-2.542181e-05	0.02517618	-0.07210348	8.113036e-05	-2.157032e-05	0.01000589	-0.1109156
	0.004773664	-0.1251952	8.113033e-05	-2.157033e-05	0.02719241	-0.08732644	8.494187e-05	-2.711477e-05
	9.143836e-05	-3.136606e-05	0.01000588	-0.1109156	8.494187e-05	-2.711477e-05	0.02580648	-0.07235384
4.4e+08	0.03847068	-0.03472099	-6.524538e-05	1.505276e-05	-0.02974244	-0.06790478	-6.591708e-05	6.555598e-06
	-6.524538e-05	1.505276e-05	0.02310339	-0.04003369	-6.509279e-05	2.325225e-05	-0.03879353	-0.08169692
	-0.02974243	-0.06790475	-6.509282e-05	2.325229e-05	0.03805682	-0.03414551	-6.60629e-05	1.51079e-05
	-6.591712e-05	6.555637e-06	-0.03879353	-0.08169689	-6.60629e-05	1.51079e-05	0.02381479	-0.04032963
4.5e+08	0.09573811	-0.03426515	-5.393058e-05	0.000180426	0.01646808	-0.02277444	-5.858176e-05	0.0001755921
	-5.393059e-05	0.000180426	0.05441123	-0.03081363	-4.722376e-05	0.0001839529	-0.02604168	-0.02878522
	0.0164681	-0.02277443	-4.722373e-05	0.000183953	0.09574178	-0.03380381	-5.219884e-05	0.0001793726
	-5.858174e-05	0.0001755922	-0.02604166	-0.02878519	-5.219885e-05	0.0001793726	0.05513748	-0.03125854
4.6e+08	0.1132634	-0.09315701	0.0001089115	0.0002116024	0.07077403	-0.05701698	0.0001063768	0.0002113679
	0.0001089115	0.0002116024	0.07300022	-0.06127808	0.0001127647	0.0002072852	0.02622679	-0.0279567
	0.07077405	-0.05701696	0.0001127647	0.0002072852	0.1132409	-0.09305572	0.0001097808	0.0002073236
	0.0001063768	0.0002113679	0.0262268	-0.02795668	0.0001097808	0.0002073236	0.07360059	-0.06179242
4.7e+08	0.06497829	-0.1312063	0.0001913153	7.75051e-05	0.0543673	-0.1211673	0.0001936022	7.65023e-05
	0.0001913153	7.75051e-05	0.04995381	-0.09066075	0.0001870469	7.401692e-05	0.04058837	-0.0788732
	0.0543673	-0.1211673	0.0001870469	7.401689e-05	0.06463993	-0.1311948	0.000188851	7.345177e-05
	0.0001936022	7.650227e-05	0.04058837	-0.07887319	0.000188851	7.345177e-05	0.05050484	-0.09111183
4.8e+08	0.01425941	-0.1023566	9.985613e-05	-4.398611e-05	-0.01337133	-0.1281186	0.0001027855	-5.002075e-05
	9.985613e-05	-4.398611e-05	0.01543999	-0.08100545	9.409795e-05	-3.981492e-05	-0.004997937	-0.1093544
	-0.01337132	-0.1281186	9.409793e-05	-3.981492e-05	0.01366542	-0.1020534	9.668562e-05	-4.531054e-05
	0.0001027855	-5.002075e-05	-0.004997929	-0.1093544	9.668562e-05	-4.531054e-05	0.01604422	-0.08143293
