!
!4 port subset of full cascaded channels using these ports:59 37 60 38
# Hz S RI R 50
0	0.01280304	0.0002779164	-1.887365e-06	1.010095e-09	0.001829594	9.193619e-05	-1.931996e-06	1.020591e-09
	-1.887364e-06	1.012854e-09	0.0125608	0.0002809536	-1.849479e-06	1.012761e-09	0.001829216	9.423245e-05
	0.001825823	9.282264e-05	-1.849503e-06	1.011951e-09	0.01136658	0.000280407	-1.905213e-06	1.025033e-09
	-1.932019e-06	1.019853e-09	0.001824681	9.264004e-05	-1.905211e-06	1.022289e-09	0.01132659	0.0002815991
1e+07	0.05652034	0.02741052	-2.172373e-05	-1.895614e-05	0.05187515	0.06112159	-2.216882e-05	-1.852124e-05
	-2.172373e-05	-1.895614e-05	0.056522	0.02739839	-2.133273e-05	-1.953649e-05	0.05187301	0.06112049
	0.05187515	0.06112159	-2.133273e-05	-1.953649e-05	0.05651924	0.02738432	-2.185633e-05	-1.909911e-05
	-2.216882e-05	-1.852124e-05	0.05187301	0.06112049	-2.185633e-05	-1.909911e-05	0.0565222	0.02741793
2e+07	0.07957534	-0.003299065	-2.029779e-05	-1.779327e-06	0.1239402	0.02848392	-2.03542e-05	-1.92821e-09
	-2.029789e-05	-1.779186e-06	0.07957881	-0.003323726	-2.03325e-05	-3.803268e-06	0.1239422	0.02848668
	0.123962	0.02849089	-2.033262e-05	-3.801588e-06	0.07957844	-0.003382002	-2.044897e-05	-1.863886e-06
	-2.035433e-05	-2.555764e-10	0.1239616	0.02849013	-2.044887e-05	-1.863942e-06	0.07959721	-0.003331237
3e+07	0.05682862	-0.03193344	2.271522e-05	-1.97463e-05	0.1161084	-0.0504425	2.43001e-05	-1.776124e-05
	2.271523e-05	-1.97463e-05	0.05682364	-0.03197383	2.098307e-05	-2.212916e-05	0.1161152	-0.05043873
	0.1161083	-0.05044259	2.098307e-05	-2.212918e-05	0.05682032	-0.03199911	2.273986e-05	-1.995988e-05
	2.43001e-05	-1.776126e-05	0.1161151	-0.05043855	2.273985e-05	-1.995988e-05	0.05683462	-0.03192482
4e+07	0.02348047	-0.01867168	2.164839e-05	-0.00010341	0.04065569	-0.0677919	2.371234e-05	-0.0001030202
	2.16484e-05	-0.0001034099	0.02346405	-0.01871821	1.924579e-05	-0.0001043499	0.04066238	-0.06779856
	0.04065837	-0.0677925	1.924572e-05	-0.000104349	0.0234711	-0.01876698	2.158391e-05	-0.0001040539
	2.371227e-05	-0.0001030193	0.04066487	-0.06779919	2.158393e-05	-0.000104054	0.02347956	-0.01865687
5e+07	0.02754918	0.01629104	-7.830591e-05	-0.0001427255	0.005082061	-0.00261531	-7.820319e-05	-0.0001428236
	-7.830594e-05	-0.0001427255	0.02753249	0.01624758	-7.899747e-05	-0.000143135	0.005075377	-0.00262298
	0.005082148	-0.002616102	-7.899633e-05	-0.0001431346	0.02752517	0.01616488	-7.892302e-05	-0.0001435332
	-7.820206e-05	-0.0001428231	0.005075468	-0.002623729	-7.892306e-05	-0.0001435332	0.02755108	0.01632738
6e+07	0.06106452	0.02049977	-0.0001445757	-5.835238e-05	0.05877767	0.04662784	-0.0001455233	-5.581938e-05
	-0.0001445757	-5.835235e-05	0.06106162	0.02044568	-0.0001442633	-6.126192e-05	0.05876669	0.04663608
	0.05877765	0.04662781	-0.0001442631	-6.126322e-05	0.06101087	0.02035108	-0.0001455779	-5.873482e-05
	-0.0001455231	-5.582069e-05	0.05876666	0.04663605	-0.0001455778	-5.873475e-05	0.06108605	0.02054338
7e+07	0.07288198	-0.008902096	-7.624914e-05	1.512875e-05	0.121875	0.008059297	-7.454766e-05	1.99809e-05
	-7.624913e-05	1.512875e-05	0.07288082	-0.008985872	-7.85418e-05	9.815013e-06	0.1218816	0.008078562
	0.1218751	0.008058396	-7.85418e-05	9.81541e-06	0.07280833	-0.009050161	-7.69838e-05	1.514797e-05
	-7.454766e-05	1.99813e-05	0.1218817	0.008077656	-7.698378e-05	1.514793e-05	0.07291924	-0.008870437
8e+07	0.04915495	-0.02711553	1.723421e-05	-5.208426e-05	0.1057913	-0.06506059	2.234682e-05	-4.891424e-05
	1.723418e-05	-5.208425e-05	0.04913164	-0.02722787	1.131341e-05	-5.594668e-05	0.105817	-0.06505773
	0.1057902	-0.06506112	1.131359e-05	-5.59473e-05	0.04908492	-0.02727368	1.688803e-05	-5.236574e-05
	2.234701e-05	-4.891486e-05	0.1058158	-0.06505827	1.688805e-05	-5.236574e-05	0.04918244	-0.02710248
9e+07	0.02588791	-0.008918124	-3.691379e-05	-0.0001926507	0.03286034	-0.07353612	-3.237374e-05	-0.0001932217
	-3.691378e-05	-0.0001926507	0.0258254	-0.009030967	-4.276861e-05	-0.0001927081	0.03287269	-0.07355846
	0.03285931	-0.07353576	-4.276884e-05	-0.000192709	0.02581335	-0.009111966	-3.762518e-05	-0.0001935278
	-3.237396e-05	-0.0001932226	0.03287165	-0.07355811	-3.76252e-05	-0.0001935278	0.0258888	-0.008891984
1e+08	0.03867912	0.01875238	-0.0002155827	-0.0001846555	0.005544156	-0.008544912	-0.0002148999	-0.0001852273
	-0.0002155827	-0.0001846555	0.03860933	0.01867449	-0.0002178245	-0.0001842012	0.005526891	-0.008557371
	0.005543959	-0.008544439	-0.0002178255	-0.0001842014	0.03856946	0.01852205	-0.0002171829	-0.0001853848
	-0.000214901	-0.0001852274	0.005526813	-0.008556836	-0.0002171828	-0.0001853848	0.03868586	0.01882216
1.1e+08	0.06930544	0.01311312	-0.0002631845	-1.271064e-05	0.06085425	0.0330595	-0.0002631048	-8.954659e-06
	-0.0002631852	-1.27109e-05	0.06927872	0.01303699	-0.0002645155	-1.624917e-05	0.06084088	0.03308274
	0.06085442	0.03305936	-0.0002645152	-1.62485e-05	0.06914975	0.01287469	-0.0002650596	-1.253538e-05
	-0.0002631048	-8.954122e-06	0.06084066	0.03308201	-0.0002650592	-1.253532e-05	0.06936802	0.01319926
1.2e+08	0.07252922	-0.01692703	-0.0001232491	6.917702e-05	0.1171143	-0.009424098	-0.0001185907	7.495613e-05
	-0.0001232495	6.917781e-05	0.07252259	-0.01706247	-0.0001289495	6.333419e-05	0.1171426	-0.00939195
	0.1171142	-0.009424309	-0.0001289487	6.333374e-05	0.07235027	-0.01715385	-0.0001244891	6.986336e-05
	-0.0001185904	7.49555e-05	0.1171411	-0.009392404	-0.0001244892	6.986237e-05	0.07263438	-0.01689065
1.3e+08	0.0462048	-0.02807311	-1.539418e-05	-5.335361e-05	0.09484994	-0.07757066	-6.948008e-06	-5.134456e-05
	-1.539339e-05	-5.335299e-05	0.0461505	-0.028269	-2.535673e-05	-5.572701e-05	0.0949047	-0.07758094
	0.09484985	-0.07757056	-2.53573e-05	-5.572822e-05	0.04602584	-0.02830492	-1.614647e-05	-5.314928e-05
	-6.948782e-06	-5.134588e-05	0.09490317	-0.0775803	-1.614751e-05	-5.314996e-05	0.04627721	-0.02809263
1.4e+08	0.02909361	-0.005667871	-0.0001284497	-0.0002092723	0.02442323	-0.07892487	-0.0001222734	-0.000212067
	-0.0001284492	-0.000209273	0.02895203	-0.005853423	-0.0001368528	-0.000206381	0.02444058	-0.07897633
	0.02442349	-0.07892467	-0.0001368539	-0.0002063805	0.02889794	-0.005932953	-0.0001297655	-0.0002096477
	-0.0001222753	-0.0002120674	0.02443985	-0.0789754	-0.0001297667	-0.0002096479	0.02909747	-0.005666135
1.5e+08	0.04794989	0.01720655	-0.0003387982	-0.0001358202	0.00402004	-0.01455102	-0.0003376664	-0.0001374847
	-0.0003387988	-0.0001358204	0.04779246	0.017108	-0.0003420853	-0.0001330778	0.003986858	-0.01457234
	0.004020501	-0.01455109	-0.0003420851	-0.0001330769	0.04770613	0.0169177	-0.0003410483	-0.0001357074
	-0.0003376678	-0.0001374837	0.003986463	-0.01457183	-0.0003410494	-0.0001357071	0.04795956	0.01729657
1.6e+08	0.07628816	0.004443358	-0.0003359569	8.839265e-05	0.06020963	0.02038656	-0.0003344911	9.20958e-05
	-0.0003359572	8.839317e-05	0.0762151	0.004366587	-0.0003387421	8.60436e-05	0.06019596	0.02042486
	0.06020991	0.02038625	-0.0003387414	8.604342e-05	0.07598653	0.004158146	-0.000338176	8.965638e-05
	-0.0003344913	9.209647e-05	0.06019531	0.02042524	-0.0003381767	8.965672e-05	0.07639612	0.004559153
1.7e+08	0.0729095	-0.02594696	-0.0001409821	0.0001472536	0.1101398	-0.02503991	-0.0001337111	0.0001520602
	-0.0001409817	0.000147254	0.07288036	-0.02611139	-0.0001492877	0.0001431544	0.1101967	-0.02500108
	0.1101399	-0.02504017	-0.0001492878	0.0001431537	0.07256886	-0.02619635	-0.0001422605	0.000148944
	-0.0001337114	0.00015206	0.110196	-0.02500037	-0.0001422612	0.0001489442	0.07308057	-0.0259122
1.8e+08	0.04462327	-0.03166045	-4.259553e-05	-2.07474e-05	0.0826959	-0.08824555	-3.20642e-05	-2.133637e-05
	-4.259507e-05	-2.074756e-05	0.04452703	-0.03192101	-5.493052e-05	-1.976631e-05	0.08278247	-0.08828278
	0.08269597	-0.08824567	-5.493117e-05	-1.976647e-05	0.04429039	-0.03188756	-4.33563e-05	-1.969989e-05
	-3.206515e-05	-2.133644e-05	0.08278216	-0.08828186	-4.335707e-05	-1.969958e-05	0.04474688	-0.03171346
1.9e+08	0.03219923	-0.006238352	-0.0002020035	-0.0001668351	0.01503463	-0.08329895	-0.0001953904	-0.0001723745
	-0.0002020035	-0.0001668354	0.03196353	-0.006485686	-0.0002111728	-0.0001600236	0.01505032	-0.08339344
	0.01503478	-0.08329909	-0.0002111731	-0.0001600231	0.03186228	-0.006495208	-0.0002034131	-0.0001663024
	-0.0001953914	-0.0001723738	0.01505037	-0.08339272	-0.0002034137	-0.0001663019	0.03221937	-0.006271395
2e+08	0.05539646	0.01273522	-0.0004106947	-3.617532e-05	0.000918265	-0.01991997	-0.0004096413	-3.932039e-05
	-0.000410695	-3.617524e-05	0.05512665	0.01263254	-0.0004137676	-3.049147e-05	0.000858713	-0.01995562
	0.0009183704	-0.01992019	-0.0004137672	-3.049118e-05	0.05500593	0.012452	-0.0004129231	-3.49435e-05
	-0.0004096416	-3.931936e-05	0.0008587892	-0.01995518	-0.0004129235	-3.494285e-05	0.05541306	0.01282615
2.1e+08	0.08156636	-0.00544238	-0.0003524473	0.0002075288	0.05745544	0.008801026	-0.0003500483	0.0002102501
	-0.0003524473	0.0002075292	0.08142952	-0.005491717	-0.0003555492	0.0002073588	0.05743753	0.008854677
	0.05745543	0.008800795	-0.0003555489	0.0002073585	0.08110264	-0.005713056	-0.0003543411	0.0002099524
	-0.0003500481	0.0002102507	0.05743752	0.008855051	-0.0003543413	0.000209953	0.08172035	-0.005308192
2.2e+08	0.07291014	-0.03582472	-0.0001240504	0.0002301547	0.1012387	-0.03884024	-0.0001152302	0.0002329362
	-0.00012405	0.0002301548	0.0728553	-0.03599824	-0.0001333296	0.0002288566	0.101327	-0.03879943
	0.1012386	-0.03884037	-0.0001333298	0.0002288564	0.07239783	-0.03603434	-0.0001248081	0.0002328302
	-0.0001152301	0.0002329364	0.101327	-0.038799	-0.0001248082	0.0002328307	0.07316128	-0.03580758
2.3e+08	0.04323771	-0.03720465	-4.666124e-05	3.048036e-05	0.06936429	-0.09694085	-3.54869e-05	2.68228e-05
	-4.666105e-05	3.048015e-05	0.04309101	-0.03752486	-5.936696e-05	3.533008e-05	0.06948249	-0.0970182
	0.06936427	-0.09694092	-5.936729e-05	3.533019e-05	0.04274443	-0.03736799	-4.691215e-05	3.237671e-05
	-3.548711e-05	2.682308e-05	0.06948268	-0.09701784	-4.69122e-05	3.237709e-05	0.04342322	-0.0373259
2.4e+08	0.03452343	-0.009682257	-0.0002370925	-9.504901e-05	0.004844097	-0.08626169	-0.0002311515	-0.000103255
	-0.0002370926	-9.504916e-05	0.03416883	-0.00998465	-0.0002452667	-8.439887e-05	0.004847794	-0.08641281
	0.004844094	-0.08626177	-0.0002452667	-8.439861e-05	0.03403857	-0.009871011	-0.0002380111	-9.362316e-05
	-0.0002311516	-0.0001032545	0.00484801	-0.08641261	-0.0002380111	-9.36228e-05	0.03455057	-0.009788555
2.5e+08	0.06079564	0.005993655	-0.0004272069	7.706226e-05	-0.003376254	-0.02429595	-0.00042687	7.240071e-05
	-0.000427207	7.706234e-05	0.060385	0.005910548	-0.000428749	8.556002e-05	-0.003476359	-0.02435
	-0.00337627	-0.02429604	-0.0004287488	8.556007e-05	0.06025593	0.005780279	-0.0004287913	7.927325e-05
	-0.0004268698	7.240115e-05	-0.003476198	-0.0243499	-0.0004287912	7.927355e-05	0.06080038	0.006061684
2.6e+08	0.084875	-0.01633662	-0.0003210031	0.0003186954	0.0530166	-0.001505686	-0.0003184011	0.0003200366
	-0.000321003	0.0003186955	0.08465969	-0.01632662	-0.0003231125	0.0003208091	0.05298757	-0.001435662
	0.05301654	-0.001505749	-0.0003231124	0.0003208089	0.08425437	-0.01652928	-0.0003220176	0.0003220128
	-0.0003184009	0.0003200368	0.05298767	-0.001435577	-0.0003220175	0.000322013	0.0850645	-0.0161992
2.7e+08	0.07195146	-0.04648183	-7.684161e-05	0.0003031993	0.09075584	-0.05072195	-6.761597e-05	0.0003036451
	-7.684148e-05	0.0003031993	0.07186486	-0.04664099	-8.548867e-05	0.0003047107	0.09087383	-0.05068384
	0.09075579	-0.05072197	-8.548881e-05	0.0003047107	0.07127429	-0.04659174	-7.663051e-05	0.0003065626
	-6.761588e-05	0.0003036452	0.09087393	-0.05068376	-7.66304e-05	0.0003065627	0.07227797	-0.04650439
2.8e+08	0.04125567	-0.04441701	-2.412255e-05	8.371527e-05	0.05511058	-0.1035346	-1.352695e-05	7.715669e-05
	-2.412253e-05	8.371517e-05	0.04104704	-0.04478071	-3.552999e-05	9.200581e-05	0.05525432	-0.1036635
	0.05511056	-0.1035346	-3.553006e-05	9.20059e-05	0.04060836	-0.04445359	-2.344854e-05	8.619025e-05
	-1.352695e-05	7.715676e-05	0.05525443	-0.1036634	-2.344847e-05	8.619033e-05	0.04149101	-0.04463619
2.9e+08	0.03539167	-0.01542839	-0.0002333597	-1.877761e-05	-0.005896284	-0.08760349	-0.0002289417	-2.921543e-05
	-0.0002333597	-1.877764e-05	0.03489777	-0.01576601	-0.0002391901	-5.028556e-06	-0.005919748	-0.08782131
	-0.005896291	-0.0876035	-0.00023919	-5.028478e-06	0.03477123	-0.0154809	-0.0002333449	-1.675666e-05
	-0.0002289417	-2.921531e-05	-0.005919671	-0.0878213	-0.0002333449	-1.675659e-05	0.03540202	-0.01563447
3e+08	0.06377357	-0.002452921	-0.0003987442	0.0001803616	-0.008513426	-0.02744301	-0.0003996885	0.0001744236
	-0.0003987442	0.0001803616	0.06320104	-0.002484277	-0.0003977168	0.0001910087	-0.008671932	-0.02751622
	-0.008513437	-0.02744302	-0.0003977168	0.0001910087	0.06310638	-0.002527864	-0.0003992572	0.0001831655
	-0.0003996884	0.0001744236	-0.008671894	-0.02751623	-0.0003992571	0.0001831656	0.06373895	-0.002423169
3.1e+08	0.08591737	-0.02792659	-0.00025508	0.0004080775	0.04731327	-0.01038126	-0.0002529792	0.0004080607
	-0.0002550799	0.0004080775	0.08561426	-0.02781887	-0.0002551319	0.0004119583	0.0472623	-0.0102911
	0.04731327	-0.01038126	-0.0002551319	0.0004119583	0.08516876	-0.0279774	-0.0002548696	0.0004118362
	-0.0002529791	0.0004080607	0.04726231	-0.01029111	-0.0002548695	0.0004118362	0.08612118	-0.02779511
3.2e+08	0.06953274	-0.05772908	-7.319151e-06	0.0003575169	0.07908015	-0.06062993	1.358902e-06	0.0003558003
	-7.319145e-06	0.0003575169	0.06941293	-0.05784235	-1.411924e-05	0.0003611971	0.07922113	-0.06059577
	0.07908015	-0.06062993	-1.411925e-05	0.0003611971	0.06872056	-0.05767988	-5.880604e-06	0.0003611186
	1.358894e-06	0.0003558003	0.07922114	-0.06059577	-5.8806e-06	0.0003611186	0.06991783	-0.05780414
3.3e+08	0.03798624	-0.05293974	2.082375e-05	0.0001268738	0.04024037	-0.1079861	2.994916e-05	0.0001179252
	2.082375e-05	0.0001268738	0.03771102	-0.05332129	1.185995e-05	0.0001376699	0.04039871	-0.1081724
	0.04024037	-0.1079861	1.185997e-05	0.00013767	0.03721577	-0.05278784	2.265519e-05	0.0001295061
	2.994918e-05	0.0001179252	0.04039871	-0.1081724	2.265518e-05	0.0001295061	0.03825069	-0.05327432
3.4e+08	0.03420096	-0.02285326	-0.000198882	4.62946e-05	-0.01690322	-0.08722009	-0.0001965633	3.423233e-05
	-0.000198882	4.629458e-05	0.033557	-0.02319845	-0.0002015136	6.20732e-05	-0.01697191	-0.08750834
	-0.01690322	-0.0872201	-0.0002015135	6.207319e-05	0.03348351	-0.02270574	-0.0001976971	4.846745e-05
	-0.0001965633	3.423231e-05	-0.01697192	-0.08750834	-0.0001976972	4.846745e-05	0.03416584	-0.02317494
3.5e+08	0.06399611	-0.01195606	-0.0003388853	0.0002616165	-0.01414269	-0.02923285	-0.0003415309	0.0002548148
	-0.0003388853	0.0002616165	0.06325006	-0.01189834	-0.0003346372	0.0002734566	-0.01437939	-0.02932039
	-0.01414268	-0.02923285	-0.0003346372	0.0002734566	0.06324854	-0.01183212	-0.0003381271	0.000264517
	-0.0003415309	0.0002548149	-0.01437941	-0.02932038	-0.0003381272	0.000264517	0.06388958	-0.0119718
3.6e+08	0.08444561	-0.03976729	-0.0001674682	0.0004697428	0.0407479	-0.01776237	-0.0001664221	0.000468661
	-0.0001674682	0.0004697428	0.08405368	-0.03951866	-0.0001647832	0.0004745293	0.040662	-0.01764309
	0.04074791	-0.01776237	-0.0001647832	0.0004745293	0.08362184	-0.03962226	-0.0001659081	0.000473421
	-0.0001664222	0.0004686611	0.04066199	-0.01764308	-0.0001659082	0.000473421	0.08463591	-0.03964237
3.7e+08	0.06524506	-0.06921785	7.60355e-05	0.0003886405	0.0665856	-0.0685787	8.347584e-05	0.000385204
	7.603551e-05	0.0003886405	0.06509886	-0.0692485	7.182314e-05	0.0003935234	0.06674023	-0.0685439
	0.06658562	-0.06857872	7.182316e-05	0.0003935234	0.06435117	-0.06896157	7.875917e-05	0.0003919793
	8.347586e-05	0.000385204	0.06674021	-0.06854388	7.875915e-05	0.0003919793	0.06566556	-0.06934774
3.8e+08	0.03288034	-0.06227051	8.109125e-05	0.0001527983	0.02506064	-0.1103216	8.816638e-05	0.0001421253
	8.109128e-05	0.0001527983	0.03254291	-0.06263854	7.519812e-05	0.000164953	0.02522064	-0.1105638
	0.02506064	-0.1103216	7.519813e-05	0.000164953	0.03204022	-0.06188174	8.411565e-05	0.0001551157
	8.816639e-05	0.0001421253	0.02522062	-0.1105638	8.411562e-05	0.0001551157	0.03314866	-0.06272637
3.9e+08	0.03050214	-0.0312354	-0.0001437863	9.186122e-05	-0.02788785	-0.08509493	-0.0001439025	7.884848e-05
	-0.0001437863	9.18612e-05	0.02970815	-0.0315554	-0.000142826	0.0001084881	-0.02801992	-0.08544965
	-0.02788785	-0.08509494	-0.000142826	0.0001084881	0.02974802	-0.03083924	-0.0001414028	9.370358e-05
	-0.0001439025	7.884846e-05	-0.02801993	-0.08544962	-0.0001414029	9.370361e-05	0.03039004	-0.03167759
4e+08	0.06125215	-0.02178884	-0.0002601435	0.0003158317	-0.01993282	-0.02963746	-0.000264748	0.0003086739
	-0.0002601435	0.0003158317	0.06033198	-0.02160131	-0.0002524132	0.0003278004	-0.02026677	-0.02972774
	-0.01993281	-0.02963746	-0.0002524132	0.0003278004	0.06049154	-0.02142255	-0.0002581272	0.0003183211
	-0.000264748	0.000308674	-0.02026677	-0.0297277	-0.0002581273	0.0003183212	0.06103827	-0.02184709
4.1e+08	0.08031672	-0.05131161	-6.891148e-05	0.0005021665	0.03368102	-0.0236691	-6.928729e-05	0.0005004665
	-6.891147e-05	0.0005021666	0.0798456	-0.05087603	-6.320764e-05	0.0005068584	0.03354797	-0.02350532
	0.03368103	-0.02366911	-6.320763e-05	0.0005068584	0.07948952	-0.05093467	-6.607628e-05	0.0005052563
	-6.928727e-05	0.0005004666	0.03354797	-0.02350529	-6.607627e-05	0.0005052564	0.08046269	-0.05118311
4.2e+08	0.05880616	-0.08046896	0.0001653211	0.0003950627	0.05360762	-0.07464399	0.0001710892	0.0003904787
	0.0001653211	0.0003950627	0.05865092	-0.08037763	0.0001639892	0.0004000748	0.0537671	-0.07459724
	0.05360763	-0.074644	0.0001639893	0.0004000748	0.05790189	-0.07997701	0.0001692041	0.0003976592
	0.0001710893	0.0003904788	0.05376709	-0.07459721	0.0001692041	0.0003976592	0.05923639	-0.08064425
4.3e+08	0.02556069	-0.0717834	0.0001490678	0.0001581423	0.009856033	-0.1106268	0.0001537751	0.0001464599
	0.0001490678	0.0001581423	0.02517618	-0.07210348	0.0001464198	0.0001704818	0.01000589	-0.1109156
	0.009856027	-0.1106268	0.0001464198	0.0001704817	0.02472073	-0.07113032	0.0001531402	0.0001596976
	0.0001537751	0.0001464598	0.01000588	-0.1109156	0.0001531402	0.0001596976	0.02580648	-0.07235384
4.4e+08	0.02403492	-0.03977448	-7.773662e-05	0.0001145244	-0.03858293	-0.08128761	-8.042063e-05	0.0001012438
	-7.773662e-05	0.0001145243	0.02310339	-0.04003369	-7.318996e-05	0.0001308453	-0.03879353	-0.08169692
	-0.03858293	-0.08128761	-7.319e-05	0.0001308453	0.02331923	-0.03910271	-7.43093e-05	0.000115591
	-8.04207e-05	0.0001012438	-0.03879353	-0.08169689	-7.430933e-05	0.000115591	0.02381479	-0.04032963
4.5e+08	0.05549297	-0.03117271	-0.0001730023	0.0003421133	-0.0255953	-0.02871057	-0.0001796628	0.0003351457
	-0.0001730023	0.0003421133	0.05441123	-0.03081363	-0.0001618797	0.0003531659	-0.02604168	-0.02878522
	-0.02559529	-0.02871058	-0.0001618797	0.0003531659	0.05480006	-0.03054326	-0.0001699198	0.0003437403
	-0.0001796628	0.0003351458	-0.02604166	-0.02878519	-0.0001699198	0.0003437404	0.05513748	-0.03125854
4.6e+08	0.07352808	-0.06194657	3.181969e-05	0.0005063025	0.02641533	-0.02818656	2.984063e-05	0.0005045023
	3.18197e-05	0.0005063025	0.07300022	-0.06127808	4.046485e-05	0.0005099021	0.02622679	-0.0279567
	0.02641533	-0.02818656	4.046485e-05	0.0005099022	0.07278118	-0.06132502	3.569126e-05	0.0005083669
	2.984066e-05	0.0005045024	0.0262268	-0.02795668	3.569129e-05	0.0005083669	0.07360059	-0.06179242
4.7e+08	0.05008833	-0.09091277	0.000253525	0.0003772998	0.04042909	-0.07894936	0.0002574132	0.0003721843
	0.000253525	0.0003772998	0.04995381	-0.09066075	0.0002549797	0.0003814011	0.04058837	-0.0788732
	0.04042908	-0.07894937	0.0002549798	0.000381401	0.04925586	-0.090181	0.0002582895	0.0003787497
	0.0002574132	0.0003721843	0.04058837	-0.07887319	0.0002582895	0.0003787497	0.05050484	-0.09111183
4.8e+08	0.01584411	-0.08076746	0.0002176091	0.0001422906	-0.005130062	-0.1090352	0.0002198489	0.0001303031
	0.0002176091	0.0001422905	0.01543999	-0.08100545	0.0002180063	0.0001537311	-0.004997937	-0.1093544
