!
!4 port subset of full cascaded channels using these ports:13 37 14 38
# Hz S RI R 50
0	0.0111192	0.0002810362	-2.317395e-06	9.858104e-10	0.002031728	9.416495e-05	-1.782441e-06	8.324911e-10
	-2.31739e-06	9.863949e-10	0.0125608	0.0002809536	-1.796516e-06	8.248467e-10	0.001829216	9.423245e-05
	0.002034906	9.257275e-05	-1.796541e-06	8.218374e-10	0.0128078	0.0002813143	-1.591373e-06	7.632322e-10
	-1.782459e-06	8.293038e-10	0.001824681	9.264004e-05	-1.591371e-06	7.626189e-10	0.01132659	0.0002815991
1e+07	0.05744067	0.02817585	-1.807387e-05	-1.454869e-05	0.05282325	0.06185686	-1.678408e-05	-1.359998e-05
	-1.807387e-05	-1.454869e-05	0.056522	0.02739839	-1.590913e-05	-1.287356e-05	0.05187301	0.06112049
	0.05282324	0.06185686	-1.590913e-05	-1.287356e-05	0.05744953	0.02817081	-1.630188e-05	-1.339991e-05
	-1.678408e-05	-1.359998e-05	0.05187301	0.06112049	-1.630188e-05	-1.339991e-05	0.0565222	0.02741793
2e+07	0.08037521	-0.003353523	-3.894217e-05	-5.334218e-06	0.1249273	0.02810179	-3.564631e-05	-5.261858e-06
	-3.894224e-05	-5.334662e-06	0.07957881	-0.003323726	-3.379078e-05	-5.022721e-06	0.1239422	0.02848668
	0.1249355	0.02809457	-3.379025e-05	-5.02237e-06	0.08038801	-0.003373444	-3.486126e-05	-5.381106e-06
	-3.564548e-05	-5.262032e-06	0.1239616	0.02849013	-3.486097e-05	-5.380964e-06	0.07959721	-0.003331237
3e+07	0.05552477	-0.03145853	-5.612916e-05	2.03951e-05	0.114619	-0.05069073	-5.27059e-05	1.723853e-05
	-5.612919e-05	2.039509e-05	0.05682364	-0.03197383	-4.990993e-05	1.619744e-05	0.1161152	-0.05043873
	0.1146183	-0.05069043	-4.990993e-05	1.619746e-05	0.05550188	-0.03150749	-5.182835e-05	1.661773e-05
	-5.270594e-05	1.723856e-05	0.1161151	-0.05043855	-5.182836e-05	1.661773e-05	0.05683462	-0.03192482
4e+07	0.02147794	-0.01451057	-5.054249e-05	7.400911e-05	0.03796831	-0.06409535	-4.993219e-05	6.900928e-05
	-5.054239e-05	7.400929e-05	0.02346405	-0.01871821	-4.76261e-05	6.49302e-05	0.04066238	-0.06779856
	0.03797065	-0.06409362	-4.762586e-05	6.492947e-05	0.02143717	-0.01453296	-4.935546e-05	6.761523e-05
	-4.993189e-05	6.900883e-05	0.04066487	-0.06779919	-4.935553e-05	6.761534e-05	0.02347956	-0.01865687
5e+07	0.02940347	0.02307952	1.591673e-05	0.0001150789	0.006528972	0.004297385	1.414513e-05	0.0001101028
	1.591664e-05	0.0001150787	0.02753249	0.01624758	1.230589e-05	0.0001044138	0.005075377	-0.00262298
	0.006529494	0.004296838	1.230509e-05	0.0001044131	0.02939524	0.02308222	1.360188e-05	0.0001082479
	1.414437e-05	0.0001101021	0.005075468	-0.002623729	1.360202e-05	0.0001082481	0.02755108	0.01632738
6e+07	0.06648621	0.02434535	9.524167e-05	8.586697e-05	0.06465557	0.05029585	9.001155e-05	8.099561e-05
	9.524136e-05	8.586769e-05	0.06106162	0.02044568	8.460452e-05	7.803499e-05	0.05876669	0.04663608
	0.06465504	0.05029715	8.460384e-05	7.803496e-05	0.06652493	0.02430761	8.821793e-05	7.97579e-05
	9.00106e-05	8.099676e-05	0.05876666	0.04663605	8.821794e-05	7.975829e-05	0.06108605	0.02054338
7e+07	0.07597287	-0.009018425	0.0001352855	2.313558e-05	0.1253699	0.006538582	0.0001257699	2.291709e-05
	0.0001352862	2.313567e-05	0.07288082	-0.008985872	0.0001195847	2.308166e-05	0.1218816	0.008078562
	0.1253702	0.006539278	0.0001195846	2.308169e-05	0.07598481	-0.009130762	0.0001234563	2.288021e-05
	0.0001257707	2.291744e-05	0.1218817	0.008077656	0.0001234566	2.288046e-05	0.07291924	-0.008870437
8e+07	0.04689272	-0.02548617	0.0001565264	-5.781329e-05	0.1025679	-0.06527866	0.0001491877	-5.046673e-05
	0.000156526	-5.781298e-05	0.04913164	-0.02722787	0.0001422372	-4.65257e-05	0.105817	-0.06505773
	0.1025673	-0.06527777	0.0001422376	-4.652653e-05	0.04682	-0.02560236	0.0001468442	-4.918378e-05
	0.0001491875	-5.046657e-05	0.1058158	-0.06505827	0.0001468441	-4.918315e-05	0.04918244	-0.02710248
9e+07	0.02341026	2.594717e-05	0.0001139914	-0.0001822699	0.02852743	-0.06520117	0.0001130045	-0.0001729688
	0.0001139918	-0.0001822692	0.0258254	-0.009030967	0.0001095977	-0.0001626903	0.03287269	-0.07355846
	0.02852728	-0.06520019	0.0001095972	-0.000162692	0.02330979	-8.832277e-06	0.0001114881	-0.0001699748
	0.000113005	-0.0001729689	0.03287165	-0.07355811	0.0001114887	-0.0001699739	0.0258888	-0.008891984
1e+08	0.04399761	0.03088242	-4.929653e-05	-0.0002439202	0.01009061	0.004203466	-4.66249e-05	-0.0002349907
	-4.929661e-05	-0.0002439203	0.03860933	0.01867449	-4.040126e-05	-0.0002244838	0.005526891	-0.008557371
	0.01009079	0.004203735	-4.040215e-05	-0.0002244844	0.04398135	0.03089093	-4.568176e-05	-0.0002310818
	-4.662575e-05	-0.0002349913	0.005526813	-0.008556836	-4.568163e-05	-0.0002310816	0.03868586	0.01882216
1.1e+08	0.07991861	0.01894897	-0.0001999196	-0.0001548941	0.07235898	0.03852989	-0.000190743	-0.000146243
	-0.0001999199	-0.0001548938	0.06927872	0.01303699	-0.000179903	-0.0001432981	0.06084088	0.03308274
	0.07235883	0.03852922	-0.0001799033	-0.0001432968	0.0799726	0.01887215	-0.0001871911	-0.0001437455
	-0.0001907433	-0.0001462419	0.06084066	0.03308201	-0.0001871909	-0.000143746	0.06936802	0.01319926
1.2e+08	0.07863641	-0.01748266	-0.0002543253	-2.1288e-05	0.1235004	-0.01248969	-0.0002385221	-2.169522e-05
	-0.0002543251	-2.128747e-05	0.07252259	-0.01706247	-0.0002285644	-2.402416e-05	0.1171426	-0.00939195
	0.1234992	-0.01249001	-0.0002285639	-2.402334e-05	0.07863093	-0.01767061	-0.0002341077	-2.180885e-05
	-0.0002385219	-2.169448e-05	0.1171411	-0.009392404	-0.000234108	-2.180936e-05	0.07263438	-0.01689065
1.3e+08	0.04429919	-0.02558961	-0.0002661318	0.000130602	0.09078133	-0.07771556	-0.0002557208	0.000118526
	-0.0002661312	0.0001306021	0.0461505	-0.028269	-0.0002456185	0.00011034	0.0949047	-0.07758094
	0.09078015	-0.07771501	-0.0002456175	0.0001103408	0.04415713	-0.02576406	-0.0002517183	0.0001158765
	-0.0002557201	0.0001185268	0.09490317	-0.0775803	-0.0002517189	0.0001158763	0.04627721	-0.02809263
1.4e+08	0.02775196	0.007198964	-0.0001549427	0.0003314948	0.02000066	-0.06632421	-0.0001541853	0.0003182643
	-0.0001549423	0.0003314946	0.02895203	-0.005853423	-0.0001518108	0.0003008893	0.02444058	-0.07897633
	0.0200001	-0.06632354	-0.0001518094	0.0003008889	0.02758382	0.007162633	-0.0001521101	0.0003129457
	-0.0001541838	0.0003182642	0.02443985	-0.0789754	-0.0001521105	0.000312946	0.02909747	-0.005666135
1.5e+08	0.05792625	0.03329481	0.0001342545	0.0003831742	0.01301709	0.002832983	0.0001305792	0.0003703795
	0.0001342547	0.0003831738	0.04779246	0.017108	0.0001173965	0.0003563239	0.003986858	-0.01457234
	0.01301666	0.002833349	0.000117397	0.0003563225	0.05789145	0.03330974	0.0001283635	0.0003641279
	0.0001305797	0.0003703783	0.003986463	-0.01457183	0.0001283634	0.0003641284	0.04795956	0.01729657
1.6e+08	0.09277794	0.01094465	0.0003457135	0.0001940693	0.07791094	0.02637273	0.0003320063	0.0001817424
	0.0003457133	0.0001940688	0.0762151	0.004366587	0.0003151265	0.000181561	0.06019596	0.02042486
	0.07791028	0.0263731	0.000315126	0.0001815602	0.09282947	0.010832	0.0003258212	0.0001784181
	0.0003320059	0.0001817417	0.06019531	0.02042524	0.0003258214	0.0001784185	0.07639612	0.004559153
1.7e+08	0.08255019	-0.02783071	0.0003853788	-2.601207e-05	0.1197198	-0.03034726	0.0003629699	-2.40307e-05
	0.0003853784	-2.601225e-05	0.07288036	-0.02611139	0.0003504472	-1.758613e-05	0.1101967	-0.02500108
	0.1197191	-0.03034656	0.0003504466	-1.758648e-05	0.08250153	-0.02808313	0.0003561005	-2.282928e-05
	0.0003629696	-2.403107e-05	0.110196	-0.02500037	0.000356101	-2.282912e-05	0.07308057	-0.0259122
1.8e+08	0.04397316	-0.02894947	0.0003596698	-0.0002496283	0.07855263	-0.08866062	0.0003469647	-0.0002320822
	0.0003596693	-0.0002496281	0.04452703	-0.03192101	0.0003353477	-0.0002186531	0.08278247	-0.08828278
	0.07855239	-0.08865975	0.0003353469	-0.0002186532	0.04374201	-0.0291565	0.0003416711	-0.0002271008
	0.000346964	-0.0002320825	0.08278216	-0.08828186	0.0003416716	-0.0002271011	0.04474688	-0.03171346
1.9e+08	0.03332058	0.009523088	0.0001471772	-0.000510377	0.01180195	-0.06719655	0.0001473466	-0.0004934587
	0.0001471772	-0.0005103767	0.03196353	-0.006485686	0.0001483407	-0.0004687853	0.01505032	-0.08339344
	0.01180203	-0.06719592	0.0001483399	-0.0004687845	0.03308098	0.009508557	0.0001456591	-0.0004853167
	0.0001473459	-0.0004934582	0.01505037	-0.08339272	0.0001456593	-0.0004853172	0.03221937	-0.006271395
2e+08	0.07107138	0.03110137	-0.000279482	-0.0005059099	0.01538262	0.0006371032	-0.0002745881	-0.0004893727
	-0.0002794819	-0.0005059094	0.05512665	0.01263254	-0.0002521868	-0.0004736424	0.000858713	-0.01995562
	0.01538269	0.0006374656	-0.0002521865	-0.0004736415	0.0710157	0.03113214	-0.0002700187	-0.0004810427
	-0.0002745881	-0.0004893718	0.0008587892	-0.01995518	-0.000270019	-0.0004810431	0.05541306	0.01282615
2.1e+08	0.1042714	0.0001124008	-0.0005201345	-0.0001801043	0.08165666	0.01382823	-0.0005012804	-0.0001642894
	-0.0005201342	-0.0001801041	0.08142952	-0.005491717	-0.0004783668	-0.0001699298	0.05743753	0.008854677
	0.08165664	0.01382861	-0.0004783663	-0.0001699296	0.1043055	-2.865272e-05	-0.0004918211	-0.0001610897
	-0.00050128	-0.0001642891	0.05743752	0.008855051	-0.0004918214	-0.0001610898	0.08172035	-0.005308192
2.2e+08	0.08635426	-0.04015632	-0.0005049763	0.0001274118	0.114109	-0.04730868	-0.0004756242	0.000122874
	-0.0005049761	0.0001274118	0.0728553	-0.03599824	-0.000462516	0.0001104556	0.101327	-0.03879943
	0.114109	-0.04730826	-0.0004625156	0.0001104557	0.08624728	-0.04045545	-0.0004664507	0.000119438
	-0.0004756239	0.0001228742	0.101327	-0.038799	-0.0004664511	0.0001194381	0.07316128	-0.03580758
2.3e+08	0.04449289	-0.03533356	-0.0004133739	0.0004057898	0.06568638	-0.09827229	-0.0003991083	0.0003819147
	-0.0004133738	0.0004057896	0.04309101	-0.03752486	-0.0003882291	0.0003629387	0.06948249	-0.0970182
	0.06568658	-0.09827195	-0.0003882286	0.0003629385	0.04416582	-0.03555247	-0.0003933997	0.0003738193
	-0.0003991078	0.0003819147	0.06948268	-0.09701784	-0.0003933998	0.0003738195	0.04342322	-0.0373259
2.4e+08	0.0388659	0.007477418	-7.999269e-05	0.0006950672	0.003730545	-0.06772883	-8.191447e-05	0.0006745535
	-7.999266e-05	0.0006950669	0.03416883	-0.00998465	-8.852079e-05	0.0006433682	0.004847794	-0.08641281
	0.003730771	-0.06772867	-8.852069e-05	0.0006433677	0.03855442	0.007500116	-8.180244e-05	0.0006635697
	-8.191413e-05	0.000674553	0.00484801	-0.08641261	-8.180229e-05	0.0006635699	0.03455057	-0.009788555
2.5e+08	0.0825264	0.02483166	0.0004756082	0.0005887712	0.01717165	-0.002225614	0.0004690771	0.0005686508
	0.0004756081	0.0005887711	0.060385	0.005910548	0.0004359188	0.0005537303	-0.003476359	-0.02435
	0.01717178	-0.002225534	0.0004359185	0.0005537299	0.08244583	0.02488514	0.0004612218	0.0005590072
	0.0004690768	0.0005686505	-0.003476198	-0.0243499	0.0004612219	0.0005590072	0.06080038	0.006061684
2.6e+08	0.1137344	-0.01334379	0.0007022817	0.0001031543	0.08366838	0.0009571776	0.0006776101	8.419623e-05
	0.0007022815	0.0001031544	0.08465969	-0.01632662	0.0006495282	9.873178e-05	0.05298757	-0.001435662
	0.08366847	0.0009572688	0.0006495279	9.873173e-05	0.1137373	-0.0135035	0.0006646731	8.233311e-05
	0.0006776099	8.419627e-05	0.05298767	-0.001435577	0.0006646732	8.233312e-05	0.0850645	-0.0161992
2.7e+08	0.08915822	-0.05455912	0.0005918351	-0.0002777604	0.1067154	-0.0634077	0.000555242	-0.0002695978
	0.000591835	-0.0002777603	0.07186486	-0.04664099	0.0005442488	-0.0002498197	0.09087383	-0.05068384
	0.1067155	-0.06340761	0.0005442487	-0.0002498196	0.08897969	-0.05488544	0.0005444038	-0.0002628799
	0.0005552419	-0.0002695977	0.09087393	-0.05068376	0.0005444038	-0.00026288	0.07227797	-0.04650439
2.8e+08	0.04460054	-0.04471104	0.0004138002	-0.0005811551	0.05213128	-0.1066289	0.0003987508	-0.0005499883
	0.0004138003	-0.0005811551	0.04104704	-0.04478071	0.0003911484	-0.0005260896	0.05525432	-0.1036635
	0.05213139	-0.1066289	0.0003911483	-0.0005260895	0.04417163	-0.04491904	0.0003937941	-0.0005383901
	0.0003987507	-0.0005499882	0.05525443	-0.1036634	0.000393794	-0.0005383902	0.04149101	-0.04463619
2.9e+08	0.04312444	0.001518343	-4.383319e-05	-0.0008629306	-0.004364878	-0.06790933	-3.914574e-05	-0.0008388676
	-4.383314e-05	-0.0008629306	0.03489777	-0.01576601	-2.518472e-05	-0.0008028388	-0.005919748	-0.08782131
	-0.004364807	-0.06790934	-2.518469e-05	-0.0008028386	0.04274146	0.001597357	-3.654615e-05	-0.0008255022
	-3.914573e-05	-0.0008388675	-0.005919671	-0.0878213	-3.654621e-05	-0.0008255022	0.03540202	-0.01563447
3e+08	0.09141593	0.01508045	-0.0007058593	-0.0006182515	0.01829423	-0.005624065	-0.0006971308	-0.0005948595
	-0.0007058593	-0.0006182515	0.06320104	-0.002484277	-0.0006525797	-0.0005834809	-0.008671932	-0.02751622
	0.01829426	-0.005624075	-0.0006525796	-0.0005834809	0.09130834	0.01516778	-0.0006854017	-0.0005849708
	-0.0006971307	-0.0005948595	-0.008671894	-0.02751623	-0.0006854018	-0.0005849708	0.06373895	-0.002423169
3.1e+08	0.1204703	-0.0291181	-0.0008724402	3.62067e-05	0.08396415	-0.01213084	-0.0008413213	5.778033e-05
	-0.0008724402	3.620669e-05	0.08561426	-0.02781887	-0.0008096991	3.161454e-05	0.0472623	-0.0102911
	0.08396417	-0.01213084	-0.000809699	3.161451e-05	0.1204306	-0.02928194	-0.0008251418	5.708334e-05
	-0.0008413212	5.778033e-05	0.04726231	-0.01029111	-0.0008251419	5.708336e-05	0.08612118	-0.02779511
3.2e+08	0.0900287	-0.07092033	-0.0006313362	0.0004652715	0.09757611	-0.07862921	-0.0005873198	0.0004523587
	-0.0006313362	0.0004652715	0.06941293	-0.05784235	-0.0005815719	0.000424501	0.07922113	-0.06059577
	0.09757612	-0.07862921	-0.0005815719	0.000424501	0.08976953	-0.07124862	-0.0005757956	0.0004415844
	-0.0005873198	0.0004523587	0.07922114	-0.06059577	-0.0005757956	0.0004415844	0.06991783	-0.05780414
3.3e+08	0.04309137	-0.05676805	-0.0003566179	0.0007569813	0.03783759	-0.1137767	-0.0003416394	0.0007175165
	-0.000356618	0.0007569813	0.03771102	-0.05332129	-0.0003398093	0.0006901984	0.04039871	-0.1081724
	0.03783759	-0.1137767	-0.0003398093	0.0006901984	0.04256093	-0.05693855	-0.0003386742	0.0007024468
	-0.0003416396	0.0007175164	0.04039871	-0.1081724	-0.0003386742	0.0007024468	0.03825069	-0.05327432
3.4e+08	0.04495518	-0.007671282	0.0002146054	0.0009969455	-0.01263073	-0.06771258	0.0002059572	0.0009694001
	0.0002146055	0.0009969454	0.033557	-0.02319845	0.0001836019	0.000930828	-0.01697191	-0.08750834
	-0.01263075	-0.06771258	0.0001836017	0.0009308281	0.04450622	-0.007514879	0.0001997226	0.0009544679
	0.0002059572	0.0009694001	-0.01697192	-0.08750834	0.0001997227	0.0009544679	0.03416584	-0.02317494
3.5e+08	0.09694191	0.002618511	0.0009526861	0.0005887675	0.01864628	-0.009429989	0.000941115	0.0005626043
	0.0009526861	0.0005887675	0.06325006	-0.01189834	0.0008854115	0.0005574594	-0.01437939	-0.02932039
	0.01864627	-0.009429976	0.0008854116	0.0005574594	0.09680948	0.002753355	0.0009253	0.0005536608
	0.0009411151	0.0005626043	-0.01437941	-0.02932038	0.0009253	0.0005536608	0.06388958	-0.0119718
3.6e+08	0.1238079	-0.04667548	0.001014716	-0.0002318121	0.08252324	-0.02531713	0.0009765993	-0.0002553019
	0.001014716	-0.0002318121	0.08405368	-0.03951866	0.0009436581	-0.0002152947	0.040662	-0.01764309
	0.08252323	-0.02531712	0.0009436581	-0.0002152947	0.1237185	-0.04682533	0.0009577641	-0.0002509505
	0.0009765994	-0.000255302	0.04066199	-0.01764308	0.0009577641	-0.0002509505	0.08463591	-0.03964237
3.7e+08	0.08809945	-0.08881147	0.0006147584	-0.0006760535	0.0866875	-0.09292151	0.0005632824	-0.0006572209
	0.0006147584	-0.0006760535	0.06509886	-0.0692485	0.0005660936	-0.0006212791	0.06674023	-0.0685439
	0.08668748	-0.09292149	0.0005660936	-0.0006212791	0.0877573	-0.08911261	0.0005522484	-0.0006419372
	0.0005632824	-0.000657221	0.06674021	-0.06854388	0.0005522484	-0.0006419372	0.06566556	-0.06934774
3.8e+08	0.03892617	-0.07087917	0.000243316	-0.0009165978	0.02274035	-0.1197095	0.0002293573	-0.0008678227
	0.000243316	-0.0009165978	0.03254291	-0.06263854	0.000235542	-0.0008393426	0.02522064	-0.1105638
	0.02274033	-0.1197095	0.000235542	-0.0008393426	0.03830261	-0.07098452	0.0002295593	-0.0008496814
	0.0002293573	-0.0008678228	0.02522062	-0.1105638	0.0002295593	-0.0008496814	0.03314866	-0.06272637
3.9e+08	0.04342473	-0.01917618	-0.0004198629	-0.001085321	-0.02120767	-0.06708305	-0.0004058822	-0.001054414
	-0.0004198629	-0.001085321	0.02970815	-0.0315554	-0.000374872	-0.00101602	-0.02801992	-0.08544965
	-0.02120768	-0.06708301	-0.0003748721	-0.00101602	0.04292088	-0.01892174	-0.0003953628	-0.001038963
	-0.0004058823	-0.001054414	-0.02801993	-0.08544962	-0.0003953628	-0.001038963	0.03039004	-0.03167759
4e+08	0.09846806	-0.01159755	-0.001199883	-0.0004998468	0.01811049	-0.01350661	-0.001184768	-0.0004716238
	-0.001199883	-0.0004998468	0.06033198	-0.02160131	-0.001118958	-0.0004751682	-0.02026677	-0.02972774
	0.0181105	-0.01350658	-0.001118958	-0.0004751681	0.09831759	-0.01140032	-0.001165003	-0.0004648193
	-0.001184768	-0.0004716238	-0.02026677	-0.0297277	-0.001165003	-0.0004648193	0.06103827	-0.02184709
4.1e+08	0.1231996	-0.06525999	-0.001116792	0.0004746744	0.07928697	-0.03846004	-0.001071227	0.0004992087
	-0.001116792	0.0004746744	0.0798456	-0.05087603	-0.001039631	0.0004437809	0.03354797	-0.02350532
	0.07928697	-0.03846002	-0.001039632	0.000443781	0.1230594	-0.06537551	-0.001050585	0.0004903065
	-0.001071227	0.0004992088	0.03354797	-0.02350529	-0.001050585	0.0004903065	0.08046269	-0.05118311
4.2e+08	0.08266142	-0.1075309	-0.0005377494	0.0008958839	0.0740121	-0.1061818	-0.0004789563	0.0008699136
	-0.0005377493	0.0008958839	0.05865092	-0.08037763	-0.0004936279	0.0008266077	0.0537671	-0.07459724
	0.0740121	-0.1061818	-0.0004936279	0.0008266078	0.08224163	-0.107774	-0.0004696831	0.0008499888
	-0.0004789563	0.0008699136	0.05376709	-0.07459721	-0.0004696831	0.0008499888	0.05923639	-0.08064425
4.3e+08	0.03129908	-0.0861518	-7.900778e-05	0.001045874	0.006767043	-0.1243625	-6.713676e-05	0.0009868057
	-7.900763e-05	0.001045874	0.02517618	-0.07210348	-8.31759e-05	0.0009600438	0.01000589	-0.1109156
	0.006767042	-0.1243625	-8.31759e-05	0.0009600438	0.03059916	-0.08616525	-7.153848e-05	0.0009663011
	-6.713656e-05	0.0009868058	0.01000588	-0.1109156	-7.153842e-05	0.0009663011	0.02580648	-0.07235384
4.4e+08	0.03786642	-0.03188285	0.0006461695	0.001120326	-0.03023183	-0.06592713	0.0006253092	0.00108626
	0.0006461694	0.001120326	0.02310339	-0.04003369	0.0005861963	0.001051014	-0.03879353	-0.08169692
	-0.03023181	-0.0659271	0.0005861966	0.001051014	0.03732438	-0.03151175	0.0006101469	0.001071475
	0.0006253093	0.00108626	-0.03879353	-0.08169689	0.0006101467	0.001071475	0.02381479	-0.04032963
4.5e+08	0.0955886	-0.02645685	0.001432914	0.000354396	0.01655653	-0.01768931	0.001413518	0.0003250687
	0.001432914	0.0003543961	0.05441123	-0.03081363	0.001339379	0.0003393644	-0.02604168	-0.02878522
	0.01655655	-0.0176893	0.001339379	0.000339364	0.09543201	-0.02618218	0.001390246	0.0003215249
	0.001413518	0.0003250687	-0.02604166	-0.02878519	0.001390246	0.0003215251	0.05513748	-0.03125854
4.6e+08	0.1182964	-0.0839404	0.001169289	-0.0007541979	0.07417062	-0.05137409	0.001115953	-0.0007787228
	0.001169289	-0.0007541979	0.07300022	-0.06127808	0.001088671	-0.000707008	0.02622679	-0.0279567
	0.07417063	-0.05137408	0.001088671	-0.0007070081	0.118111	-0.08400054	0.001094542	-0.0007646079
	0.001115953	-0.0007787229	0.0262268	-0.02795668	0.001094542	-0.0007646079	0.07360059	-0.06179242
4.7e+08	0.07322924	-0.1261633	0.0003992995	-0.001110782	0.05949608	-0.1182443	0.0003335549	-0.001076405
	0.0003992996	-0.001110782	0.04995381	-0.09066075	0.0003632004	-0.001027173	0.04058837	-0.0788732
	0.05949609	-0.1182443	0.0003632002	-0.001027173	0.0727454	-0.1263178	0.000327332	-0.001052013
	0.0003335549	-0.001076405	0.04058837	-0.07887319	0.0003273322	-0.001052013	0.05050484	-0.09111183
4.8e+08	0.01969177	-0.1014881	-0.000128691	-0.001133093	-0.01015138	-0.1276068	-0.0001372548	-0.001062831
	-0.0001286911	-0.001133093	0.01543999	-0.08100545	-0.0001100524	-0.001041151	-0.004997937	-0.1093544
	-0.01015137	-0.1276068	-0.0001100524	-0.001041151	0.01894067	-0.1013858	-0.0001278149	-0.001040926
	-0.000137255	-0.001062831	-0.004997929	-0.1093544	-0.000127815	-0.001040926	0.01604422	-0.08143293
