!
!4 port subset of full cascaded channels using these ports:53 37 54 38
# Hz S RI R 50
0	0.01255927	0.0002809303	2.3265e-06	-1.12498e-09	0.00182928	9.422353e-05	2.371681e-06	-1.129182e-09
	2.3265e-06	-1.124798e-09	0.0125608	0.0002809536	2.371578e-06	-1.179056e-09	0.001829216	9.423245e-05
	0.001824745	9.263131e-05	2.371607e-06	-1.175309e-09	0.0113262	0.0002815511	2.42258e-06	-1.178546e-09
	2.37171e-06	-1.125426e-09	0.001824681	9.264004e-05	2.42258e-06	-1.178365e-09	0.01132659	0.0002815991
1e+07	0.05648962	0.02743085	2.662904e-05	1.812588e-05	0.05185087	0.06114235	2.713379e-05	1.781344e-05
	2.662904e-05	1.812588e-05	0.056522	0.02739839	2.650211e-05	1.865743e-05	0.05187301	0.06112049
	0.05185087	0.06114235	2.650211e-05	1.865743e-05	0.05650464	0.02743646	2.694616e-05	1.827983e-05
	2.713379e-05	1.781344e-05	0.05187301	0.06112049	2.694616e-05	1.827983e-05	0.0565222	0.02741793
2e+07	0.07955279	-0.003180578	2.295234e-05	-9.526616e-06	0.123931	0.02858259	2.302164e-05	-1.11218e-05
	2.295234e-05	-9.526639e-06	0.07957881	-0.003323726	2.315259e-05	-7.982302e-06	0.1239422	0.02848668
	0.1239504	0.02858604	2.315265e-05	-7.983836e-06	0.07958247	-0.003239464	2.316165e-05	-9.605895e-06
	2.302171e-05	-1.112331e-05	0.1239616	0.02849013	2.316165e-05	-9.605949e-06	0.07959721	-0.003331237
3e+07	0.0569192	-0.03177596	-3.550109e-05	7.743823e-06	0.1161794	-0.05031067	-3.715082e-05	6.195866e-06
	-3.550109e-05	7.74382e-06	0.05682364	-0.03197383	-3.415541e-05	9.653635e-06	0.1161152	-0.05043873
	0.1161792	-0.05031048	-3.41554e-05	9.65367e-06	0.05689179	-0.03181217	-3.574328e-05	8.023184e-06
	-3.715081e-05	6.195899e-06	0.1161151	-0.05043855	-3.574328e-05	8.023185e-06	0.05683462	-0.03192482
4e+07	0.0236307	-0.01862648	-3.979423e-05	0.0001100575	0.04077251	-0.06773974	-4.169688e-05	0.0001104326
	-3.979424e-05	0.0001100575	0.02346405	-0.01871821	-3.784783e-05	0.0001111713	0.04066238	-0.06779856
	0.04077499	-0.06774037	-3.784765e-05	0.0001111702	0.02357648	-0.01860554	-3.967591e-05	0.0001112301
	-4.16967e-05	0.0001104316	0.04066487	-0.06779919	-3.967592e-05	0.0001112301	0.02347956	-0.01865687
5e+07	0.02755782	0.01625847	8.128479e-05	0.0001592087	0.005093225	-0.002617087	8.172787e-05	0.0001600212
	8.128481e-05	0.0001592087	0.02753249	0.01624758	8.233801e-05	0.0001599783	0.005075377	-0.00262298
	0.005093318	-0.002617834	8.233654e-05	0.0001599776	0.02756699	0.01633217	8.261315e-05	0.0001603256
	8.17264e-05	0.0001600205	0.005075468	-0.002623729	8.261318e-05	0.0001603256	0.02755108	0.01632738
6e+07	0.0609232	0.0206372	0.0001631873	5.167291e-05	0.05867772	0.04675933	0.0001646581	4.955747e-05
	0.0001631873	5.167288e-05	0.06106162	0.02044568	0.0001637211	5.400128e-05	0.05876669	0.04663608
	0.0586777	0.0467593	0.0001637209	5.400306e-05	0.06100871	0.02065106	0.0001648054	5.159278e-05
	0.0001646579	4.955925e-05	0.05876666	0.04663605	0.0001648053	5.159272e-05	0.06108605	0.02054338
7e+07	0.07286679	-0.00851155	7.292714e-05	-4.681006e-05	0.1218732	0.008387016	7.136834e-05	-5.111909e-05
	7.292713e-05	-4.681006e-05	0.07288082	-0.008985872	7.523841e-05	-4.296995e-05	0.1218816	0.008078562
	0.1218732	0.008386111	7.523849e-05	-4.297053e-05	0.07291325	-0.008600028	7.343079e-05	-4.734469e-05
	7.136843e-05	-5.111968e-05	0.1218817	0.008077656	7.343078e-05	-4.734465e-05	0.07291924	-0.008870437
8e+07	0.04944943	-0.02674609	-5.62795e-05	3.472717e-05	0.1060271	-0.06474289	-6.12024e-05	3.276714e-05
	-5.627948e-05	3.472716e-05	0.04913164	-0.02722787	-5.153766e-05	3.764098e-05	0.105817	-0.06505773
	0.106026	-0.06474342	-5.153792e-05	3.764167e-05	0.04936954	-0.02682821	-5.641441e-05	3.547927e-05
	-6.120267e-05	3.276783e-05	0.1058158	-0.06505827	-5.641442e-05	3.547928e-05	0.04918244	-0.02710248
9e+07	0.02625074	-0.008859925	1.575176e-07	0.0002178276	0.03315582	-0.07344852	-3.361942e-06	0.0002198918
	1.575046e-07	0.0002178276	0.0258254	-0.009030967	5.068015e-06	0.0002182916	0.03287269	-0.07355846
	0.03315478	-0.07344817	5.068193e-06	0.0002182928	0.02613778	-0.008798955	1.548571e-06	0.0002197374
	-3.361767e-06	0.0002198929	0.03287165	-0.07355811	1.54859e-06	0.0002197374	0.0258888	-0.008891984
1e+08	0.03872452	0.01868015	0.0002227457	0.000218466	0.005606662	-0.008557919	0.0002236472	0.0002198123
	0.0002227457	0.000218466	0.03860933	0.01867449	0.0002255206	0.0002184482	0.005526891	-0.008557371
	0.005606583	-0.008557386	0.0002255219	0.0002184484	0.03875613	0.01882017	0.0002259633	0.0002190278
	0.0002236485	0.0002198125	0.005526813	-0.008556836	0.0002259633	0.0002190278	0.03868586	0.01882216
1.1e+08	0.06912224	0.01336898	0.0002879177	3.507656e-06	0.06074125	0.0332959	0.000288855	-1.206225e-07
	0.0002879177	3.507698e-06	0.06927872	0.01303699	0.0002902348	5.932006e-06	0.06084088	0.03308274
	0.06074103	0.03329518	0.0002902338	5.930848e-06	0.0692827	0.01338401	0.0002903978	1.912334e-06
	0.0002888539	-1.218283e-07	0.06084066	0.03308201	0.0002903977	1.912316e-06	0.06936802	0.01319926
1.2e+08	0.0726168	-0.01629831	0.0001073813	-0.0001078807	0.1172075	-0.008892364	0.000102953	-0.000112974
	0.0001073813	-0.0001078807	0.07252259	-0.01706247	0.00011265	-0.0001041752	0.1171426	-0.00939195
	0.117206	-0.008892819	0.0001126489	-0.0001041735	0.07269389	-0.01645614	0.0001077256	-0.0001092863
	0.0001029518	-0.0001129723	0.1171411	-0.009392404	0.0001077255	-0.0001092864	0.07263438	-0.01689065
1.3e+08	0.0467756	-0.02756609	-4.600017e-05	4.698278e-05	0.09532398	-0.07712031	-5.375364e-05	4.683165e-05
	-4.600017e-05	4.698271e-05	0.0461505	-0.028269	-3.798748e-05	4.828361e-05	0.0949047	-0.07758094
	0.09532245	-0.07711967	-3.798565e-05	4.828614e-05	0.04664734	-0.02769504	-4.580243e-05	4.788718e-05
	-5.375199e-05	4.683412e-05	0.09490317	-0.0775803	-4.580261e-05	4.788714e-05	0.04627721	-0.02809263
1.4e+08	0.0296992	-0.005667934	8.367222e-05	0.0002614591	0.02494379	-0.07886194	7.973783e-05	0.0002660501
	8.367222e-05	0.0002614592	0.02895203	-0.005853423	9.078388e-05	0.0002592844	0.02444058	-0.07897633
	0.02494306	-0.07886101	9.078683e-05	0.0002592841	0.02953723	-0.005572488	8.666701e-05	0.0002630658
	7.974061e-05	0.0002660498	0.02443985	-0.0789754	8.666684e-05	0.0002630659	0.02909747	-0.005666135
1.5e+08	0.04805537	0.01705891	0.000356325	0.0001884433	0.004168064	-0.01461588	0.0003578788	0.0001903136
	0.0003563251	0.0001884433	0.04779246	0.017108	0.0003602324	0.0001861565	0.003986858	-0.01457234
	0.004167668	-0.01461537	0.0003602333	0.0001861549	0.04811768	0.01725542	0.0003609573	0.0001871077
	0.0003578796	0.0001903121	0.003986463	-0.01457183	0.0003609572	0.0001871078	0.04795956	0.01729657
1.6e+08	0.07611367	0.004794986	0.00036754	-9.536608e-05	0.06013585	0.02069778	0.0003673612	-9.964043e-05
	0.0003675401	-9.536612e-05	0.0762151	0.004366587	0.0003712188	-9.452714e-05	0.06019596	0.02042486
	0.06013519	0.02069815	0.0003712186	-9.452727e-05	0.07634518	0.004793885	0.0003698654	-9.914513e-05
	0.0003673608	-9.964057e-05	0.06019531	0.02042524	0.0003698653	-9.914512e-05	0.07639612	0.004559153
1.7e+08	0.07317047	-0.02511805	0.0001167391	-0.0001826063	0.1103982	-0.02435329	0.0001096852	-0.0001867198
	0.0001167391	-0.0001826063	0.07288036	-0.02611139	0.0001240751	-0.0001809995	0.1101967	-0.02500108
	0.1103975	-0.02435258	0.0001240758	-0.0001809987	0.07325862	-0.02534974	0.0001162784	-0.0001849905
	0.0001096857	-0.0001867189	0.110196	-0.02500037	0.0001162783	-0.0001849905	0.07308057	-0.0259122
1.8e+08	0.04553966	-0.03108539	-2.971972e-05	3.391577e-05	0.08346834	-0.08774229	-3.892202e-05	3.679217e-05
	-2.971971e-05	3.391578e-05	0.04452703	-0.03192101	-1.999057e-05	3.197413e-05	0.08278247	-0.08828278
	0.08346803	-0.08774137	-1.998878e-05	3.197417e-05	0.04535032	-0.03124742	-2.939722e-05	3.464763e-05
	-3.892037e-05	3.679234e-05	0.08278216	-0.08828186	-2.939737e-05	3.464772e-05	0.04474688	-0.03171346
1.9e+08	0.03308503	-0.0063832	0.0001622503	0.0002473843	0.0158084	-0.0833476	0.0001591661	0.0002545549
	0.0001622504	0.0002473843	0.03196353	-0.006485686	0.0001698941	0.0002416261	0.01505032	-0.08339344
	0.01580845	-0.08334689	0.0001698953	0.0002416248	0.03288199	-0.006240164	0.0001664107	0.0002479254
	0.0001591673	0.0002545538	0.01505037	-0.08339272	0.0001664107	0.0002479256	0.03221937	-0.006271395
2e+08	0.05557552	0.01244829	0.0004468025	0.0001052949	0.001164694	-0.02010109	0.0004493138	0.0001076159
	0.0004468025	0.0001052949	0.05512665	0.01263254	0.0004505044	0.0001000783	0.000858713	-0.01995562
	0.00116477	-0.02010064	0.0004505044	0.0001000772	0.05567951	0.01269373	0.0004518376	0.0001014669
	0.0004493138	0.0001076148	0.0008587892	-0.01995518	0.0004518376	0.000101467	0.05541306	0.01282615
2.1e+08	0.0814374	-0.00503855	0.0003959169	-0.0002116258	0.05745256	0.009135838	0.0003947816	-0.0002158183
	0.0003959169	-0.0002116258	0.08142952	-0.005491717	0.0003997024	-0.0002131952	0.05743753	0.008854677
	0.05745255	0.009136213	0.0003997022	-0.0002131953	0.08173451	-0.005067863	0.0003970305	-0.0002175914
	0.0003947814	-0.0002158184	0.05743752	0.008855051	0.0003970305	-0.0002175913	0.08172035	-0.005308192
2.2e+08	0.07340949	-0.03487218	9.953964e-05	-0.0002588289	0.1017113	-0.03807298	9.081151e-05	-0.0002610085
	9.953963e-05	-0.0002588289	0.0728553	-0.03599824	0.0001073542	-0.0002601409	0.101327	-0.03879943
	0.1017114	-0.03807255	0.0001073546	-0.000260141	0.07349957	-0.03517781	9.764604e-05	-0.0002619853
	9.081184e-05	-0.0002610085	0.101327	-0.038799	9.764601e-05	-0.0002619853	0.07316128	-0.03580758
2.3e+08	0.04453826	-0.03668344	-2.44952e-05	2.569981e-06	0.07046606	-0.09649014	-3.372534e-05	8.714004e-06
	-2.44952e-05	2.569983e-06	0.04309101	-0.03752486	-1.489235e-05	-3.012276e-06	0.06948249	-0.0970182
	0.07046625	-0.09648978	-1.489176e-05	-3.012824e-06	0.04428798	-0.03687386	-2.447503e-05	3.063366e-06
	-3.372475e-05	8.713558e-06	0.06948268	-0.09701784	-2.447505e-05	3.06345e-06	0.04342322	-0.0373259
2.4e+08	0.03567572	-0.01008963	0.0002135725	0.0001991034	0.005864715	-0.08652656	0.000212311	0.0002084403
	0.0002135725	0.0001991034	0.03416883	-0.00998465	0.0002200815	0.0001898222	0.004847794	-0.08641281
	0.005864931	-0.08652635	0.0002200816	0.0001898214	0.0354386	-0.009901257	0.0002182153	0.0001983332
	0.0002123111	0.0002084396	0.00484801	-0.08641261	0.0002182153	0.0001983332	0.03455057	-0.009788555
2.5e+08	0.06102196	0.005491402	0.0004887866	2.117877e-06	-0.003049317	-0.0246696	0.0004926057	4.665772e-06
	0.0004887866	2.117863e-06	0.060385	0.005910548	0.0004909347	-5.898879e-06	-0.003476359	-0.02435
	-0.003049156	-0.0246695	0.0004909343	-5.899312e-06	0.06117051	0.005774021	0.0004932551	-4.197303e-06
	0.0004926054	4.665367e-06	-0.003476198	-0.0243499	0.0004932552	-4.197271e-06	0.06080038	0.006061684
2.6e+08	0.08479644	-0.01594367	0.0003812282	-0.0003237724	0.05308719	-0.001213526	0.0003795887	-0.000327578
	0.0003812282	-0.0003237724	0.08465969	-0.01632662	0.0003837863	-0.000327741	0.05298757	-0.001435662
	0.05308729	-0.001213442	0.0003837861	-0.000327741	0.08515128	-0.01601269	0.0003802782	-0.000331524
	0.0003795885	-0.000327578	0.05298767	-0.001435577	0.0003802782	-0.000331524	0.0850645	-0.0161992
2.7e+08	0.07270755	-0.04550152	5.916418e-05	-0.0003276875	0.09145542	-0.04996412	4.97583e-05	-0.0003276859
	5.916417e-05	-0.0003276875	0.07186486	-0.04664099	6.593741e-05	-0.000331807	0.09087383	-0.05068384
	0.09145552	-0.04996404	6.59375e-05	-0.000331807	0.07278813	-0.04588329	5.533933e-05	-0.0003311712
	4.975841e-05	-0.000327686	0.09087393	-0.05068376	5.533933e-05	-0.0003311712	0.07227797	-0.04650439
2.8e+08	0.04292687	-0.04407286	-3.68659e-05	-3.596645e-05	0.05653012	-0.1032494	-4.502021e-05	-2.68809e-05
	-3.68659e-05	-3.596645e-05	0.04104704	-0.04478071	-2.894004e-05	-4.474869e-05	0.05525432	-0.1036635
	0.05653022	-0.1032494	-2.893999e-05	-4.474891e-05	0.04261044	-0.04428819	-3.756578e-05	-3.550549e-05
	-4.502014e-05	-2.68811e-05	0.05525443	-0.1036634	-3.756577e-05	-3.550547e-05	0.04149101	-0.04463619
2.9e+08	0.03675629	-0.01620669	0.0002333297	0.0001378495	-0.004674563	-0.08818806	0.0002345407	0.0001487219
	0.0002333297	0.0001378495	0.03489777	-0.01576601	0.0002373935	0.0001257371	-0.005919748	-0.08782131
	-0.004674486	-0.08818806	0.0002373934	0.0001257369	0.03648661	-0.01597315	0.0002378307	0.0001359204
	0.0002345406	0.0001487218	-0.005919671	-0.0878213	0.0002378307	0.0001359204	0.03540202	-0.01563447
3e+08	0.06398815	-0.003241652	0.0004896492	-9.999758e-05	-0.008158359	-0.02808338	0.0004950605	-9.759601e-05
	0.0004896492	-9.999759e-05	0.06320104	-0.002484277	0.0004891697	-0.0001101573	-0.008671932	-0.02751622
	-0.008158321	-0.02808338	0.0004891696	-0.0001101573	0.06418081	-0.002930194	0.0004928048	-0.0001084251
	0.0004950604	-9.759605e-05	-0.008671894	-0.02751623	0.0004928048	-0.0001084251	0.06373895	-0.002423169
3.1e+08	0.08585748	-0.02760609	0.0003344954	-0.0004208936	0.04742446	-0.01019766	0.0003327964	-0.0004243579
	0.0003344954	-0.0004208936	0.08561426	-0.02781887	0.0003347398	-0.00042668	0.0472623	-0.0102911
	0.04742448	-0.01019767	0.0003347397	-0.00042668	0.08625977	-0.02772332	0.0003308912	-0.0004298072
	0.0003327963	-0.0004243579	0.04726231	-0.01029111	0.0003308912	-0.0004298072	0.08612118	-0.02779511
3.2e+08	0.07052221	-0.05680993	3.719571e-07	-0.0003836472	0.0799793	-0.0599684	-8.920667e-06	-0.000381651
	3.71955e-07	-0.0003836472	0.06941293	-0.05784235	4.940218e-06	-0.0003898729	0.07922113	-0.06059577
	0.07997931	-0.0599684	4.94024e-06	-0.0003898729	0.07058009	-0.05726665	-5.700376e-06	-0.0003868602
	-8.920644e-06	-0.000381651	0.07922114	-0.06059577	-5.700375e-06	-0.0003868602	0.06991783	-0.05780414
3.3e+08	0.03997492	-0.05288025	-6.684873e-05	-7.221665e-05	0.0419252	-0.1079684	-7.318624e-05	-6.07872e-05
	-6.684873e-05	-7.221665e-05	0.03771102	-0.05332129	-6.169116e-05	-8.327986e-05	0.04039871	-0.1081724
	0.0419252	-0.1079684	-6.169117e-05	-8.327991e-05	0.0395865	-0.05311406	-6.855903e-05	-7.138806e-05
	-7.318625e-05	-6.078725e-05	0.04039871	-0.1081724	-6.855903e-05	-7.138806e-05	0.03825069	-0.05327432
3.4e+08	0.03569116	-0.02409253	0.000225357	7.800287e-05	-0.01556198	-0.0882115	0.0002294045	8.970217e-05
	0.000225357	7.800287e-05	0.033557	-0.02319845	0.0002261069	6.409382e-05	-0.01697191	-0.08750834
	-0.015562	-0.0882115	0.0002261069	6.409383e-05	0.03538964	-0.02381189	0.0002292728	7.531689e-05
	0.0002294045	8.970219e-05	-0.01697192	-0.08750834	0.0002292728	7.531689e-05	0.03416584	-0.02317494
3.5e+08	0.0641099	-0.01308677	0.0004595376	-0.0001897285	-0.01384378	-0.03019804	0.0004667001	-0.0001879419
	0.0004595376	-0.0001897285	0.06325006	-0.01189834	0.0004557273	-0.0002010705	-0.01437939	-0.02932039
	-0.0138438	-0.03019803	0.0004557274	-0.0002010705	0.06434517	-0.01275252	0.0004609016	-0.0001996982
	0.0004667001	-0.0001879419	-0.01437941	-0.02932038	0.0004609016	-0.0001996982	0.06388958	-0.0119718
3.6e+08	0.08434035	-0.03956527	0.0002653251	-0.0004981731	0.04083434	-0.01773779	0.0002638742	-0.000501562
	0.0002653251	-0.0004981731	0.08405368	-0.03951866	0.0002625344	-0.0005048616	0.040662	-0.01764309
	0.04083433	-0.01773777	0.0002625344	-0.0005048617	0.08477896	-0.03973653	0.0002587294	-0.0005075227
	0.0002638742	-0.000501562	0.04066199	-0.01764308	0.0002587294	-0.0005075227	0.08463591	-0.03964237
3.7e+08	0.06641031	-0.06842923	-7.201894e-05	-0.0004233467	0.0676222	-0.06808174	-8.067271e-05	-0.0004197632
	-7.201894e-05	-0.0004233467	0.06509886	-0.0692485	-7.038473e-05	-0.0004306567	0.06674023	-0.0685439
	0.06762219	-0.06808172	-7.038473e-05	-0.0004306567	0.0664322	-0.06895676	-8.045922e-05	-0.0004256075
	-8.067273e-05	-0.0004197632	0.06674021	-0.06854388	-8.045922e-05	-0.0004256075	0.06566556	-0.06934774
3.8e+08	0.03510087	-0.06257762	-0.0001113616	-9.948713e-05	0.0269247	-0.1106485	-0.0001154592	-8.640755e-05
	-0.0001113616	-9.948713e-05	0.03254291	-0.06263854	-0.0001095886	-0.0001116851	0.02522064	-0.1105638
	0.02692468	-0.1106484	-0.0001095885	-0.000111685	0.03463537	-0.06282157	-0.0001141914	-9.777883e-05
	-0.0001154592	-8.640752e-05	0.02522062	-0.1105638	-0.0001141914	-9.777883e-05	0.03314866	-0.06272637
3.9e+08	0.03200436	-0.03299726	0.0001960069	2.81532e-05	-0.02653697	-0.0865519	0.0002030172	3.997156e-05
	0.0001960069	2.81532e-05	0.02970815	-0.0315554	0.0001930066	1.362714e-05	-0.02801992	-0.08544965
	-0.02653698	-0.08655186	0.0001930067	1.362715e-05	0.03167143	-0.03266652	0.0001991114	2.523826e-05
	0.0002030173	3.997158e-05	-0.02801993	-0.08544962	0.0001991114	2.523827e-05	0.03039004	-0.03167759
4e+08	0.0611523	-0.02328999	0.0004077574	-0.0002615767	-0.0197989	-0.03095785	0.0004166845	-0.0002609105
	0.0004077574	-0.0002615767	0.06033198	-0.02160131	0.0004002931	-0.0002730041	-0.02026677	-0.02972774
	-0.0197989	-0.03095782	0.0004002932	-0.0002730042	0.06142769	-0.02293708	0.0004071063	-0.00027244
	0.0004166846	-0.0002609106	-0.02026677	-0.0297277	0.0004071063	-0.00027244	0.06103827	-0.02184709
4.1e+08	0.08007787	-0.05124711	0.0001813586	-0.0005537488	0.03365313	-0.02382664	0.0001802883	-0.0005574351
	0.0001813586	-0.0005537488	0.0798456	-0.05087603	0.0001751958	-0.0005602679	0.03354797	-0.02350532
	0.03365313	-0.02382661	0.0001751958	-0.000560268	0.08054117	-0.0514756	0.0001716633	-0.000562781
	0.0001802883	-0.0005574352	0.03354797	-0.02350529	0.0001716633	-0.000562781	0.08046269	-0.05118311
4.2e+08	0.06006462	-0.07985042	-0.0001534172	-0.0004447726	0.05469452	-0.07434998	-0.0001611565	-0.0004400894
	-0.0001534172	-0.0004447726	0.05865092	-0.08037763	-0.0001550191	-0.0004520131	0.0537671	-0.07459724
	0.05469452	-0.07434995	-0.0001550191	-0.0004520132	0.06003764	-0.08044183	-0.0001641491	-0.0004453711
	-0.0001611565	-0.0004400894	0.05376709	-0.07459721	-0.0001641491	-0.0004453711	0.05923639	-0.08064425
4.3e+08	0.02790449	-0.07250412	-0.0001661059	-0.0001134893	0.01179024	-0.1113404	-0.000167796	-9.945057e-05
	-0.0001661059	-0.0001134893	0.02517618	-0.07210348	-0.0001678969	-0.0001256152	0.01000589	-0.1109156
	0.01179024	-0.1113404	-0.0001678968	-0.0001256152	0.02735781	-0.07274812	-0.0001699645	-0.0001103502
	-0.000167796	-9.945051e-05	0.01000588	-0.1109156	-0.0001699645	-0.0001103502	0.02580648	-0.07235384
4.4e+08	0.02541861	-0.04208305	0.0001518726	-6.969875e-06	-0.03734974	-0.08323155	0.0001617789	4.306989e-06
	0.0001518726	-6.969874e-06	0.02310339	-0.04003369	0.0001450767	-2.092151e-05	-0.03879353	-0.08169692
	-0.03734974	-0.08323152	0.0001450768	-2.092156e-05	0.02505453	-0.04169815	0.0001541543	-9.552555e-06
	0.000161779	4.306948e-06	-0.03879353	-0.08169689	0.0001541543	-9.552551e-06	0.02381479	-0.04032963
4.5e+08	0.05505358	-0.03303708	0.0003420989	-0.0003131931	-0.02574875	-0.03038049	0.0003526617	-0.0003141387
	0.0003420989	-0.0003131931	0.05441123	-0.03081363	0.0003310124	-0.0003235921	-0.02604168	-0.02878522
	-0.02574874	-0.03038046	0.0003310125	-0.0003235922	0.05536584	-0.03266737	0.0003394367	-0.0003242975
	0.0003526617	-0.0003141388	-0.02604166	-0.02878519	0.0003394367	-0.0003242975	0.05513748	-0.03125854
4.6e+08	0.07305478	-0.06200381	8.875729e-05	-0.0005871647	0.02617079	-0.0285141	8.803018e-05	-0.0005915443
	8.875729e-05	-0.0005871647	0.07300022	-0.06127808	7.92485e-05	-0.0005924161	0.02622679	-0.0279567
	0.0261708	-0.02851408	7.924848e-05	-0.0005924161	0.07353119	-0.06228978	7.606061e-05	-0.0005951483
	8.803016e-05	-0.0005915443	0.0262268	-0.02795668	7.606061e-05	-0.0005951483	0.07360059	-0.06179242
4.7e+08	0.05134472	-0.0904671	-0.0002394311	-0.0004468419	0.04146647	-0.07885969	-0.0002461901	-0.0004415399
	-0.0002394311	-0.0004468419	0.04995381	-0.09066075	-0.000244183	-0.0004528595	0.04058837	-0.0788732
	0.04146648	-0.07885968	-0.000244183	-0.0004528594	0.05125687	-0.09111262	-0.0002521868	-0.0004450881
	-0.0002461902	-0.0004415399	0.04058837	-0.07887319	-0.0002521868	-0.0004450881	0.05050484	-0.09111183
4.8e+08	0.01819228	-0.08190793	-0.0002264086	-0.0001117593	-0.0032449	-0.1101371	-0.000225721	-9.739346e-05
	-0.0002264086	-0.0001117593	0.01543999	-0.08100545	-0.00023156	-0.0001226595	-0.004997937	-0.1093544
	-0.003244891	-0.1101371	-0.00023156	-0.0001226595	0.01756174	-0.08213993	-0.0002310077	-0.0001066611
