!
!4 port subset of full cascaded channels using these ports:63 37 64 38
# Hz S RI R 50
0	0.01209031	0.0002780124	-1.166947e-06	6.322258e-10	0.002025624	9.190654e-05	-1.198592e-06	6.41985e-10
	-1.166946e-06	6.340105e-10	0.0125608	0.0002809536	-1.190447e-06	6.681494e-10	0.001829216	9.423245e-05
	0.002021845	9.279291e-05	-1.19046e-06	6.675315e-10	0.01091355	0.0002804239	-1.220197e-06	6.783601e-10
	-1.198605e-06	6.415816e-10	0.001824681	9.264004e-05	-1.220198e-06	6.765411e-10	0.01132659	0.0002815991
1e+07	0.05746467	0.02812275	-1.092346e-05	-9.354766e-06	0.05284486	0.06182611	-1.121146e-05	-9.121421e-06
	-1.092346e-05	-9.354766e-06	0.056522	0.02739839	-1.078597e-05	-9.822185e-06	0.05187301	0.06112049
	0.05284486	0.06182611	-1.078597e-05	-9.822185e-06	0.05747117	0.02810049	-1.109171e-05	-9.587951e-06
	-1.121146e-05	-9.121421e-06	0.05187301	0.06112049	-1.109171e-05	-9.587951e-06	0.0565222	0.02741793
2e+07	0.08038377	-0.003523635	-9.823729e-06	-1.427005e-06	0.1249249	0.02796483	-9.890897e-06	-3.765076e-07
	-9.82366e-06	-1.426865e-06	0.07957881	-0.003323726	-1.003204e-05	-2.75582e-06	0.1239422	0.02848668
	0.1249473	0.02797172	-1.003081e-05	-2.755577e-06	0.08041416	-0.003633079	-1.011165e-05	-1.659294e-06
	-9.890873e-06	-3.755962e-07	0.1239616	0.02849013	-1.011234e-05	-1.659214e-06	0.07959721	-0.003331237
3e+07	0.05541689	-0.03165248	1.040115e-05	-1.175472e-05	0.1145557	-0.05083126	1.135693e-05	-1.057619e-05
	1.040116e-05	-1.175473e-05	0.05682364	-0.03197383	9.215499e-06	-1.32639e-05	0.1161152	-0.05043873
	0.1145557	-0.05083143	9.215469e-06	-1.326391e-05	0.05539131	-0.03172175	1.022297e-05	-1.20289e-05
	1.135693e-05	-1.057621e-05	0.1161151	-0.05043855	1.022298e-05	-1.20289e-05	0.05683462	-0.03192482
4e+07	0.02137669	-0.0145999	6.688044e-06	-5.268445e-05	0.03789741	-0.06416556	7.96717e-06	-5.253042e-05
	6.688059e-06	-5.268445e-05	0.02346405	-0.01871821	5.184525e-06	-5.343117e-05	0.04066238	-0.06779856
	0.03790019	-0.06416631	5.184523e-06	-5.343075e-05	0.02134619	-0.01466943	6.549719e-06	-5.329616e-05
	7.967177e-06	-5.252998e-05	0.04066487	-0.06779919	6.549726e-06	-5.329616e-05	0.02347956	-0.01865687
5e+07	0.02949678	0.02297268	-4.370604e-05	-6.767439e-05	0.006588744	0.004224237	-4.365542e-05	-6.789621e-05
	-4.370605e-05	-6.76744e-05	0.02753249	0.01624758	-4.427324e-05	-6.83019e-05	0.005075377	-0.00262298
	0.006588737	0.004223378	-4.427268e-05	-6.830173e-05	0.02948169	0.02289171	-4.421546e-05	-6.860468e-05
	-4.365486e-05	-6.789604e-05	0.005075468	-0.002623729	-4.421548e-05	-6.860468e-05	0.02755108	0.01632738
6e+07	0.06667234	0.02396356	-7.176791e-05	-2.420851e-05	0.06478688	0.05003896	-7.244979e-05	-2.284746e-05
	-7.176792e-05	-2.42085e-05	0.06106162	0.02044568	-7.198884e-05	-2.631613e-05	0.05876669	0.04663608
	0.06478685	0.05003898	-7.198883e-05	-2.631675e-05	0.06665454	0.02383366	-7.275906e-05	-2.495882e-05
	-7.244978e-05	-2.284808e-05	0.05876666	0.04663605	-7.275904e-05	-2.495878e-05	0.06108605	0.02054338
7e+07	0.07592494	-0.009620796	-3.58365e-05	7.046854e-06	0.1253489	0.006119433	-3.495967e-05	9.905134e-06
	-3.58365e-05	7.046856e-06	0.07288082	-0.008985872	-3.764568e-05	3.743236e-06	0.1218816	0.008078562
	0.125349	0.006118519	-3.764565e-05	3.743423e-06	0.07586248	-0.009784024	-3.679553e-05	6.734118e-06
	-3.495964e-05	9.90532e-06	0.1218817	0.008077656	-3.679553e-05	6.734093e-06	0.07291924	-0.008870437
8e+07	0.04658994	-0.02591664	4.463239e-06	-3.069881e-05	0.1023598	-0.06559703	7.514716e-06	-2.879277e-05
	4.463222e-06	-3.069881e-05	0.04913164	-0.02722787	7.35555e-07	-3.306151e-05	0.105817	-0.06505773
	0.1023586	-0.06559751	7.35615e-07	-3.306182e-05	0.04648332	-0.02606987	3.932503e-06	-3.104238e-05
	7.514778e-06	-2.879309e-05	0.1058158	-0.06505827	3.932514e-06	-3.104238e-05	0.04918244	-0.02710248
9e+07	0.02330341	-0.0001052481	-3.179024e-05	-9.479498e-05	0.02842867	-0.06531015	-2.897138e-05	-9.528128e-05
	-3.179024e-05	-9.479495e-05	0.0258254	-0.009030967	-3.527235e-05	-9.516918e-05	0.03287269	-0.07355846
	0.02842768	-0.06530966	-3.527252e-05	-9.516961e-05	0.02319578	-0.0002315521	-3.226409e-05	-9.573074e-05
	-2.897155e-05	-9.52817e-05	0.03287165	-0.07355811	-3.22641e-05	-9.573075e-05	0.0258888	-0.008891984
1e+08	0.04435076	0.03056471	-0.0001173962	-7.699707e-05	0.0102995	0.003990989	-0.0001169994	-7.766765e-05
	-0.0001173962	-7.699707e-05	0.03860933	0.01867449	-0.0001189806	-7.746098e-05	0.005526891	-0.008557371
	0.01029938	0.003991479	-0.0001189811	-7.746095e-05	0.04427455	0.03042188	-0.0001185758	-7.831507e-05
	-0.0001169999	-7.766763e-05	0.005526813	-0.008556836	-0.0001185758	-7.831507e-05	0.03868586	0.01882216
1.1e+08	0.08027008	0.01796961	-0.0001262769	8.23885e-06	0.07258411	0.03791634	-0.0001264756	1.017556e-05
	-0.0001262773	8.238791e-06	0.06927872	0.01303699	-0.0001278148	5.548791e-06	0.06084088	0.03308274
	0.07258432	0.03791617	-0.0001278146	5.549068e-06	0.08018463	0.01775857	-0.00012817	7.462353e-06
	-0.0001264755	1.01758e-05	0.06084066	0.03308201	-0.0001281698	7.46234e-06	0.06936802	0.01319926
1.2e+08	0.07831231	-0.01865324	-5.456026e-05	3.495949e-05	0.1233411	-0.01327805	-5.20911e-05	3.83616e-05
	-5.456037e-05	3.49599e-05	0.07252259	-0.01706247	-5.865712e-05	3.137831e-05	0.1171426	-0.00939195
	0.123341	-0.0132783	-5.865678e-05	3.137803e-05	0.07815083	-0.01890185	-5.62199e-05	3.497662e-05
	-5.209098e-05	3.836126e-05	0.1171411	-0.009392404	-5.622006e-05	3.497614e-05	0.07263438	-0.01689065
1.3e+08	0.04365825	-0.02612549	-1.545767e-05	-3.233213e-05	0.09035967	-0.0781742	-1.045032e-05	-3.104828e-05
	-1.545723e-05	-3.23319e-05	0.0461505	-0.028269	-2.161701e-05	-3.376888e-05	0.0949047	-0.07758094
	0.09035955	-0.07817406	-2.16174e-05	-3.376943e-05	0.04342931	-0.02633554	-1.637098e-05	-3.234874e-05
	-1.045079e-05	-3.104889e-05	0.09490317	-0.0775803	-1.637152e-05	-3.2349e-05	0.04627721	-0.02809263
1.4e+08	0.02779098	0.007122109	-8.610454e-05	-9.469327e-05	0.01991858	-0.06644734	-8.223752e-05	-9.655448e-05
	-8.610437e-05	-9.469361e-05	0.02895203	-0.005853423	-9.103545e-05	-9.352243e-05	0.02444058	-0.07897633
	0.01991888	-0.06644708	-9.103596e-05	-9.35221e-05	0.02756669	0.006968739	-8.689314e-05	-9.554682e-05
	-8.223849e-05	-9.655452e-05	0.02443985	-0.0789754	-8.689377e-05	-9.554686e-05	0.02909747	-0.005666135
1.5e+08	0.05871419	0.0325509	-0.0001779202	-3.549116e-05	0.01343273	0.00238114	-0.000177265	-3.699993e-05
	-0.0001779205	-3.549119e-05	0.04779246	0.017108	-0.0001803288	-3.499225e-05	0.003986858	-0.01457234
	0.01343328	0.002381062	-0.0001803286	-3.499186e-05	0.05854311	0.03238521	-0.0001796905	-3.680438e-05
	-0.0001772656	-3.699935e-05	0.003986463	-0.01457183	-0.000179691	-3.680418e-05	0.04795956	0.01729657
1.6e+08	0.09316803	0.00916492	-0.0001509042	6.862455e-05	0.07816896	0.02525166	-0.0001504606	7.03672e-05
	-0.0001509043	6.862481e-05	0.0762151	0.004366587	-0.0001537544	6.64744e-05	0.06019596	0.02042486
	0.0781693	0.02525129	-0.0001537541	6.647423e-05	0.09297777	0.008906837	-0.0001535544	6.816995e-05
	-0.0001504607	7.036751e-05	0.06019531	0.02042524	-0.0001535547	6.817016e-05	0.07639612	0.004559153
1.7e+08	0.08183327	-0.02960966	-5.530259e-05	7.350835e-05	0.1192738	-0.03157194	-5.149952e-05	7.635952e-05
	-5.530234e-05	7.350848e-05	0.07288036	-0.02611139	-6.126454e-05	7.103569e-05	0.1101967	-0.02500108
	0.1192738	-0.03157223	-6.126466e-05	7.103537e-05	0.08151872	-0.02988889	-5.750402e-05	7.413796e-05
	-5.149967e-05	7.635944e-05	0.110196	-0.02500037	-5.750432e-05	7.413811e-05	0.07308057	-0.0259122
1.8e+08	0.04297095	-0.02966114	-3.089703e-05	-1.57061e-05	0.07781851	-0.08923176	-2.469239e-05	-1.585488e-05
	-3.089683e-05	-1.570624e-05	0.04452703	-0.03192101	-3.856335e-05	-1.51144e-05	0.08278247	-0.08828278
	0.07781857	-0.08923185	-3.85637e-05	-1.51144e-05	0.04258413	-0.02984497	-3.203769e-05	-1.512808e-05
	-2.469289e-05	-1.585485e-05	0.08278216	-0.08828186	-3.203804e-05	-1.512788e-05	0.04474688	-0.03171346
1.9e+08	0.03343909	0.009349463	-0.0001265174	-6.168341e-05	0.01172793	-0.06734011	-0.0001223128	-6.521162e-05
	-0.0001265175	-6.168357e-05	0.03196353	-0.006485686	-0.0001319616	-5.840021e-05	0.01505032	-0.08339344
	0.01172812	-0.06734022	-0.0001319616	-5.839991e-05	0.03309579	0.009247534	-0.0001274281	-6.220203e-05
	-0.0001223132	-6.521117e-05	0.01505037	-0.08339272	-0.0001274284	-6.220171e-05	0.03221937	-0.006271395
2e+08	0.07215033	0.02980573	-0.0002045274	3.13828e-05	0.01597552	-0.0001578306	-0.0002039456	2.8795e-05
	-0.0002045275	3.138287e-05	0.05512665	0.01263254	-0.0002071737	3.328796e-05	0.000858713	-0.01995562
	0.01597568	-0.0001580659	-0.0002071735	3.328806e-05	0.07188774	0.02967065	-0.0002066729	3.027853e-05
	-0.0002039457	2.879552e-05	0.0008587892	-0.01995518	-0.0002066731	3.027888e-05	0.05541306	0.01282615
2.1e+08	0.1045645	-0.002601177	-0.0001414009	0.0001338963	0.08181423	0.01208567	-0.0001406388	0.0001349014
	-0.0001414009	0.0001338964	0.08142952	-0.005491717	-0.0001450052	0.0001329834	0.05743753	0.008854677
	0.08181424	0.0120854	-0.0001450052	0.0001329833	0.1042599	-0.002858078	-0.0001445933	0.0001339326
	-0.0001406387	0.0001349016	0.05743752	0.008855051	-0.0001445933	0.0001339329	0.08172035	-0.005308192
2.2e+08	0.08503391	-0.04264937	-3.628472e-05	0.0001110205	0.1131951	-0.04899323	-3.182042e-05	0.0001127436
	-3.628456e-05	0.0001110205	0.0728553	-0.03599824	-4.321925e-05	0.0001103767	0.101327	-0.03879943
	0.113195	-0.04899337	-4.321938e-05	0.0001103766	0.08455901	-0.04290233	-3.881363e-05	0.0001124068
	-3.182038e-05	0.0001127436	0.101327	-0.038799	-3.881364e-05	0.000112407	0.07316128	-0.03580758
2.3e+08	0.04293541	-0.03621374	-3.231985e-05	9.641251e-06	0.06451808	-0.09890673	-2.577847e-05	7.826155e-06
	-3.231979e-05	9.64112e-06	0.04309101	-0.03752486	-4.039371e-05	1.263471e-05	0.06948249	-0.0970182
	0.06451805	-0.09890679	-4.039385e-05	1.263481e-05	0.04239408	-0.0363137	-3.346713e-05	1.094045e-05
	-2.577856e-05	7.826311e-06	0.06948268	-0.09701784	-3.346713e-05	1.094065e-05	0.04342322	-0.0373259
2.4e+08	0.03900199	0.007207129	-0.0001420196	-1.44031e-05	0.003626008	-0.06787883	-0.0001381295	-1.953891e-05
	-0.0001420197	-1.440316e-05	0.03416883	-0.00998465	-0.0001470567	-8.973837e-06	0.004847794	-0.08641281
	0.003626025	-0.0678789	-0.0001470566	-8.973709e-06	0.03854803	0.007208459	-0.0001428202	-1.449584e-05
	-0.0001381295	-1.953866e-05	0.00484801	-0.08641261	-0.0001428202	-1.449566e-05	0.03455057	-0.009788555
2.5e+08	0.08383754	0.02282474	-0.0001967048	0.000100715	0.01788231	-0.003443088	-0.0001966017	9.701906e-05
	-0.0001967048	0.0001007151	0.060385	0.005910548	-0.0001989399	0.0001040912	-0.003476359	-0.02435
	0.01788231	-0.003443193	-0.0001989397	0.0001040912	0.0834924	0.02276962	-0.0001990138	9.987466e-05
	-0.0001966016	9.701924e-05	-0.003476198	-0.0243499	-0.0001990138	9.987481e-05	0.06080038	0.006061684
2.6e+08	0.1136921	-0.01719569	-0.0001046154	0.0001885739	0.08356384	-0.001489978	-0.0001040235	0.0001886306
	-0.0001046154	0.000188574	0.08465969	-0.01632662	-0.0001082776	0.0001891392	0.05298757	-0.001435662
	0.08356378	-0.001490055	-0.0001082776	0.0001891392	0.1132825	-0.01740342	-0.0001081547	0.0001891547
	-0.0001040234	0.0001886306	0.05298767	-0.001435577	-0.0001081546	0.0001891548	0.0850645	-0.0161992
2.7e+08	0.08689081	-0.05781415	-1.486961e-06	0.0001389379	0.1051313	-0.06554353	2.931137e-06	0.0001394079
	-1.486916e-06	0.0001389379	0.07186486	-0.04664099	-8.478481e-06	0.0001402835	0.09087383	-0.05068384
	0.1051313	-0.06554355	-8.478548e-06	0.0001402835	0.08626362	-0.05799038	-4.139208e-06	0.0001411256
	2.931171e-06	0.0001394079	0.09087393	-0.05068376	-4.139147e-06	0.0001411257	0.07227797	-0.04650439
2.8e+08	0.04224797	-0.04566824	-1.876865e-05	3.370447e-05	0.05039093	-0.1072498	-1.260927e-05	3.036827e-05
	-1.876866e-05	3.370442e-05	0.04104704	-0.04478071	-2.630968e-05	3.897426e-05	0.05525432	-0.1036635
	0.05039092	-0.1072498	-2.63097e-05	3.897431e-05	0.04156551	-0.04562724	-1.971665e-05	3.574447e-05
	-1.260927e-05	3.036831e-05	0.05525443	-0.1036634	-1.971661e-05	3.57445e-05	0.04149101	-0.04463619
2.9e+08	0.04318472	0.001173356	-0.0001338445	3.18963e-05	-0.004558219	-0.06803443	-0.0001307674	2.5422e-05
	-0.0001338445	3.189629e-05	0.03489777	-0.01576601	-0.0001377508	3.918457e-05	-0.005919748	-0.08782131
	-0.004558219	-0.06803444	-0.0001377508	3.91846e-05	0.04264386	0.001334282	-0.0001343379	3.222241e-05
	-0.0001307674	2.542205e-05	-0.005919671	-0.0878213	-0.0001343379	3.222244e-05	0.03540202	-0.01563447
3e+08	0.09280939	0.0122208	-0.0001625948	0.0001584646	0.01902557	-0.007324532	-0.0001633371	0.000153803
	-0.0001625948	0.0001584646	0.06320104	-0.002484277	-0.0001638627	0.0001631166	-0.008671932	-0.02751622
	0.01902556	-0.007324551	-0.0001638627	0.0001631166	0.09241114	0.01229643	-0.0001648989	0.0001578631
	-0.000163337	0.000153803	-0.008671894	-0.02751623	-0.0001648989	0.0001578631	0.06373895	-0.002423169
3.1e+08	0.1197539	-0.03423088	-5.025089e-05	0.000224976	0.08339353	-0.01532464	-5.029863e-05	0.0002241376
	-5.025089e-05	0.000224976	0.08561426	-0.02781887	-5.334701e-05	0.0002269291	0.0472623	-0.0102911
	0.08339353	-0.01532465	-5.334701e-05	0.0002269291	0.1192697	-0.03434403	-5.398617e-05	0.000226092
	-5.02986e-05	0.0002241375	0.04726231	-0.01029111	-5.398615e-05	0.000226092	0.08612118	-0.02779511
3.2e+08	0.08642564	-0.07488081	4.310177e-05	0.0001525348	0.09509483	-0.08115559	4.68904e-05	0.0001519228
	4.310177e-05	0.0001525348	0.06941293	-0.05784235	3.680363e-05	0.0001556762	0.07922113	-0.06059577
	0.09509483	-0.08115559	3.680362e-05	0.0001556762	0.08567377	-0.07493395	4.049548e-05	0.0001555155
	4.689039e-05	0.0001519228	0.07922114	-0.06059577	4.049548e-05	0.0001555155	0.06991783	-0.05780414
3.3e+08	0.0396843	-0.05764559	6.130299e-06	4.953796e-05	0.03537328	-0.1142663	1.139317e-05	4.503202e-05
	6.130304e-06	4.953796e-05	0.03771102	-0.05332129	-1.841067e-07	5.668962e-05	0.04039871	-0.1081724
	0.03537329	-0.1142663	-1.840931e-07	5.668964e-05	0.03889423	-0.05741082	5.552375e-06	5.228212e-05
	1.139318e-05	4.503203e-05	0.04039871	-0.1081724	5.552371e-06	5.228212e-05	0.03825069	-0.05327432
3.4e+08	0.04479347	-0.008024957	-0.0001083009	6.79809e-05	-0.01299657	-0.06774845	-0.0001063711	6.054237e-05
	-0.0001083009	6.798089e-05	0.033557	-0.02319845	-0.0001105702	7.668232e-05	-0.01697191	-0.08750834
	-0.01299657	-0.06774846	-0.0001105702	7.668231e-05	0.04421158	-0.007655074	-0.0001083332	6.86708e-05
	-0.0001063711	6.054235e-05	-0.01697192	-0.08750834	-0.0001083332	6.867081e-05	0.03416584	-0.02317494
3.5e+08	0.09818747	-0.001157494	-0.0001120375	0.0001979975	0.01926263	-0.01162671	-0.0001139064	0.0001926258
	-0.0001120375	0.0001979975	0.06325006	-0.01189834	-0.0001119211	0.0002035762	-0.01437939	-0.02932039
	0.01926264	-0.01162671	-0.0001119211	0.0002035762	0.09778647	-0.0009110352	-0.0001142111	0.0001975711
	-0.0001139064	0.0001926258	-0.01437941	-0.02932038	-0.0001142111	0.0001975711	0.06388958	-0.0119718
3.6e+08	0.1220218	-0.0530522	1.264695e-05	0.0002405195	0.08125305	-0.02922962	1.158635e-05	0.0002390149
	1.264695e-05	0.0002405196	0.08405368	-0.03951866	1.0595e-05	0.0002435667	0.040662	-0.01764309
	0.08125306	-0.02922962	1.059501e-05	0.0002435667	0.1215124	-0.05303744	8.825538e-06	0.000242134
	1.158634e-05	0.0002390149	0.04066199	-0.01764308	8.825528e-06	0.000242134	0.08463591	-0.03964237
3.7e+08	0.0827587	-0.09330522	9.134011e-05	0.0001500386	0.08307637	-0.09570541	9.408452e-05	0.0001486858
	9.134013e-05	0.0001500386	0.06509886	-0.0692485	8.627985e-05	0.0001545886	0.06674023	-0.0685439
	0.08307637	-0.09570542	8.627986e-05	0.0001545886	0.08192818	-0.09320253	8.891857e-05	0.0001537813
	9.408454e-05	0.0001486858	0.06674021	-0.06854388	8.891857e-05	0.0001537814	0.06566556	-0.06934774
3.8e+08	0.03419735	-0.07143683	3.710673e-05	5.352635e-05	0.01940124	-0.1198939	4.115463e-05	4.829774e-05
	3.710674e-05	5.352634e-05	0.03254291	-0.06263854	3.248059e-05	6.203911e-05	0.02522064	-0.1105638
	0.01940124	-0.1198939	3.248059e-05	6.20391e-05	0.03335047	-0.07097019	3.704098e-05	5.69093e-05
	4.115463e-05	4.829773e-05	0.02522062	-0.1105638	3.704097e-05	5.69093e-05	0.03314866	-0.06272637
3.9e+08	0.04286066	-0.01939188	-7.276776e-05	8.953293e-05	-0.02184015	-0.06691204	-7.217188e-05	8.154764e-05
	-7.276777e-05	8.953292e-05	0.02970815	-0.0315554	-7.308471e-05	9.913281e-05	-0.02801992	-0.08544965
	-0.02184015	-0.06691205	-7.308472e-05	9.913281e-05	0.04230053	-0.01878006	-7.22196e-05	9.050709e-05
	-7.217192e-05	8.154765e-05	-0.02801993	-0.08544962	-7.221963e-05	9.050712e-05	0.03039004	-0.03167759
4e+08	0.09929297	-0.0162432	-5.392025e-05	0.0002173757	0.01846073	-0.01614539	-5.709696e-05	0.0002116163
	-5.392026e-05	0.0002173757	0.06033198	-0.02160131	-5.214486e-05	0.0002234483	-0.02026677	-0.02972774
	0.01846075	-0.01614539	-5.214486e-05	0.0002234483	0.09895438	-0.01580434	-5.58711e-05	0.0002170431
	-5.709698e-05	0.0002116164	-0.02026677	-0.0297277	-5.587111e-05	0.0002170432	0.06103827	-0.02184709
4.1e+08	0.1199307	-0.07276769	7.655166e-05	0.0002355729	0.07708117	-0.0429797	7.422646e-05	0.0002337364
	7.655167e-05	0.0002355729	0.0798456	-0.05087603	7.586344e-05	0.0002393063	0.03354797	-0.02350532
	0.07708118	-0.04297971	7.586344e-05	0.0002393063	0.1194586	-0.07261046	7.272434e-05	0.000237638
	7.422649e-05	0.0002337365	0.03354797	-0.02350529	7.272436e-05	0.000237638	0.08046269	-0.05118311
4.2e+08	0.07519701	-0.1122572	0.0001376614	0.0001317588	0.06905826	-0.1090096	0.0001391155	0.0001300929
	0.0001376614	0.0001317588	0.05865092	-0.08037763	0.0001341886	0.0001372356	0.0537671	-0.07459724
	0.06905826	-0.1090096	0.0001341886	0.0001372356	0.07434597	-0.1119857	0.0001355431	0.0001362226
	0.0001391155	0.0001300929	0.05376709	-0.07459721	0.0001355431	0.0001362226	0.05923639	-0.08064425
4.3e+08	0.02500087	-0.08604542	6.879473e-05	4.470343e-05	0.002426188	-0.1240036	7.148072e-05	3.923099e-05
	6.879473e-05	4.470342e-05	0.02517618	-0.07210348	6.612133e-05	5.400831e-05	0.01000589	-0.1109156
	0.002426178	-0.1240036	6.612131e-05	5.40083e-05	0.02415821	-0.08532938	6.936393e-05	4.864213e-05
	7.148069e-05	3.923098e-05	0.01000588	-0.1109156	6.936392e-05	4.864214e-05	0.02580648	-0.07235384
4.4e+08	0.03672168	-0.03170945	-3.40396e-05	9.558058e-05	-0.03121133	-0.06536897	-3.483526e-05	8.747347e-05
	-3.403961e-05	9.558058e-05	0.02310339	-0.04003369	-3.225151e-05	0.0001055436	-0.03879353	-0.08169692
	-0.03121133	-0.06536897	-3.225153e-05	0.0001055436	0.0362556	-0.03084385	-3.281828e-05	9.674459e-05
	-3.483528e-05	8.747351e-05	-0.03879353	-0.08169689	-3.281828e-05	9.674462e-05	0.02381479	-0.04032963
4.5e+08	0.09572183	-0.03179861	4.471147e-06	0.0002174408	0.01650225	-0.0206416	-9.141086e-08	0.0002116489
	4.471152e-06	0.0002174408	0.05441123	-0.03081363	8.045715e-06	0.0002235366	-0.02604168	-0.02878522
	0.01650226	-0.0206416	8.045722e-06	0.0002235367	0.09551825	-0.03116843	2.811079e-06	0.0002171124
	-9.13846e-08	0.0002116489	-0.02604166	-0.02878519	2.811093e-06	0.0002171125	0.05513748	-0.03125854
4.6e+08	0.1131566	-0.09230174	0.0001354684	0.000212244	0.07081923	-0.05630328	0.0001317528	0.0002104654
	0.0001354684	0.000212244	0.07300022	-0.06127808	0.0001363121	0.0002162002	0.02622679	-0.0279567
	0.07081924	-0.05630329	0.0001363121	0.0002162003	0.1127896	-0.0920099	0.0001316959	0.0002147074
	0.0001317529	0.0002104654	0.0262268	-0.02795668	0.0001316959	0.0002147074	0.07360059	-0.06179242
4.7e+08	0.06331024	-0.1306853	0.0001773565	9.948369e-05	0.05303383	-0.1208218	0.0001774309	9.796464e-05
	0.0001773565	9.948369e-05	0.04995381	-0.09066075	0.0001756471	0.0001053701	0.04058837	-0.0788732
	0.05303381	-0.1208218	0.0001756471	0.0001053701	0.06250119	-0.1302546	0.0001756476	0.0001046208
	0.0001774309	9.796462e-05	0.04058837	-0.07887319	0.0001756476	0.0001046208	0.05050484	-0.09111183
4.8e+08	0.01163649	-0.1002608	9.645325e-05	2.402993e-05	-0.01557079	-0.1264036	9.777916e-05	1.878497e-05
	9.645325e-05	2.402993e-05	0.01543999	-0.08100545	9.583082e-05	3.355388e-05	-0.004997937	-0.1093544
	-0.0155708	-0.1264036	9.583081e-05	3.355387e-05	0.01086155	-0.09930091	9.776746e-05	2.842669e-05
