!
!4 port subset of full cascaded channels using these ports:57 37 58 38
# Hz S RI R 50
0	0.01225114	0.0002809608	-1.928864e-06	9.404744e-10	0.001816044	9.422665e-05	-1.975917e-06	9.487671e-10
	-1.928863e-06	9.40378e-10	0.0125608	0.0002809536	-1.931736e-06	9.663979e-10	0.001829216	9.423245e-05
	0.001811509	9.263436e-05	-1.931758e-06	9.632576e-10	0.01132316	0.000281562	-1.977665e-06	9.7166e-10
	-1.975941e-06	9.456179e-10	0.001824681	9.264004e-05	-1.977663e-06	9.715645e-10	0.01132659	0.0002815991
1e+07	0.05649531	0.0274317	-2.394869e-05	-1.666903e-05	0.05186477	0.0611478	-2.44922e-05	-1.627817e-05
	-2.394869e-05	-1.666903e-05	0.056522	0.02739839	-2.359017e-05	-1.720228e-05	0.05187301	0.06112049
	0.05186477	0.0611478	-2.359017e-05	-1.720228e-05	0.05652141	0.02744682	-2.412151e-05	-1.681839e-05
	-2.44922e-05	-1.627817e-05	0.05187301	0.06112049	-2.412151e-05	-1.681839e-05	0.0565222	0.02741793
2e+07	0.07955724	-0.003190759	-2.082414e-05	7.981687e-06	0.1239402	0.02856726	-2.094976e-05	9.854898e-06
	-2.082422e-05	7.981733e-06	0.07957881	-0.003323726	-2.083208e-05	6.037055e-06	0.1239422	0.02848668
	0.1239596	0.02857074	-2.083213e-05	6.038447e-06	0.07960328	-0.003263858	-2.095218e-05	7.875486e-06
	-2.094991e-05	9.856307e-06	0.1239616	0.02849013	-2.095219e-05	7.875536e-06	0.07959721	-0.003331237
3e+07	0.05690598	-0.03178293	3.14283e-05	-8.123973e-06	0.116155	-0.0503242	3.317828e-05	-6.120354e-06
	3.142832e-05	-8.123971e-06	0.05682364	-0.03197383	2.975174e-05	-1.047098e-05	0.1161152	-0.05043873
	0.1161549	-0.05032402	2.975173e-05	-1.047101e-05	0.05686231	-0.03182956	3.147821e-05	-8.503368e-06
	3.317829e-05	-6.120383e-06	0.1161151	-0.05043855	3.147821e-05	-8.503367e-06	0.05683462	-0.03192482
4e+07	0.02361562	-0.01860753	3.390776e-05	-0.0001005124	0.04073403	-0.06770157	3.609513e-05	-0.0001004739
	3.390778e-05	-0.0001005124	0.02346405	-0.01871821	3.149354e-05	-0.0001014287	0.04066238	-0.06779856
	0.0407365	-0.06770219	3.14934e-05	-0.0001014277	0.02352262	-0.01855275	3.366329e-05	-0.0001013947
	3.609499e-05	-0.000100473	0.04066487	-0.06779919	3.36633e-05	-0.0001013947	0.02347956	-0.01865687
5e+07	0.02757528	0.0162869	-7.639557e-05	-0.0001433455	0.005112592	-0.002541744	-7.663399e-05	-0.0001438786
	-7.639561e-05	-0.0001433455	0.02753249	0.01624758	-7.711963e-05	-0.0001435951	0.005075377	-0.00262298
	0.005112686	-0.002542489	-7.71183e-05	-0.0001435945	0.02758863	0.01644261	-7.732367e-05	-0.0001441396
	-7.663265e-05	-0.000143878	0.005075468	-0.002623729	-7.73237e-05	-0.0001441396	0.02755108	0.01632738
6e+07	0.06095858	0.02063162	-0.0001491473	-4.493167e-05	0.05875326	0.04678306	-0.0001506624	-4.236578e-05
	-0.0001491473	-4.493164e-05	0.06106162	0.02044568	-0.0001486992	-4.761663e-05	0.05876669	0.04663608
	0.05875323	0.04678303	-0.000148699	-4.761822e-05	0.06111396	0.02069831	-0.0001501638	-4.513215e-05
	-0.0001506623	-4.236737e-05	0.05876666	0.04663605	-0.0001501637	-4.513208e-05	0.06108605	0.02054338
7e+07	0.07287172	-0.008544031	-6.637842e-05	4.228215e-05	0.1219093	0.008337861	-6.4814e-05	4.749178e-05
	-6.637841e-05	4.228215e-05	0.07288082	-0.008985872	-6.842832e-05	3.708514e-05	0.1218816	0.008078562
	0.1219093	0.008336956	-6.842838e-05	3.708567e-05	0.07297376	-0.008657547	-6.687143e-05	4.217115e-05
	-6.481406e-05	4.749231e-05	0.1218817	0.008077656	-6.687142e-05	4.21711e-05	0.07291924	-0.008870437
8e+07	0.04941578	-0.0267544	4.732762e-05	-3.389822e-05	0.1059693	-0.06477149	5.27225e-05	-3.079057e-05
	4.73276e-05	-3.389821e-05	0.04913164	-0.02722787	4.163038e-05	-3.777164e-05	0.105817	-0.06505773
	0.1059681	-0.06477203	4.163059e-05	-3.777228e-05	0.04929815	-0.0268686	4.69697e-05	-3.474896e-05
	5.272272e-05	-3.07912e-05	0.1058158	-0.06505827	4.696972e-05	-3.474896e-05	0.04918244	-0.02710248
9e+07	0.02623212	-0.008814972	-8.925204e-06	-0.000196393	0.03308728	-0.07336251	-4.497437e-06	-0.0001976081
	-8.925192e-06	-0.000196393	0.0258254	-0.009030967	-1.473326e-05	-0.0001964616	0.03287269	-0.07355846
	0.03308624	-0.07336215	-1.473345e-05	-0.0001964626	0.0260366	-0.008682316	-1.031907e-05	-0.0001977139
	-4.497628e-06	-0.0001976091	0.03287165	-0.07355811	-1.031909e-05	-0.0001977139	0.0258888	-0.008891984
1e+08	0.03877121	0.01872318	-0.0002093775	-0.0001899527	0.005659053	-0.008422176	-0.0002095746	-0.0001909133
	-0.0002093775	-0.0001899527	0.03860933	0.01867449	-0.000211532	-0.000189225	0.005526891	-0.008557371
	0.005658975	-0.008421642	-0.0002115332	-0.0001892251	0.03881398	0.01902456	-0.0002116692	-0.0001902693
	-0.0002095758	-0.0001909135	0.005526813	-0.008556836	-0.0002116691	-0.0001902693	0.03868586	0.01882216
1.1e+08	0.06918277	0.01334459	-0.0002616828	5.904242e-06	0.06087842	0.03332447	-0.0002624594	1.011176e-05
	-0.0002616828	5.90419e-06	0.06927872	0.01303699	-0.0002625731	2.604963e-06	0.06084088	0.03308274
	0.0608782	0.03332375	-0.0002625722	2.605954e-06	0.06947629	0.01345552	-0.000263309	6.625325e-06
	-0.0002624584	1.01128e-05	0.06084066	0.03308201	-0.000263309	6.625323e-06	0.06936802	0.01319926
1.2e+08	0.07261589	-0.01635312	-9.597413e-05	0.0001002985	0.1172636	-0.008977581	-9.138134e-05	0.0001067223
	-9.597422e-05	0.0001002985	0.07252259	-0.01706247	-0.0001011685	9.44225e-05	0.1171426	-0.00939195
	0.1172621	-0.008978035	-0.0001011676	9.44209e-05	0.0727958	-0.01655629	-9.663542e-05	0.0001006336
	-9.138036e-05	0.0001067207	0.1171411	-0.009392404	-9.663536e-05	0.0001006337	0.07263438	-0.01689065
1.3e+08	0.04672452	-0.02756833	3.479883e-05	-4.376435e-05	0.09523673	-0.07715805	4.35143e-05	-4.185238e-05
	3.479884e-05	-4.376427e-05	0.0461505	-0.028269	2.522812e-05	-4.636424e-05	0.0949047	-0.07758094
	0.0952352	-0.0771574	2.522635e-05	-4.636641e-05	0.0465425	-0.02775441	3.384244e-05	-4.459271e-05
	4.351271e-05	-4.18545e-05	0.09490317	-0.0775803	3.38426e-05	-4.459268e-05	0.04627721	-0.02809263
1.4e+08	0.02969016	-0.005596444	-9.04881e-05	-0.0002287127	0.02485934	-0.07872873	-8.477701e-05	-0.0002321151
	-9.048808e-05	-0.0002287128	0.02895203	-0.005853423	-9.881052e-05	-0.0002259904	0.02444058	-0.07897633
	0.02485861	-0.07872779	-9.881315e-05	-0.0002259899	0.02940466	-0.005395245	-9.313232e-05	-0.000229495
	-8.477948e-05	-0.0002321147	0.02443985	-0.0789754	-9.313217e-05	-0.000229495	0.02909747	-0.005666135
1.5e+08	0.04814081	0.01710451	-0.0003306326	-0.0001506605	0.004264324	-0.01443166	-0.0003307343	-0.0001522883
	-0.0003306327	-0.0001506605	0.04779246	0.017108	-0.0003336916	-0.000147652	0.003986858	-0.01457234
	0.004263928	-0.01443115	-0.0003336923	-0.0001476505	0.04822337	0.0175412	-0.0003337628	-0.0001494662
	-0.000330735	-0.0001522869	0.003986463	-0.01457183	-0.0003337628	-0.0001494662	0.04795956	0.01729657
1.6e+08	0.07619691	0.004738407	-0.0003278197	0.0001043305	0.06033487	0.02071883	-0.0003271962	0.0001090471
	-0.0003278197	0.0001043305	0.0762151	0.004366587	-0.0003298691	0.0001020546	0.06019596	0.02042486
	0.06033421	0.02071921	-0.0003298688	0.0001020547	0.07663114	0.004878269	-0.000329284	0.0001064717
	-0.0003271958	0.0001090472	0.06019531	0.02042524	-0.0003292839	0.0001064717	0.07639612	0.004559153
1.7e+08	0.07315721	-0.02520068	-9.94437e-05	0.0001707628	0.1104706	-0.02447897	-9.199243e-05	0.0001764869
	-9.94437e-05	0.0001707628	0.07288036	-0.02611139	-0.0001070472	0.0001663048	0.1101967	-0.02500108
	0.1104699	-0.02447826	-0.0001070479	0.0001663041	0.07340363	-0.0254993	-9.9764e-05	0.0001717473
	-9.199297e-05	0.0001764861	0.110196	-0.02500037	-9.97639e-05	0.0001717473	0.07308057	-0.0259122
1.8e+08	0.04546952	-0.03108164	1.889545e-05	-2.890747e-05	0.08335327	-0.08778724	2.971594e-05	-2.957326e-05
	1.889545e-05	-2.890748e-05	0.04452703	-0.03192101	7.012768e-06	-2.852392e-05	0.08278247	-0.08828278
	0.08335296	-0.08778632	7.011161e-06	-2.852382e-05	0.04521599	-0.03132801	1.765169e-05	-2.936846e-05
	2.971447e-05	-2.957329e-05	0.08278216	-0.08828186	1.765182e-05	-2.936854e-05	0.04474688	-0.03171346
1.9e+08	0.03309072	-0.006288462	-0.0001631898	-0.0002053852	0.0157177	-0.08316855	-0.000157302	-0.0002112969
	-0.0001631899	-0.0002053852	0.03196353	-0.006485686	-0.00017237	-0.0001990019	0.01505032	-0.08339344
	0.01571776	-0.08316784	-0.000172371	-0.0001990007	0.03272806	-0.006005108	-0.0001665723	-0.0002050811
	-0.000157303	-0.0002112958	0.01505037	-0.08339272	-0.0001665722	-0.0002050812	0.03221937	-0.006271395
2e+08	0.05570328	0.01248444	-0.0004057919	-6.23378e-05	0.001313521	-0.01987919	-0.0004060551	-6.485404e-05
	-0.0004057919	-6.233778e-05	0.05512665	0.01263254	-0.0004085858	-5.648525e-05	0.000858713	-0.01995562
	0.001313597	-0.01987875	-0.0004085857	-5.648423e-05	0.05584443	0.01305088	-0.0004089083	-5.928663e-05
	-0.000406055	-6.48531e-05	0.0008587892	-0.01995518	-0.0004089083	-5.928672e-05	0.05541306	0.01282615
2.1e+08	0.08153681	-0.005140249	-0.0003418187	0.0002161332	0.05771226	0.00913687	-0.0003399349	0.0002204009
	-0.0003418187	0.0002161333	0.08142952	-0.005491717	-0.0003439978	0.0002157507	0.05743753	0.008854677
	0.05771225	0.009137244	-0.0003439976	0.0002157508	0.08211605	-0.004984508	-0.0003422967	0.0002196398
	-0.0003399347	0.000220401	0.05743752	0.008855051	-0.0003422967	0.0002196397	0.08172035	-0.005308192
2.2e+08	0.07337278	-0.03498573	-7.579002e-05	0.0002403491	0.1017947	-0.03824267	-6.639577e-05	0.0002442018
	-7.579001e-05	0.0002403491	0.0728553	-0.03599824	-8.432876e-05	0.0002382667	0.101327	-0.03879943
	0.1017948	-0.03824225	-8.432909e-05	0.0002382668	0.07368494	-0.03538306	-7.525306e-05	0.000241816
	-6.639606e-05	0.0002442018	0.101327	-0.038799	-7.525304e-05	0.000241816	0.07316128	-0.03580758
2.3e+08	0.04444533	-0.03666965	1.602482e-05	2.301581e-06	0.07032497	-0.09653956	2.756036e-05	-1.402201e-06
	1.602482e-05	2.301578e-06	0.04309101	-0.03752486	3.657215e-06	6.139692e-06	0.06948249	-0.0970182
	0.07032516	-0.0965392	3.656742e-06	6.140231e-06	0.0441276	-0.03697434	1.490144e-05	2.251301e-06
	2.755989e-05	-1.401756e-06	0.06948268	-0.09701784	1.490145e-05	2.251231e-06	0.04342322	-0.0373259
2.4e+08	0.03570095	-0.009972375	-0.0002057087	-0.0001512922	0.005777641	-0.08630409	-0.0002005731	-0.0001595284
	-0.0002057087	-0.0001512922	0.03416883	-0.00998465	-0.0002141202	-0.0001413317	0.004847794	-0.08641281
	0.005777856	-0.08630389	-0.0002141202	-0.000141331	0.03527571	-0.009611545	-0.0002091762	-0.0001497762
	-0.0002005732	-0.0001595278	0.00484801	-0.08641261	-0.0002091763	-0.0001497763	0.03455057	-0.009788555
2.5e+08	0.06119424	0.00550774	-0.0004307977	4.07629e-05	-0.002840917	-0.0244219	-0.0004315516	3.730341e-05
	-0.0004307977	4.076291e-05	0.060385	0.005910548	-0.0004321164	4.93022e-05	-0.003476359	-0.02435
	-0.002840756	-0.0244218	-0.0004321161	4.930255e-05	0.06140477	0.006189644	-0.0004330756	4.550316e-05
	-0.0004315512	3.730374e-05	-0.003476198	-0.0243499	-0.0004330756	4.550314e-05	0.06080038	0.006061684
2.6e+08	0.08490408	-0.01610053	-0.0003132378	0.0003190716	0.05340488	-0.001244156	-0.000310597	0.0003223095
	-0.0003132378	0.0003190716	0.08465969	-0.01632662	-0.0003143775	0.0003206409	0.05298757	-0.001435662
	0.05340498	-0.001244072	-0.0003143773	0.0003206409	0.0856291	-0.01594334	-0.0003121049	0.0003234873
	-0.0003105969	0.0003223095	0.05298767	-0.001435577	-0.000312105	0.0003234873	0.0850645	-0.0161992
2.7e+08	0.07263733	-0.04564662	-2.954397e-05	0.0002995384	0.09154491	-0.0501807	-1.928061e-05	0.0003010496
	-2.954396e-05	0.0002995384	0.07186486	-0.04664099	-3.758419e-05	0.000299829	0.09087383	-0.05068384
	0.09154502	-0.05018062	-3.758427e-05	0.000299829	0.07301249	-0.04614882	-2.780866e-05	0.0003010784
	-1.928069e-05	0.0003010496	0.09087393	-0.05068376	-2.780866e-05	0.0003010783	0.07227797	-0.04650439
2.8e+08	0.04280882	-0.04404553	3.149258e-05	3.786498e-05	0.05636562	-0.1033021	4.258707e-05	3.125948e-05
	3.149258e-05	3.786498e-05	0.04104704	-0.04478071	2.01537e-05	4.476987e-05	0.05525432	-0.1036635
	0.05636572	-0.1033021	2.015367e-05	4.477007e-05	0.04243008	-0.04440927	3.083169e-05	3.802288e-05
	4.258703e-05	3.125965e-05	0.05525443	-0.1036634	3.083168e-05	3.802286e-05	0.04149101	-0.04463619
2.9e+08	0.03680466	-0.01606926	-0.0002154518	-8.847159e-05	-0.004749304	-0.08792684	-0.0002117313	-9.861855e-05
	-0.0002154518	-8.847158e-05	0.03489777	-0.01576601	-0.0002218549	-7.563428e-05	-0.005919748	-0.08782131
	-0.004749226	-0.08792684	-0.0002218548	-7.563412e-05	0.03632691	-0.01563561	-0.0002184545	-8.598126e-05
	-0.0002117312	-9.86184e-05	-0.005919671	-0.0878213	-0.0002184546	-8.598126e-05	0.03540202	-0.01563447
3e+08	0.0642048	-0.003255329	-0.0004148603	0.0001372657	-0.007885308	-0.02782255	-0.0004164438	0.0001329499
	-0.0004148603	0.0001372657	0.06320104	-0.002484277	-0.0004137796	0.0001478345	-0.008671932	-0.02751622
	-0.00788527	-0.02782256	-0.0004137794	0.0001478345	0.06449285	-0.002470852	-0.0004157424	0.0001431911
	-0.0004164437	0.0001329499	-0.008671894	-0.02751623	-0.0004157424	0.0001431911	0.06373895	-0.002423169
3.1e+08	0.08596411	-0.02782711	-0.0002546847	0.0004022362	0.04779646	-0.01027164	-0.0002518788	0.000404232
	-0.0002546847	0.0004022362	0.08561426	-0.02781887	-0.0002538646	0.0004052562	0.0472623	-0.0102911
	0.04779648	-0.01027164	-0.0002538646	0.0004052562	0.08683415	-0.02768181	-0.0002516222	0.0004069239
	-0.0002518788	0.0004042319	0.04726231	-0.01029111	-0.0002516222	0.0004069239	0.08612118	-0.02779511
3.2e+08	0.07040791	-0.05698697	3.315901e-05	0.0003427578	0.08006993	-0.06023543	4.335074e-05	0.0003419324
	3.315902e-05	0.0003427578	0.06941293	-0.05784235	2.66735e-05	0.0003448302	0.07922113	-0.06059577
	0.08006994	-0.06023543	2.667348e-05	0.0003448302	0.07084265	-0.05759904	3.621396e-05	0.0003438526
	4.335073e-05	0.0003419324	0.07922114	-0.06059577	3.621395e-05	0.0003438526	0.06991783	-0.05780414
3.3e+08	0.03982818	-0.05283673	6.383753e-05	6.812134e-05	0.04173937	-0.108025	7.36454e-05	5.904477e-05
	6.383753e-05	6.812134e-05	0.03771102	-0.05332129	5.454102e-05	7.724677e-05	0.04039871	-0.1081724
	0.04173937	-0.108025	5.454103e-05	7.724682e-05	0.03939201	-0.05325988	6.381303e-05	6.812958e-05
	7.364541e-05	5.904481e-05	0.04039871	-0.1081724	6.381303e-05	6.812957e-05	0.03825069	-0.05327432
3.4e+08	0.03576351	-0.02393762	-0.0001980247	-3.128899e-05	-0.01561754	-0.08791796	-0.0001961654	-4.284584e-05
	-0.0001980247	-3.128899e-05	0.033557	-0.02319845	-0.0002016573	-1.657315e-05	-0.01697191	-0.08750834
	-0.01561756	-0.08791795	-0.0002016573	-1.657317e-05	0.03524346	-0.0234366	-0.0002002469	-2.826267e-05
	-0.0001961653	-4.284586e-05	-0.01697192	-0.08750834	-0.0002002469	-2.826268e-05	0.03416584	-0.02317494
3.5e+08	0.06436807	-0.01313957	-0.0003698273	0.0002162497	-0.01350307	-0.02993751	-0.0003725398	0.0002112835
	-0.0003698273	0.0002162497	0.06325006	-0.01189834	-0.0003658109	0.0002279411	-0.01437939	-0.02932039
	-0.01350309	-0.02993749	-0.000365811	0.0002279411	0.06474139	-0.01226639	-0.0003690737	0.0002227295
	-0.0003725398	0.0002112835	-0.01437941	-0.02932038	-0.0003690737	0.0002227295	0.06388958	-0.0119718
3.6e+08	0.08443486	-0.03985808	-0.0001772444	0.0004613522	0.04125542	-0.01786724	-0.0001748078	0.0004621612
	-0.0001772444	0.0004613522	0.08405368	-0.03951866	-0.0001739175	0.0004650338	0.040662	-0.01764309
	0.0412554	-0.01786723	-0.0001739175	0.0004650339	0.08544862	-0.03973865	-0.0001722208	0.0004656521
	-0.0001748078	0.0004621613	0.04066199	-0.01764308	-0.0001722208	0.0004656521	0.08463591	-0.03964237
3.7e+08	0.06623984	-0.06863749	0.0001061726	0.0003671725	0.0677079	-0.0684035	0.0001155621	0.0003642875
	0.0001061726	0.0003671725	0.06509886	-0.0692485	0.0001018494	0.0003701596	0.06674023	-0.0685439
	0.06770788	-0.06840348	0.0001018494	0.0003701596	0.06673093	-0.0693649	0.0001104534	0.0003672962
	0.0001155621	0.0003642876	0.06674021	-0.06854388	0.0001104534	0.0003672962	0.06566556	-0.06934774
3.8e+08	0.03492013	-0.06251456	0.0001086238	8.682309e-05	0.02671831	-0.110711	0.0001165666	7.583382e-05
	0.0001086238	8.682309e-05	0.03254291	-0.06263854	0.0001018924	9.71516e-05	0.02522064	-0.1105638
	0.02671829	-0.110711	0.0001018924	9.715159e-05	0.03443096	-0.06299925	0.0001092085	8.62787e-05
	0.0001165666	7.583379e-05	0.02522062	-0.1105638	0.0001092085	8.627869e-05	0.03314866	-0.06272637
3.9e+08	0.03209907	-0.03282649	-0.0001613053	1.225763e-05	-0.02656873	-0.08623387	-0.0001615863	-1.770643e-07
	-0.0001613053	1.225763e-05	0.02970815	-0.0315554	-0.0001618451	2.777567e-05	-0.02801992	-0.08544965
	-0.02656875	-0.08623383	-0.0001618452	2.777568e-05	0.03154652	-0.03226649	-0.0001626785	1.533221e-05
	-0.0001615864	-1.770667e-07	-0.02801993	-0.08544962	-0.0001626785	1.53322e-05	0.03039004	-0.03167759
4e+08	0.06144689	-0.02338912	-0.0003064353	0.0002730856	-0.01938998	-0.03071172	-0.0003105039	0.0002677628
	-0.0003064353	0.0002730856	0.06033198	-0.02160131	-0.0002993208	0.0002849261	-0.02026677	-0.02972774
	-0.01938998	-0.03071168	-0.0002993209	0.0002849262	0.06191156	-0.02244339	-0.0003040816	0.0002795035
	-0.000310504	0.0002677629	-0.02026677	-0.0297277	-0.0003040816	0.0002795034	0.06103827	-0.02184709
4.1e+08	0.08014734	-0.05161724	-8.982023e-05	0.0004955287	0.03411583	-0.02402406	-8.817415e-05	0.0004953793
	-8.982023e-05	0.0004955287	0.0798456	-0.05087603	-8.380896e-05	0.000498993	0.03354797	-0.02350532
	0.03411583	-0.02402403	-8.380895e-05	0.0004989931	0.08130201	-0.05153908	-8.303703e-05	0.0004988538
	-8.817413e-05	0.0004953794	0.03354797	-0.02350529	-8.303703e-05	0.0004988538	0.08046269	-0.05118311
4.2e+08	0.05982443	-0.08008705	0.000183796	0.0003717641	0.05476733	-0.07473108	0.0001918588	0.0003672416
	0.000183796	0.0003717641	0.05865092	-0.08037763	0.0001818325	0.0003747308	0.0537671	-0.07459724
	0.05476733	-0.07473105	0.0001818325	0.0003747309	0.06036792	-0.08093657	0.0001890255	0.0003704573
	0.0001918588	0.0003672416	0.05376709	-0.07459721	0.0001890255	0.0003704573	0.05923639	-0.08064425
4.3e+08	0.02768317	-0.07241632	0.0001604914	9.060369e-05	0.01156222	-0.1114118	0.0001662037	7.830745e-05
	0.0001604914	9.060369e-05	0.02517618	-0.07210348	0.0001564316	0.0001011234	0.01000589	-0.1109156
	0.01156221	-0.1114118	0.0001564315	0.0001011234	0.02714505	-0.07296727	0.0001614753	8.914677e-05
	0.0001662036	7.830741e-05	0.01000588	-0.1109156	0.0001614753	8.914676e-05	0.02580648	-0.07235384
4.4e+08	0.02553231	-0.04189621	-0.0001130708	3.843682e-05	-0.03735576	-0.08289788	-0.0001156358	2.566364e-05
	-0.0001130708	3.843681e-05	0.02310339	-0.04003369	-0.0001105607	5.373796e-05	-0.03879353	-0.08169692
	-0.03735575	-0.08289784	-0.0001105608	5.373801e-05	0.02495507	-0.04128907	-0.0001137343	4.112507e-05
	-0.0001156359	2.566369e-05	-0.03879353	-0.08169689	-0.0001137343	4.112507e-05	0.02381479	-0.04032963
4.5e+08	0.0553778	-0.03318726	-0.000233575	0.0003066513	-0.02527404	-0.03016315	-0.0002391388	0.0003013238
	-0.000233575	0.0003066513	0.05441123	-0.03081363	-0.0002235201	0.0003177211	-0.02604168	-0.02878522
	-0.02527403	-0.03016313	-0.0002235201	0.0003177212	0.05593676	-0.03218731	-0.0002298681	0.0003124877
	-0.0002391388	0.0003013239	-0.02604166	-0.02878519	-0.0002298681	0.0003124877	0.05513748	-0.03125854
4.6e+08	0.0730849	-0.0624541	4.828919e-07	0.0005056354	0.02666487	-0.02879179	1.045221e-06	0.0005048597
	4.828915e-07	0.0005056354	0.07300022	-0.06127808	9.036307e-06	0.0005080447	0.02622679	-0.0279567
	0.02666488	-0.02879177	9.036333e-06	0.0005080447	0.07437508	-0.06243374	8.65062e-06	0.0005075273
	1.045249e-06	0.0005048598	0.0262268	-0.02795668	8.650621e-06	0.0005075272	0.07360059	-0.06179242
4.7e+08	0.0510202	-0.09072632	0.0002608739	0.0003568057	0.04151604	-0.07930447	0.0002672683	0.0003511393
	0.0002608739	0.0003568058	0.04995381	-0.09066075	0.0002611291	0.0003588801	0.04058837	-0.0788732
	0.04151605	-0.07930446	0.0002611292	0.0003588801	0.05161047	-0.09170609	0.0002666361	0.0003537269
	0.0002672683	0.0003511392	0.04058837	-0.07887319	0.0002666361	0.0003537269	0.05050484	-0.09111183
4.8e+08	0.01792314	-0.08178754	0.0002140988	7.826172e-05	-0.00349792	-0.1102204	0.0002173884	6.527166e-05
	0.0002140988	7.826172e-05	0.01543999	-0.08100545	0.0002124869	8.807283e-05	-0.004997937	-0.1093544
	-0.003497911	-0.1102204	0.0002124868	8.807281e-05	0.01733849	-0.08241196	0.0002151305	7.56353e-05
