!
!4 port subset of full cascaded channels using these ports:49 37 50 38
# Hz S RI R 50
0	0.01271085	0.0002808985	2.364127e-06	-1.224788e-09	0.002031649	9.421928e-05	2.359035e-06	-1.197424e-09
	2.364127e-06	-1.224566e-09	0.0125608	0.0002809536	2.368142e-06	-1.257927e-09	0.001829216	9.423245e-05
	0.002027116	9.262724e-05	2.368171e-06	-1.253766e-09	0.01148923	0.0002815066	2.359499e-06	-1.22496e-09
	2.359064e-06	-1.193247e-09	0.001824681	9.264004e-05	2.359498e-06	-1.224737e-09	0.01132659	0.0002815991
1e+07	0.05727058	0.02798927	1.95456e-05	1.465681e-05	0.05267617	0.06171115	1.958861e-05	1.42488e-05
	1.95456e-05	1.465681e-05	0.056522	0.02739839	1.959403e-05	1.476793e-05	0.05187301	0.06112049
	0.05267617	0.06171115	1.959403e-05	1.476793e-05	0.05729271	0.02799797	1.962624e-05	1.435781e-05
	1.958861e-05	1.42488e-05	0.05187301	0.06112049	1.962624e-05	1.435781e-05	0.0565222	0.02741793
2e+07	0.08020628	-0.003417819	1.685299e-05	-2.648422e-06	0.1247792	0.02805674	1.653935e-05	-3.563484e-06
	1.685298e-05	-2.648662e-06	0.07957881	-0.003323726	1.708948e-05	-2.510507e-06	0.1239422	0.02848668
	0.1247907	0.02806259	1.709215e-05	-2.514319e-06	0.08019196	-0.003453073	1.676811e-05	-3.412154e-06
	1.653981e-05	-3.565041e-06	0.1239616	0.02849013	1.67601e-05	-3.405236e-06	0.07959721	-0.003331237
3e+07	0.05572926	-0.03155889	-2.36669e-05	1.166e-05	0.114825	-0.0507633	-2.450336e-05	1.081238e-05
	-2.366683e-05	1.165995e-05	0.05682364	-0.03197383	-2.328439e-05	1.165202e-05	0.1161152	-0.05043873
	0.1148251	-0.05076065	-2.328441e-05	1.165191e-05	0.05569377	-0.03159595	-2.410399e-05	1.081988e-05
	-2.45033e-05	1.081234e-05	0.1161151	-0.05043855	-2.41039e-05	1.082001e-05	0.05683462	-0.03192482
4e+07	0.02191295	-0.015287	-2.623591e-05	8.542185e-05	0.03835744	-0.06477359	-2.692983e-05	8.495328e-05
	-2.623595e-05	8.542188e-05	0.02346405	-0.01871821	-2.583492e-05	8.530756e-05	0.04066238	-0.06779856
	0.03835946	-0.06477588	-2.583484e-05	8.530679e-05	0.02183928	-0.01524691	-2.650601e-05	8.481548e-05
	-2.692975e-05	8.495256e-05	0.04066487	-0.06779919	-2.650599e-05	8.481551e-05	0.02347956	-0.01865687
5e+07	0.02919523	0.02168511	5.919299e-05	0.0001219043	0.00631672	0.003097784	5.911625e-05	0.0001209817
	5.919301e-05	0.0001219043	0.02753249	0.01624758	5.966724e-05	0.0001217819	0.005075377	-0.00262298
	0.006316406	0.00309688	5.966626e-05	0.0001217815	0.02921644	0.02179365	5.956398e-05	0.0001208135
	5.911524e-05	0.0001209813	0.005075468	-0.002623729	5.956395e-05	0.0001208135	0.02755108	0.01632738
6e+07	0.06551333	0.02336445	0.00011733	4.917856e-05	0.06378065	0.04951379	0.0001168611	4.710366e-05
	0.00011733	4.917856e-05	0.06106162	0.02044568	0.0001180261	4.90183e-05	0.05876669	0.04663608
	0.06378068	0.04951381	0.0001180259	4.901951e-05	0.06563647	0.02338794	0.0001174858	4.694578e-05
	0.000116861	4.710487e-05	0.05876666	0.04663605	0.0001174857	4.694577e-05	0.06108605	0.02054338
7e+07	0.07528121	-0.009179579	5.650514e-05	-1.830719e-05	0.124794	0.006479413	5.463499e-05	-2.051649e-05
	5.650513e-05	-1.83072e-05	0.07288082	-0.008985872	5.747856e-05	-1.87265e-05	0.1218816	0.008078562
	0.1247939	0.006478508	5.74786e-05	-1.872691e-05	0.07534525	-0.009293611	5.556952e-05	-2.087283e-05
	5.463503e-05	-2.051689e-05	0.1218817	0.008077656	5.556952e-05	-2.087282e-05	0.07291924	-0.008870437
8e+07	0.04729571	-0.02576492	-3.447597e-05	3.835103e-05	0.1029591	-0.06549503	-3.693511e-05	3.73943e-05
	-3.447596e-05	3.835102e-05	0.04913164	-0.02722787	-3.345369e-05	3.7557e-05	0.105817	-0.06505773
	0.1029578	-0.06549548	-3.345391e-05	3.75575e-05	0.04718734	-0.02586104	-3.588272e-05	3.664674e-05
	-3.693533e-05	3.73948e-05	0.1058158	-0.06505827	-3.588272e-05	3.664675e-05	0.04918244	-0.02710248
9e+07	0.02417542	-0.001660713	3.094603e-06	0.0001708544	0.02916358	-0.06668201	1.862829e-06	0.0001706337
	3.094594e-06	0.0001708543	0.0258254	-0.009030967	4.088526e-06	0.0001698517	0.03287269	-0.07355846
	0.02916243	-0.06668153	4.088647e-06	0.0001698525	0.02403219	-0.001558129	2.883355e-06	0.0001695985
	1.86295e-06	0.0001706345	0.03287165	-0.07355811	2.883354e-06	0.0001695985	0.0258888	-0.008891984
1e+08	0.04342622	0.02822274	0.0001618731	0.0001767122	0.009475179	0.001948777	0.0001616376	0.0001749578
	0.0001618731	0.0001767122	0.03860933	0.01867449	0.0001629342	0.0001755154	0.005526891	-0.008557371
	0.009475143	0.001949324	0.0001629352	0.0001755156	0.04348614	0.02842352	0.0001626318	0.0001737064
	0.0001616385	0.000174958	0.005526813	-0.008556836	0.0001626318	0.0001737064	0.03868586	0.01882216
1.1e+08	0.07829867	0.01719934	0.0002128377	2.892579e-05	0.07065574	0.03719783	0.0002109851	2.549621e-05
	0.0002128377	2.892581e-05	0.06927872	0.01303699	0.0002140351	2.750752e-05	0.06084088	0.03308274
	0.07065548	0.03719708	0.0002140344	2.750674e-05	0.07849409	0.01723322	0.0002120582	2.4104e-05
	0.0002109844	2.549539e-05	0.06084066	0.03308201	0.0002120582	2.410395e-05	0.06936802	0.01319926
1.2e+08	0.07740574	-0.01788993	9.133211e-05	-5.203101e-05	0.1223717	-0.01258329	8.711097e-05	-5.440287e-05
	9.133216e-05	-5.2031e-05	0.07252259	-0.01706247	9.270185e-05	-5.394387e-05	0.1171426	-0.00939195
	0.1223701	-0.01258362	9.270105e-05	-5.394263e-05	0.07743574	-0.01803915	8.840273e-05	-5.619176e-05
	8.711009e-05	-5.440166e-05	0.1171411	-0.009392404	8.840262e-05	-5.619183e-05	0.07263438	-0.01689065
1.3e+08	0.04464647	-0.02595514	-2.092669e-05	5.380071e-05	0.09116073	-0.07806255	-2.494178e-05	5.409281e-05
	-2.092667e-05	5.380066e-05	0.0461505	-0.028269	-1.977927e-05	5.133595e-05	0.0949047	-0.07758094
	0.09115927	-0.07806172	-1.977803e-05	5.133791e-05	0.04442448	-0.02601358	-2.376168e-05	5.174682e-05
	-2.494067e-05	5.409472e-05	0.09490317	-0.0775803	-2.376184e-05	5.174682e-05	0.04627721	-0.02809263
1.4e+08	0.02874478	0.004938881	6.701818e-05	0.0002142244	0.02066374	-0.06851776	6.582233e-05	0.0002149037
	6.701819e-05	0.0002142244	0.02895203	-0.005853423	6.792861e-05	0.0002115309	0.02444058	-0.07897633
	0.02066316	-0.06851675	6.793082e-05	0.0002115309	0.02854345	0.005168353	6.679069e-05	0.0002122151
	6.582441e-05	0.0002149038	0.02443985	-0.0789754	6.679057e-05	0.0002122152	0.02909747	-0.005666135
1.5e+08	0.05712592	0.02959571	0.0002676994	0.0001706265	0.01184086	-0.0003418327	0.0002673679	0.0001681334
	0.0002676995	0.0001706265	0.04779246	0.017108	0.0002685129	0.0001676608	0.003986858	-0.01457234
	0.01184054	-0.000341343	0.0002685136	0.0001676598	0.0572444	0.02989343	0.000268115	0.0001651148
	0.0002673686	0.0001681324	0.003986463	-0.01457183	0.0002681149	0.0001651148	0.04795956	0.01729657
1.6e+08	0.0900514	0.008413625	0.0002860351	-2.970272e-05	0.07525486	0.02457425	0.000282351	-3.390811e-05
	0.0002860351	-2.970275e-05	0.0762151	0.004366587	0.0002868054	-3.295845e-05	0.06019596	0.02042486
	0.07525419	0.02457468	0.0002868054	-3.295852e-05	0.0903534	0.008412579	0.0002829494	-3.709171e-05
	0.0002823509	-3.390819e-05	0.06019531	0.02042524	0.0002829493	-3.70917e-05	0.07639612	0.004559153
1.7e+08	0.08035231	-0.02828726	0.0001144343	-0.0001002168	0.117879	-0.03042244	0.0001079067	-0.0001016319
	0.0001144343	-0.0001002168	0.07288036	-0.02611139	0.000115135	-0.0001040788	0.1101967	-0.02500108
	0.1178784	-0.0304216	0.0001151355	-0.0001040782	0.08042901	-0.02856934	0.0001085288	-0.000105272
	0.0001079072	-0.0001016312	0.110196	-0.02500037	0.0001085286	-0.0001052719	0.07308057	-0.0259122
1.8e+08	0.04411926	-0.02941592	7.201743e-07	4.939799e-05	0.078738	-0.08906431	-4.145984e-06	5.17181e-05
	7.201952e-07	4.939797e-05	0.04452703	-0.03192101	8.381127e-07	4.502785e-05	0.08278247	-0.08828278
	0.07873784	-0.08906331	8.395118e-07	4.5028e-05	0.04384283	-0.0295625	-3.941042e-06	4.752758e-05
	-4.144695e-06	5.171835e-05	0.08278216	-0.08828186	-3.941159e-06	4.752768e-05	0.04474688	-0.03171346
1.9e+08	0.03422894	0.006341412	0.0001349144	0.0002168029	0.01230534	-0.07001546	0.0001343619	0.0002184826
	0.0001349144	0.0002168029	0.03196353	-0.006485686	0.0001346375	0.0002123633	0.01505032	-0.08339344
	0.01230554	-0.07001478	0.0001346386	0.0002123624	0.03398731	0.006602964	0.0001341718	0.0002140572
	0.000134363	0.0002184819	0.01505037	-0.08339272	0.0001341718	0.0002140574	0.03221937	-0.006271395
2e+08	0.06940023	0.02615246	0.000353543	0.0001228584	0.01345781	-0.003344717	0.0003531407	0.0001196947
	0.000353543	0.0001228584	0.05512665	0.01263254	0.0003530183	0.0001181224	0.000858713	-0.01995562
	0.01345794	-0.003344323	0.0003530184	0.0001181215	0.06958672	0.02650026	0.000352527	0.0001149359
	0.0003531408	0.0001196939	0.0008587892	-0.01995518	0.000352527	0.000114936	0.05541306	0.01282615
2.1e+08	0.1001241	-0.003077697	0.0003307467	-0.0001090706	0.07788821	0.01168811	0.0003252276	-0.0001134911
	0.0003307467	-0.0001090706	0.08142952	-0.005491717	0.0003299093	-0.0001140403	0.05743753	0.008854677
	0.07788822	0.01168849	0.0003299093	-0.0001140405	0.1005288	-0.003122292	0.00032421	-0.000118299
	0.0003252275	-0.0001134912	0.05743752	0.008855051	0.00032421	-0.0001182989	0.08172035	-0.005308192
2.2e+08	0.08301514	-0.0406014	0.0001224071	-0.0001572537	0.1113947	-0.04725222	0.0001140359	-0.0001570727
	0.0001224071	-0.0001572538	0.0728553	-0.03599824	0.0001212602	-0.0001627371	0.101327	-0.03879943
	0.1113949	-0.04725177	0.0001212605	-0.0001627371	0.08311118	-0.04098549	0.0001128655	-0.0001622427
	0.0001140362	-0.0001570726	0.101327	-0.038799	0.0001128654	-0.0001622426	0.07316128	-0.03580758
2.3e+08	0.04417183	-0.03581582	1.820333e-05	2.748654e-05	0.06549806	-0.09860752	1.316225e-05	3.207906e-05
	1.820332e-05	2.748653e-05	0.04309101	-0.03752486	1.619504e-05	2.169456e-05	0.06948249	-0.0970182
	0.06549833	-0.09860719	1.619556e-05	2.169417e-05	0.04383006	-0.03600064	1.131462e-05	2.650567e-05
	1.316277e-05	3.207874e-05	0.06948268	-0.09701784	1.131461e-05	2.650575e-05	0.04342322	-0.0373259
2.4e+08	0.03943166	0.003603454	0.0001908076	0.0001902592	0.003891133	-0.07101624	0.0001913504	0.0001928618
	0.0001908076	0.0001902592	0.03416883	-0.00998465	0.0001883331	0.0001846452	0.004847794	-0.08641281
	0.003891394	-0.0710161	0.0001883332	0.0001846445	0.03916532	0.003924947	0.0001890002	0.0001872759
	0.0001913505	0.0001928613	0.00484801	-0.08641261	0.0001890003	0.000187276	0.03455057	-0.009788555
2.5e+08	0.07985213	0.01888886	0.0004127217	5.118054e-05	0.01433953	-0.006830046	0.0004123704	4.733749e-05
	0.0004127217	5.118053e-05	0.060385	0.005910548	0.0004098794	4.531066e-05	-0.003476359	-0.02435
	0.01433969	-0.006829987	0.0004098792	4.531028e-05	0.08011521	0.01927566	0.0004094484	4.148701e-05
	0.0004123702	4.733712e-05	-0.003476198	-0.0243499	0.0004094484	4.148703e-05	0.06080038	0.006061684
2.6e+08	0.1080634	-0.01704365	0.000348151	-0.0001974208	0.07865743	-0.001347525	0.0003409329	-0.0002017654
	0.000348151	-0.0001974208	0.08465969	-0.01632662	0.0003447495	-0.0002033369	0.05298757	-0.001435662
	0.07865752	-0.001347446	0.0003447493	-0.000203337	0.1085476	-0.01714981	0.0003373846	-0.0002074389
	0.0003409328	-0.0002017654	0.05298767	-0.001435577	0.0003373846	-0.0002074389	0.0850645	-0.0161992
2.7e+08	0.08447341	-0.05487607	0.0001141511	-0.0002184209	0.1029893	-0.06305802	0.0001043736	-0.0002163404
	0.0001141511	-0.0002184209	0.07186486	-0.04664099	0.0001103039	-0.0002246268	0.09087383	-0.05068384
	0.1029894	-0.06305795	0.000110304	-0.0002246268	0.08455515	-0.05535639	0.000100585	-0.0002221623
	0.0001043737	-0.0002163405	0.09087393	-0.05068376	0.000100585	-0.0002221623	0.07227797	-0.04650439
2.8e+08	0.04356406	-0.04500095	2.473784e-05	-6.387957e-06	0.05141374	-0.1067143	2.005224e-05	4.900536e-07
	2.473784e-05	-6.387959e-06	0.04104704	-0.04478071	1.986512e-05	-1.263555e-05	0.05525432	-0.1036635
	0.05141386	-0.1067143	1.986518e-05	-1.263574e-05	0.0431423	-0.04520293	1.543131e-05	-5.512406e-06
	2.005233e-05	4.898929e-07	0.05525443	-0.1036634	1.543134e-05	-5.512388e-06	0.04149101	-0.04463619
2.9e+08	0.04316817	-0.002792036	0.0002284653	0.0001461064	-0.004691255	-0.0714572	0.0002304348	0.0001494524
	0.0002284653	0.0001461064	0.03489777	-0.01576601	0.0002231556	0.0001403346	-0.005919748	-0.08782131
	-0.004691182	-0.07145722	0.0002231555	0.0001403344	0.04288359	-0.002400768	0.0002253121	0.0001437153
	0.0002304348	0.0001494523	-0.005919671	-0.0878213	0.0002253121	0.0001437154	0.03540202	-0.01563447
3e+08	0.08759809	0.008352993	0.0004455288	-3.224265e-05	0.01442879	-0.01063033	0.0004453175	-3.686874e-05
	0.0004455288	-3.224265e-05	0.06320104	-0.002484277	0.0004398066	-3.82061e-05	-0.008671932	-0.02751622
	0.01442882	-0.01063034	0.0004398065	-3.820616e-05	0.08794046	0.008765999	0.0004395546	-4.278688e-05
	0.0004453174	-3.68688e-05	-0.008671894	-0.02751623	0.0004395546	-4.278688e-05	0.06373895	-0.002423169
3.1e+08	0.1130949	-0.03315459	0.0003408928	-0.0002878769	0.07760351	-0.01437994	0.0003320765	-0.0002920043
	0.0003408928	-0.0002878769	0.08561426	-0.02781887	0.0003344155	-0.0002936251	0.0472623	-0.0102911
	0.07760352	-0.01437994	0.0003344155	-0.0002936251	0.1136397	-0.0333351	0.000325509	-0.0002974523
	0.0003320765	-0.0002920043	0.04726231	-0.01029111	0.000325509	-0.0002974523	0.08612118	-0.02779511
3.2e+08	0.08376417	-0.07089866	8.920784e-05	-0.0002798046	0.09272733	-0.07777311	7.837176e-05	-0.0002756758
	8.920784e-05	-0.0002798046	0.06941293	-0.05784235	8.227444e-05	-0.0002855385	0.07922113	-0.06059577
	0.09272734	-0.0777731	8.227446e-05	-0.0002855385	0.08380966	-0.0714681	7.159651e-05	-0.000280976
	7.837178e-05	-0.0002756758	0.07922114	-0.06059577	7.159651e-05	-0.000280976	0.06991783	-0.05780414
3.3e+08	0.04112358	-0.05658483	1.711301e-05	-4.639946e-05	0.03647262	-0.1133774	1.318002e-05	-3.733409e-05
	1.711301e-05	-4.639946e-05	0.03771102	-0.05332129	9.116459e-06	-5.189897e-05	0.04039871	-0.1081724
	0.03647262	-0.1133774	9.11646e-06	-5.1899e-05	0.0406166	-0.0567888	5.545472e-06	-4.258091e-05
	1.318003e-05	-3.733413e-05	0.04039871	-0.1081724	5.545472e-06	-4.258091e-05	0.03825069	-0.05327432
3.4e+08	0.04432033	-0.01213859	0.0002463531	9.322514e-05	-0.01354403	-0.07126907	0.0002499564	9.709382e-05
	0.0002463531	9.322514e-05	0.033557	-0.02319845	0.0002380497	8.850519e-05	-0.01697191	-0.08750834
	-0.01354404	-0.07126906	0.0002380497	8.850521e-05	0.04402526	-0.01167395	0.0002419234	9.23923e-05
	0.0002499564	9.709384e-05	-0.01697192	-0.08750834	0.0002419234	9.239231e-05	0.03416584	-0.02317494
3.5e+08	0.09181386	-0.004649437	0.0004540378	-0.0001196459	0.01365566	-0.01457788	0.0004539827	-0.0001251883
	0.0004540378	-0.0001196459	0.06325006	-0.01189834	0.0004453575	-0.0001245151	-0.01437939	-0.02932039
	0.01365565	-0.01457786	0.0004453575	-0.0001245151	0.09223627	-0.004223225	0.000445317	-0.0001300137
	0.0004539827	-0.0001251883	-0.01437941	-0.02932038	0.000445317	-0.0001300137	0.06388958	-0.0119718
3.6e+08	0.1145255	-0.05078511	0.0003110289	-0.0003759334	0.07473928	-0.02723837	0.0003006485	-0.0003797549
	0.0003110289	-0.0003759334	0.08405368	-0.03951866	0.0003014411	-0.0003802901	0.040662	-0.01764309
	0.07473928	-0.02723834	0.0003014411	-0.0003802901	0.1151131	-0.05104902	0.0002910385	-0.0003837786
	0.0003006485	-0.0003797549	0.04066199	-0.01764308	0.0002910385	-0.0003837786	0.08463591	-0.03964237
3.7e+08	0.08004693	-0.08813808	4.738006e-05	-0.0003376254	0.08065145	-0.09129034	3.574776e-05	-0.000331353
	4.738007e-05	-0.0003376254	0.06509886	-0.0692485	3.745784e-05	-0.0003416134	0.06674023	-0.0685439
	0.08065144	-0.09129031	3.745784e-05	-0.0003416134	0.08003881	-0.08878681	2.609697e-05	-0.0003348808
	3.574776e-05	-0.0003313531	0.06674021	-0.06854388	2.609696e-05	-0.0003348808	0.06566556	-0.06934774
3.8e+08	0.03585611	-0.06986563	-5.809168e-06	-8.714447e-05	0.02066323	-0.1185408	-8.698076e-06	-7.602392e-05
	-5.809168e-06	-8.714447e-05	0.03254291	-0.06263854	-1.670086e-05	-9.066307e-05	0.02522064	-0.1105638
	0.02066322	-0.1185408	-1.670084e-05	-9.066305e-05	0.03526318	-0.07005809	-1.910294e-05	-7.930982e-05
	-8.698067e-06	-7.602389e-05	0.02522062	-0.1105638	-1.910295e-05	-7.930982e-05	0.03314866	-0.06272637
3.9e+08	0.04198643	-0.02345819	0.0002448151	3.832784e-05	-0.02275194	-0.07035237	0.0002501572	4.250987e-05
	0.0002448151	3.832784e-05	0.02970815	-0.0315554	0.0002338279	3.585653e-05	-0.02801992	-0.08544965
	-0.02275194	-0.07035232	0.0002338279	3.585655e-05	0.04168837	-0.02291921	0.0002395339	4.00096e-05
	0.0002501573	4.250989e-05	-0.02801993	-0.08544962	0.0002395339	4.000961e-05	0.03039004	-0.03167759
4e+08	0.0918804	-0.01908187	0.0004403563	-0.0002055252	0.01195369	-0.01849212	0.0004404136	-0.0002120949
	0.0004403563	-0.0002055252	0.06033198	-0.02160131	0.0004290941	-0.0002081536	-0.02026677	-0.02972774
	0.01195371	-0.01849208	0.0004290942	-0.0002081536	0.0923814	-0.01865445	0.0004292257	-0.0002147109
	0.0004404137	-0.000212095	-0.02026677	-0.0297277	0.0004292257	-0.0002147109	0.06103827	-0.02184709
4.1e+08	0.1118446	-0.06907353	0.0002600475	-0.0004577517	0.07006316	-0.03972803	0.0002480856	-0.0004611725
	0.0002600475	-0.0004577517	0.0798456	-0.05087603	0.0002477552	-0.0004595558	0.03354797	-0.02350532
	0.07006317	-0.039728	0.0002477552	-0.0004595559	0.1124566	-0.06942639	0.0002358439	-0.0004626357
	0.0002480856	-0.0004611726	0.03354797	-0.02350529	0.0002358439	-0.0004626357	0.08046269	-0.05118311
4.2e+08	0.07268022	-0.1057943	-1.106715e-05	-0.0003878777	0.06679501	-0.1034578	-2.329118e-05	-0.0003793617
	-1.106715e-05	-0.0003878777	0.05865092	-0.08037763	-2.343691e-05	-0.0003889311	0.0537671	-0.07459724
	0.06679502	-0.1034577	-2.343692e-05	-0.0003889311	0.07260365	-0.1065094	-3.5267e-05	-0.0003799554
	-2.329119e-05	-0.0003793618	0.05376709	-0.07459721	-3.526701e-05	-0.0003799554	0.05923639	-0.08064425
4.3e+08	0.02702749	-0.08387127	-4.380466e-05	-0.0001235983	0.003986429	-0.1220993	-4.542248e-05	-0.0001105417
	-4.380466e-05	-0.0001235983	0.02517618	-0.07210348	-5.692238e-05	-0.0001240346	0.01000589	-0.1109156
	0.003986438	-0.1220993	-5.692234e-05	-0.0001240346	0.02635072	-0.08403899	-5.792197e-05	-0.0001107992
	-4.542243e-05	-0.0001105417	0.01000588	-0.1109156	-5.792197e-05	-0.0001107992	0.02580648	-0.07235384
4.4e+08	0.03556584	-0.03556007	0.000225076	-1.314596e-05	-0.03237672	-0.06857605	0.0002321975	-8.819351e-06
	0.000225076	-1.314596e-05	0.02310339	-0.04003369	0.0002121214	-1.233726e-05	-0.03879353	-0.08169692
	-0.03237669	-0.06857602	0.0002121215	-1.23373e-05	0.03527149	-0.03494688	0.0002196995	-8.121141e-06
	0.0002321976	-8.819378e-06	-0.03879353	-0.08169689	0.0002196995	-8.121132e-06	0.02381479	-0.04032963
4.5e+08	0.08745771	-0.03374698	0.0004065233	-0.0002852819	0.009266393	-0.02217166	0.0004066179	-0.000292941
	0.0004065233	-0.0002852819	0.05441123	-0.03081363	0.0003934418	-0.0002846992	-0.02604168	-0.02878522
	0.00926642	-0.02217164	0.0003934418	-0.0002846993	0.08803392	-0.03332822	0.0003936659	-0.0002924069
	0.0004066179	-0.0002929411	-0.02604166	-0.02878519	0.0003936659	-0.0002924069	0.05513748	-0.03125854
4.6e+08	0.1047871	-0.08699173	0.0001894497	-0.0005294565	0.0635724	-0.0516224	0.0001758667	-0.0005323449
	0.0001894497	-0.0005294565	0.07300022	-0.06127808	0.0001752354	-0.0005277372	0.02622679	-0.0279567
	0.06357242	-0.05162239	0.0001752354	-0.0005277373	0.1054055	-0.0874352	0.0001617745	-0.0005303021
	0.0001758667	-0.0005323449	0.0262268	-0.02795668	0.0001617745	-0.0005303021	0.07360059	-0.06179242
4.7e+08	0.06128384	-0.122867	-8.508231e-05	-0.0004263106	0.05119787	-0.1140773	-9.771301e-05	-0.0004154158
	-8.508231e-05	-0.0004263106	0.04995381	-0.09066075	-9.898309e-05	-0.0004234535	0.04058837	-0.0788732
	0.05119787	-0.1140773	-9.898313e-05	-0.0004234534	0.0611266	-0.1236328	-0.0001110945	-0.0004121299
	-9.771305e-05	-0.0004154158	0.04058837	-0.07887319	-0.0001110945	-0.0004121299	0.05050484	-0.09111183
4.8e+08	0.01422492	-0.09743461	-9.548778e-05	-0.0001510401	-0.01353447	-0.1239019	-9.562594e-05	-0.0001361342
	-9.548778e-05	-0.0001510402	0.01543999	-0.08100545	-0.0001097999	-0.0001475458	-0.004997937	-0.1093544
	-0.01353446	-0.1239019	-0.0001097999	-0.0001475458	0.01346922	-0.09756422	-0.0001091913	-0.0001325521
	-9.562591e-05	-0.0001361342	-0.004997929	-0.1093544	-0.0001091913	-0.0001325521	0.01604422	-0.08143293
