!
!4 port subset of full cascaded channels using these ports:11 37 12 38
# Hz S RI R 50
0	0.01088914	0.000278123	-1.555184e-06	9.972116e-10	0.002142372	9.190459e-05	-3.958857e-06	1.895728e-09
	-1.555155e-06	1.000388e-09	0.0125608	0.0002809536	2.158474e-07	2.831687e-10	0.001829216	9.423245e-05
	0.00214631	9.279061e-05	2.158344e-07	2.825009e-10	0.01238346	0.0002803023	-1.525856e-06	9.961646e-10
	-3.958863e-06	1.895456e-09	0.001824681	9.264004e-05	-1.525837e-06	9.947107e-10	0.01132659	0.0002815991
1e+07	0.05652285	0.02742041	6.325867e-06	6.695275e-06	0.05187891	0.06111669	-7.663536e-06	-4.192957e-06
	6.325866e-06	6.695275e-06	0.056522	0.02739839	1.782588e-05	1.551285e-05	0.05187301	0.06112049
	0.05187891	0.06111669	1.782587e-05	1.551285e-05	0.05652183	0.02739415	6.454281e-06	6.760167e-06
	-7.663536e-06	-4.192957e-06	0.05187301	0.06112049	6.454281e-06	6.760167e-06	0.0565222	0.02741793
2e+07	0.07960037	-0.003286826	1.750614e-05	-7.913034e-08	0.1239541	0.02847507	-1.462618e-05	-2.488466e-06
	1.75057e-05	-7.943931e-08	0.07957881	-0.003323726	4.306269e-05	1.583273e-06	0.1239422	0.02848668
	0.1239636	0.02848239	4.306266e-05	1.58323e-06	0.07958816	-0.003296362	1.780236e-05	-1.761608e-07
	-1.462634e-05	-2.488522e-06	0.1239616	0.02849013	1.780187e-05	-1.764455e-07	0.07959721	-0.003331237
3e+07	0.05683948	-0.03196017	1.905904e-05	-1.850309e-05	0.1160842	-0.05048848	-2.216657e-05	5.886243e-06
	1.905904e-05	-1.85031e-05	0.05682364	-0.03197383	5.215659e-05	-3.715154e-05	0.1161152	-0.05043873
	0.1160842	-0.05048861	5.215659e-05	-3.715154e-05	0.05683127	-0.03202557	1.923096e-05	-1.898153e-05
	-2.216658e-05	5.886238e-06	0.1161151	-0.05043855	1.923095e-05	-1.898154e-05	0.05683462	-0.03192482
4e+07	0.02342795	-0.01871512	2.695048e-07	-3.704351e-05	0.04058203	-0.06782936	-2.283197e-05	2.339109e-05
	2.692791e-07	-3.704308e-05	0.02346405	-0.01871821	2.077277e-05	-8.582863e-05	0.04066238	-0.06779856
	0.04058473	-0.06782723	2.077294e-05	-8.582832e-05	0.02341867	-0.01881014	-8.72907e-08	-3.762305e-05
	-2.283198e-05	2.339127e-05	0.04066487	-0.06779919	-8.745978e-08	-3.762265e-05	0.02347956	-0.01865687
5e+07	0.02743469	0.01630962	-3.437461e-05	-3.277395e-05	0.004987929	-0.002596402	-8.732706e-06	4.126996e-05
	-3.4374e-05	-3.277358e-05	0.02753249	0.01624758	-5.520618e-05	-9.511266e-05	0.005075377	-0.00262298
	0.004988637	-0.002597062	-5.520572e-05	-9.511263e-05	0.0274083	0.016183	-3.51593e-05	-3.296475e-05
	-8.732293e-06	4.126999e-05	0.005075468	-0.002623729	-3.51587e-05	-3.296439e-05	0.02755108	0.01632738
6e+07	0.06098603	0.02060125	-5.67232e-05	2.221293e-06	0.05873442	0.04667576	1.67449e-05	5.047308e-05
	-5.672292e-05	2.220666e-06	0.06106162	0.02044568	-0.0001188117	-3.653722e-05	0.05876669	0.04663608
	0.05873388	0.04667696	-0.0001188113	-3.653743e-05	0.06093599	0.02045649	-5.763882e-05	2.615807e-06
	1.674477e-05	5.04724e-05	0.05876666	0.04663605	-5.763853e-05	2.61509e-06	0.06108605	0.02054338
7e+07	0.07289607	-0.008837677	-4.613202e-05	4.77106e-05	0.1218732	0.008037073	5.325639e-05	4.53895e-05
	-4.613238e-05	4.771072e-05	0.07288082	-0.008985872	-0.0001259625	5.17755e-05	0.1218816	0.008078562
	0.1218734	0.008037808	-0.0001259624	5.177545e-05	0.07282814	-0.008987686	-4.677198e-05	4.891842e-05
	5.325611e-05	4.538982e-05	0.1218817	0.008077656	-4.677246e-05	4.891852e-05	0.07291924	-0.008870437
8e+07	0.04912354	-0.02720477	-1.265627e-07	7.856392e-05	0.1057029	-0.06518714	9.327838e-05	7.752153e-06
	-1.267019e-07	7.856394e-05	0.04913164	-0.02722787	-7.466359e-05	0.0001345732	0.105817	-0.06505773
	0.1057023	-0.06518626	-7.466319e-05	0.0001345736	0.0490582	-0.02736395	4.081871e-07	8.030872e-05
	9.327837e-05	7.752055e-06	0.1058158	-0.06505827	4.079552e-07	8.030884e-05	0.04918244	-0.02710248
9e+07	0.02561384	-0.009033396	6.416151e-05	6.281283e-05	0.03258237	-0.07362824	9.569635e-05	-6.942235e-05
	6.416133e-05	6.281349e-05	0.0258254	-0.009030967	3.604221e-05	0.0001702033	0.03287269	-0.07355846
	0.03258223	-0.07362729	3.604309e-05	0.0001702031	0.02554495	-0.009229504	6.61173e-05	6.376465e-05
	9.569635e-05	-6.942223e-05	0.03287165	-0.07355811	6.611717e-05	6.376539e-05	0.0258888	-0.008891984
1e+08	0.0382399	0.01888988	9.680455e-05	8.174187e-07	0.005198133	-0.008424048	2.983374e-05	-0.0001298286
	9.68051e-05	8.176326e-07	0.03860933	0.01867449	0.000152411	0.000110818	0.005526891	-0.008557371
	0.005198135	-0.008423857	0.0001524113	0.0001108178	0.03813874	0.01865779	9.903215e-05	1.292169e-07
	2.983401e-05	-0.0001298288	0.005526813	-0.008556836	9.903274e-05	1.293823e-07	0.03868586	0.01882216
1.1e+08	0.0690056	0.01348652	8.084873e-05	-6.750938e-05	0.06068339	0.03331237	-5.535853e-05	-0.0001320747
	8.084889e-05	-6.751004e-05	0.06927872	0.01303699	0.0001965188	-1.67994e-05	0.06084088	0.03308274
	0.06068367	0.03331237	0.0001965184	-1.680002e-05	0.06885871	0.01324108	8.236793e-05	-6.952373e-05
	-5.536205e-05	-0.0001320774	0.06084066	0.03308201	8.236564e-05	-6.952548e-05	0.06936802	0.01319926
1.2e+08	0.07251752	-0.01665654	2.139622e-05	-0.0001193251	0.1171089	-0.009332279	-0.0001371443	-9.504146e-05
	2.139565e-05	-0.0001193259	0.07252259	-0.01706247	0.0001486539	-0.000144104	0.1171426	-0.00939195
	0.1171093	-0.009332414	0.0001486533	-0.0001441036	0.07234311	-0.01689151	2.150412e-05	-0.0001223874
	-0.0001371515	-9.504081e-05	0.1171411	-0.009392404	2.149931e-05	-0.0001223873	0.07263438	-0.01689065
1.3e+08	0.04611147	-0.02820079	-7.903657e-05	-0.0001194166	0.09468335	-0.07773904	-0.0002091812	7.820309e-06
	-7.903831e-05	-0.0001194168	0.0461505	-0.028269	2.335327e-05	-0.0002214933	0.0949047	-0.07758094
	0.09468359	-0.07773917	2.335444e-05	-0.0002214924	0.04593648	-0.02843592	-8.144514e-05	-0.0001223947
	-0.0002091876	7.827037e-06	0.09490317	-0.0775803	-8.145068e-05	-0.0001223906	0.04627721	-0.02809263
1.4e+08	0.0284382	-0.005854471	-0.0001556219	-2.475037e-05	0.02385084	-0.0790287	-0.0001762038	0.0001787068
	-0.0001556229	-2.474748e-05	0.02895203	-0.005853423	-0.0001367985	-0.0001897636	0.02444058	-0.07897633
	0.02385114	-0.07902881	-0.0001367969	-0.000189766	0.02825431	-0.006120461	-0.0001600012	-2.522729e-05
	-0.0001762039	0.0001787182	0.02443985	-0.0789754	-0.0001600031	-2.521792e-05	0.02909747	-0.005666135
1.5e+08	0.04696173	0.01762083	-0.0001256011	8.992396e-05	0.003313298	-0.01419441	-2.011939e-06	0.0002636332
	-0.0001255982	8.992543e-05	0.04779246	0.017108	-0.0002286492	-5.56291e-05	0.003986858	-0.01457234
	0.003313676	-0.01419458	-0.0002286515	-5.563123e-05	0.04673732	0.01732261	-0.0001292582	9.264508e-05
	-2.002851e-06	0.0002636411	0.003986463	-0.01457183	-0.0001292515	9.265329e-05	0.04795956	0.01729657
1.6e+08	0.07575113	0.005405558	-4.741621e-05	0.0001452451	0.05988492	0.02103673	0.0001537941	0.0002061674
	-4.741414e-05	0.0001452435	0.0762151	0.004366587	-0.0002181288	9.951073e-05	0.06019596	0.02042486
	0.05988522	0.02103642	-0.0002181309	9.951177e-05	0.07546401	0.005099841	-4.878092e-05	0.0001496585
	0.0001538052	0.0002061665	0.06019531	0.02042524	-4.87713e-05	0.0001496588	0.07639612	0.004559153
1.7e+08	0.07299508	-0.02527332	5.008198e-05	0.0001675185	0.1101829	-0.02468862	0.0002574865	0.0001057061
	5.008236e-05	0.0001675165	0.07288036	-0.02611139	-0.0001157682	0.0002261329	0.1101967	-0.02500108
	0.110183	-0.02468895	-0.0001157686	0.0002261343	0.07265832	-0.02554181	5.152531e-05	0.0001725423
	0.0002574938	0.0001056988	0.110196	-0.02500037	5.153173e-05	0.0001725372	0.07308057	-0.0259122
1.8e+08	0.04450995	-0.03171609	0.0001827395	0.0001112004	0.08248183	-0.08838296	0.0003333453	-7.863402e-05
	0.0001827391	0.0001111985	0.04452703	-0.03192101	6.658498e-05	0.0002646271	0.08278247	-0.08828278
	0.08248189	-0.08838319	6.658498e-05	0.0002646281	0.04418174	-0.03195126	0.0001879008	0.0001148544
	0.0003333463	-7.864404e-05	0.08278216	-0.08828186	0.0001879028	0.000114847	0.04474688	-0.03171346
1.9e+08	0.0311424	-0.006295776	0.0002277779	-7.191483e-05	0.01412643	-0.08332477	0.0002203809	-0.0003425317
	0.0002277761	-7.191665e-05	0.03196353	-0.006485686	0.000233063	0.0001468455	0.01505032	-0.08339344
	0.01412652	-0.08332496	0.0002330637	0.0001468469	0.03082517	-0.006558776	0.0002348786	-7.297547e-05
	0.0002203749	-0.0003425399	0.01505037	-0.08339272	0.0002348754	-7.298246e-05	0.03221937	-0.006271395
2e+08	0.05392935	0.0137115	9.56252e-05	-0.0002035186	-0.0001873043	-0.01914913	-9.624729e-05	-0.0004059001
	9.562218e-05	-0.0002035183	0.05512665	0.01263254	0.0002556964	-3.524914e-05	0.000858713	-0.01995562
	-0.0001872298	-0.01914938	0.0002556982	-3.524886e-05	0.05356831	0.01340518	0.0001001606	-0.0002092457
	-9.625704e-05	-0.0004059013	0.0008587892	-0.01995518	0.0001001534	-0.000209248	0.05541306	0.01282615
2.1e+08	0.08093485	-0.003670984	-3.634988e-05	-0.0001971823	0.05702948	0.01006036	-0.0003019047	-0.0002354202
	-3.635131e-05	-0.00019718	0.08142952	-0.005491717	0.0001882112	-0.0001725288	0.05743753	0.008854677
	0.05702946	0.01006014	0.0001882122	-0.0001725301	0.08048848	-0.003981623	-3.614675e-05	-0.0002042897
	-0.0003019113	-0.0002354146	0.05743752	0.008855051	-3.61523e-05	-0.0002042863	0.08172035	-0.005308192
2.2e+08	0.07325049	-0.03459859	-0.0001404949	-0.0001704581	0.1014485	-0.03807824	-0.0003841637	-5.769894e-05
	-0.0001404944	-0.0001704562	0.0728553	-0.03599824	5.307128e-05	-0.0002739955	0.101327	-0.03879943
	0.1014485	-0.0380784	5.307096e-05	-0.0002739965	0.07273749	-0.03484261	-0.0001443658	-0.0001770624
	-0.0003841646	-5.769183e-05	0.101327	-0.038799	-0.0001443672	-0.0001770575	0.07316128	-0.03580758
2.3e+08	0.04322989	-0.03709671	-0.0002762263	-5.578071e-05	0.06919446	-0.0969622	-0.0004303211	0.0001992262
	-0.0002762252	-5.577966e-05	0.04309101	-0.03752486	-0.0001609184	-0.0002626062	0.06948249	-0.0970182
	0.06919441	-0.09696229	-0.0001609188	-0.0002626066	0.04273854	-0.03727611	-0.0002846079	-5.932972e-05
	-0.0004303178	0.0001992313	0.06948268	-0.09701784	-0.0002846063	-5.93259e-05	0.04342322	-0.0373259
2.4e+08	0.03312106	-0.009514701	-0.0002577218	0.0002012545	0.003632479	-0.08610696	-0.000207419	0.0005317537
	-0.0002577203	0.0002012549	0.03416883	-0.00998465	-0.0003000304	-6.451434e-05	0.004847794	-0.08641281
	0.003632453	-0.08610704	-0.000300031	-6.451472e-05	0.03266109	-0.009718117	-0.000267458	0.0002047962
	-0.0002074136	0.0005317553	0.00484801	-0.08641261	-0.0002674547	0.0002047981	0.03455057	-0.009788555
2.5e+08	0.05888884	0.007712343	-9.84004e-06	0.0003080763	-0.00483702	-0.02293531	0.0002586146	0.0005239043
	-9.838659e-06	0.0003080754	0.060385	0.005910548	-0.0002334465	0.0001307393	-0.003476359	-0.02435
	-0.004837066	-0.02293539	-0.0002334472	0.0001307396	0.05838601	0.007458089	-1.452994e-05	0.0003175095
	0.000258619	0.0005239019	-0.003476198	-0.0243499	-1.452657e-05	0.0003175085	0.06080038	0.006061684
2.6e+08	0.08427872	-0.01352032	0.0001492926	0.0002046363	0.05261825	0.0005589183	0.0004757053	0.0002021819
	0.0001492926	0.0002046349	0.08465969	-0.01632662	-0.0001252312	0.0002161944	0.05298757	-0.001435662
	0.05261819	0.0005588654	-0.0001252313	0.000216195	0.08367434	-0.01377707	0.0001512614	0.0002144471
	0.0004757062	0.0002021779	0.05298767	-0.001435577	0.0001512625	0.0002144445	0.0850645	-0.0161992
2.7e+08	0.07276713	-0.04452948	0.0002239654	0.0001270192	0.0913183	-0.04941705	0.0004892371	-4.781645e-05
	0.0002239646	0.0001270186	0.07186486	-0.04664099	1.539555e-05	0.0002842926	0.09087383	-0.05068384
	0.09131826	-0.04941707	1.539589e-05	0.0002842929	0.0720793	-0.04469295	0.000230967	0.0001345799
	0.0004892356	-4.781896e-05	0.09087393	-0.05068376	0.0002309662	0.000134578	0.07227797	-0.04650439
2.8e+08	0.04154962	-0.04406414	0.0003389514	-3.111331e-05	0.05514281	-0.1033709	0.0004792094	-0.0003502975
	0.0003389508	-3.111333e-05	0.04104704	-0.04478071	0.0002391975	0.0002279021	0.05525432	-0.1036635
	0.05514279	-0.103371	0.0002391977	0.000227902	0.04089608	-0.04412713	0.0003507302	-2.850467e-05
	0.0004792074	-0.0003502982	0.05525443	-0.1036634	0.000350729	-2.850538e-05	0.04149101	-0.04463619
2.9e+08	0.03375707	-0.01494022	0.000241957	-0.0003377247	-0.007306877	-0.08718374	0.0001362265	-0.0007178435
	0.0002419566	-0.0003377245	0.03489777	-0.01576601	0.0003319355	-3.421778e-05	-0.005919748	-0.08782131
	-0.007306893	-0.08718375	0.0003319356	-3.42178e-05	0.03316243	-0.01501801	0.0002540321	-0.0003445571
	0.0001362249	-0.0007178429	-0.005919671	-0.0878213	0.000254031	-0.000344557	0.03540202	-0.01563447
3e+08	0.0615512	0.0002041138	-0.0001172896	-0.0003849297	-0.01020894	-0.02534452	-0.00046711	-0.0005985362
	-0.0001172897	-0.0003849293	0.06320104	-0.002484277	0.0001732417	-0.0002124741	-0.008671932	-0.02751622
	-0.01020896	-0.02534453	0.0001732417	-0.0002124742	0.06092413	6.698956e-05	-0.000113255	-0.0003985943
	-0.0004671104	-0.000598535	-0.008671894	-0.02751623	-0.0001132555	-0.0003985937	0.06373895	-0.002423169
3.1e+08	0.08560169	-0.02384161	-0.0002710621	-0.0001636317	0.04714567	-0.007355259	-0.0006521574	-0.000103978
	-0.000271062	-0.0001636316	0.08561426	-0.02781887	4.712617e-05	-0.0002251157	0.0472623	-0.0102911
	0.04714566	-0.007355261	4.71261e-05	-0.0002251158	0.08486226	-0.0239849	-0.0002762255	-0.0001759645
	-0.0006521571	-0.0001039774	0.04726231	-0.01029111	-0.0002762254	-0.0001759641	0.08612118	-0.02779511
3.2e+08	0.07115013	-0.0549241	-0.0002832527	-4.560611e-05	0.08024685	-0.05869642	-0.0005539122	0.0001998714
	-0.0002832526	-4.560616e-05	0.06941293	-0.05784235	-7.367985e-05	-0.0002629983	0.07922113	-0.06059577
	0.08024685	-0.05869643	-7.367987e-05	-0.0002629982	0.0703096	-0.05495051	-0.0002939781	-5.330618e-05
	-0.0005539121	0.0001998715	0.07922114	-0.06059577	-0.000293978	-5.330611e-05	0.06991783	-0.05780414
3.3e+08	0.03886328	-0.0523101	-0.0003625063	0.0001320083	0.0406936	-0.1076142	-0.0004718001	0.0005110043
	-0.0003625064	0.0001320083	0.03771102	-0.05332129	-0.0002926227	-0.0001750219	0.04039871	-0.1081724
	0.04069361	-0.1076142	-0.0002926226	-0.0001750219	0.03807099	-0.05219582	-0.0003776358	0.0001312472
	-0.0004718004	0.0005110043	0.04039871	-0.1081724	-0.0003776359	0.0001312472	0.03825069	-0.05327432
3.4e+08	0.03253863	-0.02198997	-0.0001865238	0.0004626935	-0.0183441	-0.08649775	-1.548136e-05	0.0008796516
	-0.0001865239	0.0004626937	0.033557	-0.02319845	-0.0003324204	0.0001327765	-0.01697191	-0.08750834
	-0.0183441	-0.08649776	-0.0003324205	0.0001327764	0.03184198	-0.02187906	-0.0002004454	0.00047354
	-1.548161e-05	0.000879652	-0.01697192	-0.08750834	-0.0002004455	0.0004735402	0.03416584	-0.02317494
3.5e+08	0.06169064	-0.008221886	0.0002697575	0.0004257914	-0.01588512	-0.02630474	0.0007022766	0.0006215146
	0.0002697576	0.0004257917	0.06325006	-0.01189834	-8.809809e-05	0.0002720838	-0.01437939	-0.02932039
	-0.01588511	-0.02630474	-8.809807e-05	0.0002720836	0.06098038	-0.008183627	0.0002672942	0.0004440545
	0.0007022769	0.0006215154	-0.01437941	-0.02932038	0.0002672943	0.000444055	0.06388958	-0.0119718
3.6e+08	0.08475893	-0.03427798	0.0003861343	7.761312e-05	0.04107686	-0.01368772	0.000813328	-5.387147e-05
	0.0003861347	7.761319e-05	0.08405368	-0.03951866	3.27196e-05	0.0002010455	0.040662	-0.01764309
	0.04107686	-0.01368773	3.271948e-05	0.0002010455	0.08392914	-0.03425626	0.0003955311	9.208553e-05
	0.000813329	-5.387119e-05	0.04066199	-0.01764308	0.0003955317	9.20858e-05	0.08463591	-0.03964237
3.7e+08	0.06806863	-0.06553518	0.0003085479	-6.268329e-05	0.06865958	-0.066006	0.0005673595	-0.0003846721
	0.0003085481	-6.268353e-05	0.06509886	-0.0692485	0.0001128204	0.000218689	0.06674023	-0.0685439
	0.06865959	-0.06600601	0.0001128203	0.0002186891	0.06711912	-0.06537701	0.0003234656	-5.585678e-05
	0.0005673604	-0.0003846725	0.06674021	-0.06854388	0.0003234662	-5.585696e-05	0.06566556	-0.06934774
3.8e+08	0.03468632	-0.06142569	0.0003456929	-0.0002319459	0.02619837	-0.1097912	0.0004075507	-0.000663323
	0.0003456929	-0.0002319462	0.03254291	-0.06263854	0.0003192069	0.0001162104	0.02522064	-0.1105638
	0.02619837	-0.1097912	0.0003192068	0.0001162105	0.03379998	-0.06108424	0.0003638826	-0.000234001
	0.0004075511	-0.0006633239	0.02522062	-0.1105638	0.000363883	-0.0002340015	0.03314866	-0.06272637
3.9e+08	0.02908708	-0.03003455	0.0001008218	-0.0005639378	-0.02914425	-0.08410625	-0.0001426661	-0.001002882
	0.0001008216	-0.0005639382	0.02970815	-0.0315554	0.0003083697	-0.000220598	-0.02801992	-0.08544965
	-0.02914424	-0.08410626	0.0003083697	-0.0002205979	0.02834143	-0.02968483	0.0001158891	-0.000579402
	-0.0001426664	-0.001002883	-0.02801993	-0.08544962	0.000115889	-0.0005794027	0.03039004	-0.03167759
4e+08	0.05916966	-0.01694727	-0.0004332806	-0.0004285331	-0.0214877	-0.0258707	-0.0009464892	-0.000591091
	-0.0004332811	-0.0004285332	0.06033198	-0.02160131	-1.059242e-05	-0.0003070052	-0.02026677	-0.02972774
	-0.0214877	-0.02587071	-1.059231e-05	-0.0003070052	0.05843595	-0.01668993	-0.0004333887	-0.0004515645
	-0.0009464904	-0.0005910915	-0.02026677	-0.0297277	-0.0004333893	-0.0004515649	0.06103827	-0.02184709
4.1e+08	0.08166724	-0.04440935	-0.0004834162	4.681278e-05	0.03481159	-0.01855236	-0.0009459822	0.0002625836
	-0.0004834165	4.681309e-05	0.0798456	-0.05087603	-0.000105098	-0.0001486336	0.03354797	-0.02350532
	0.03481159	-0.01855237	-0.0001050978	-0.0001486337	0.08080924	-0.04418606	-0.0004980561	3.07937e-05
	-0.0009459832	0.0002625842	0.03354797	-0.02350529	-0.0004980567	3.079394e-05	0.08046269	-0.05118311
4.2e+08	0.06327864	-0.07601386	-0.0002950534	0.0001867018	0.05691783	-0.0715194	-0.0005242396	0.000588276
	-0.0002950533	0.0001867022	0.05865092	-0.08037763	-0.000128452	-0.0001599046	0.0537671	-0.07459724
	0.05691783	-0.07151941	-0.0001284519	-0.0001599047	0.06228101	-0.0756399	-0.0003144718	0.0001819365
	-0.0005242399	0.0005882769	0.05376709	-0.07459721	-0.0003144721	0.000181937	0.05923639	-0.08064425
4.3e+08	0.02866996	-0.07090742	-0.000291213	0.0003190524	0.01195963	-0.1100816	-0.0002902271	0.0007926139
	-0.0002912128	0.0003190526	0.02517618	-0.07210348	-0.0003204829	-6.086733e-05	0.01000589	-0.1109156
	0.01195962	-0.1100816	-0.0003204829	-6.08674e-05	0.02774994	-0.07030684	-0.0003119096	0.0003249206
	-0.0002902269	0.0007926147	0.01000588	-0.1109156	-0.0003119096	0.0003249211	0.02580648	-0.07235384
4.4e+08	0.02317277	-0.03839623	5.030031e-06	0.0006338507	-0.03942186	-0.0801625	0.0003252613	0.001078262
	5.030212e-06	0.0006338508	0.02310339	-0.04003369	-0.0002672685	0.0002913533	-0.03879353	-0.08169692
	-0.03942186	-0.08016251	-0.0002672684	0.0002913532	0.02244531	-0.03777627	-1.027551e-05	0.00065437
	0.000325262	0.001078263	-0.03879353	-0.08169689	-1.027522e-05	0.0006543705	0.02381479	-0.04032963
4.5e+08	0.05396751	-0.02532779	0.0005957637	0.0003944925	-0.0267118	-0.02419748	0.001184412	0.0005093275
	0.0005957639	0.0003944924	0.05441123	-0.03081363	0.0001135357	0.0003177822	-0.02604168	-0.02878522
	-0.02671179	-0.02419748	0.0001135357	0.0003177821	0.05328295	-0.02482716	0.0005994879	0.0004222274
	0.001184412	0.0005093272	-0.02604166	-0.02878519	0.0005994884	0.0004222274	0.05513748	-0.03125854
4.6e+08	0.07633781	-0.0537683	0.0005551134	-0.0002017502	0.02865937	-0.02214426	0.001040439	-0.0005118052
	0.0005551134	-0.0002017505	0.07300022	-0.06127808	0.0001638272	7.354512e-05	0.02622679	-0.0279567
	0.02865936	-0.02214427	0.0001638272	7.354522e-05	0.07552547	-0.05332683	0.0005759225	-0.0001849855
	0.001040439	-0.0005118058	0.0262268	-0.02795668	0.0005759227	-0.0001849859	0.07360059	-0.06179242
4.7e+08	0.05664741	-0.08593642	0.0002412764	-0.0003159838	0.04529679	-0.07547152	0.0004229744	-0.0007973238
	0.0002412764	-0.0003159838	0.04995381	-0.09066075	0.00011908	9.442948e-05	0.04058837	-0.0788732
	0.04529678	-0.07547153	0.00011908	9.442949e-05	0.05567343	-0.08533641	0.0002653088	-0.0003146073
	0.0004229742	-0.0007973242	0.04058837	-0.07887319	0.0002653088	-0.0003146076	0.05050484	-0.09111183
4.8e+08	0.02061613	-0.08018216	0.0002039822	-0.0003841319	-0.001795397	-0.108724	0.0001262184	-0.0008872086
	0.0002039821	-0.000384132	0.01543999	-0.08100545	0.0002998079	1.598282e-05	-0.004997937	-0.1093544
	-0.001795404	-0.108724	0.0002998079	1.598285e-05	0.01973186	-0.07931267	0.0002263601	-0.000394796
