!
!4 port subset of full cascaded channels using these ports:51 37 52 38
# Hz S RI R 50
0	0.01259089	0.0002779367	2.401013e-06	-1.356881e-09	0.002053234	9.193011e-05	2.390035e-06	-1.328431e-09
	2.401011e-06	-1.360642e-09	0.0125608	0.0002809536	2.444247e-06	-1.388101e-09	0.001829216	9.423245e-05
	0.00204946	9.281643e-05	2.444274e-06	-1.387038e-09	0.01122728	0.0002804174	2.420303e-06	-1.359073e-09
	2.390062e-06	-1.327366e-09	0.001824681	9.264004e-05	2.420304e-06	-1.355269e-09	0.01132659	0.0002815991
1e+07	0.05729605	0.02796817	1.901007e-05	1.642148e-05	0.05268822	0.06168695	1.887998e-05	1.593041e-05
	1.901007e-05	1.642148e-05	0.056522	0.02739839	1.913024e-05	1.659849e-05	0.05187301	0.06112049
	0.05268822	0.06168695	1.913024e-05	1.659849e-05	0.05729431	0.02794303	1.897644e-05	1.610415e-05
	1.887998e-05	1.593041e-05	0.05187301	0.06112049	1.897644e-05	1.610415e-05	0.0565222	0.02741793
2e+07	0.08020898	-0.003533262	1.741632e-05	2.553548e-06	0.1247679	0.02798384	1.695093e-05	1.813582e-06
	1.741812e-05	2.553756e-06	0.07957881	-0.003323726	1.772797e-05	2.719089e-06	0.1239422	0.02848668
	0.1247911	0.02799258	1.772895e-05	2.717626e-06	0.08022179	-0.003604196	1.724561e-05	2.012344e-06
	1.695208e-05	1.812241e-06	0.1239616	0.02849013	1.724361e-05	2.012608e-06	0.07959721	-0.003331237
3e+07	0.05564583	-0.03170901	-1.918948e-05	1.801575e-05	0.1147755	-0.05087817	-1.972675e-05	1.729054e-05
	-1.918953e-05	1.801571e-05	0.05682364	-0.03197383	-1.889691e-05	1.80148e-05	0.1161152	-0.05043873
	0.1147757	-0.05087805	-1.889692e-05	1.801477e-05	0.05563716	-0.0317739	-1.939137e-05	1.731995e-05
	-1.972678e-05	1.729052e-05	0.1161151	-0.05043855	-1.939133e-05	1.732002e-05	0.05683462	-0.03192482
4e+07	0.02177746	-0.01535031	-1.99729e-05	8.910911e-05	0.03827356	-0.06485895	-2.027231e-05	8.808429e-05
	-1.997289e-05	8.910909e-05	0.02346405	-0.01871821	-1.992778e-05	8.921971e-05	0.04066238	-0.06779856
	0.03827602	-0.06485971	-1.992769e-05	8.921897e-05	0.02176737	-0.01544038	-2.016952e-05	8.814169e-05
	-2.027222e-05	8.808354e-05	0.04066487	-0.06779919	-2.016955e-05	8.81417e-05	0.02347956	-0.01865687
5e+07	0.02917331	0.02168129	6.254473e-05	0.0001249021	0.006285959	0.003032052	6.207915e-05	0.0001230418
	6.254472e-05	0.0001249021	0.02753249	0.01624758	6.271329e-05	0.000125527	0.005075377	-0.00262298
	0.006285951	0.003031205	6.271236e-05	0.0001255266	0.02914681	0.02155842	6.220905e-05	0.0001235655
	6.207822e-05	0.0001230414	0.005075468	-0.002623729	6.220906e-05	0.0001235655	0.02755108	0.01632738
6e+07	0.06561234	0.02321397	0.000119531	5.75324e-05	0.06380494	0.04936022	0.0001180193	5.523421e-05
	0.000119531	5.75324e-05	0.06106162	0.02044568	0.0001204904	5.825662e-05	0.05876669	0.04663608
	0.06380491	0.04936026	0.0001204903	5.82577e-05	0.06555337	0.02306981	0.0001188539	5.594965e-05
	0.0001180192	5.523529e-05	0.05876666	0.04663605	0.0001188539	5.594966e-05	0.06108605	0.02054338
7e+07	0.07526682	-0.009547664	6.530134e-05	-5.270721e-06	0.1247487	0.006201978	6.29589e-05	-6.848979e-06
	6.530134e-05	-5.270718e-06	0.07288082	-0.008985872	6.674241e-05	-5.37029e-06	0.1218816	0.008078562
	0.1247487	0.006201056	6.674243e-05	-5.370625e-06	0.07518501	-0.009687137	6.43467e-05	-6.838029e-06
	6.295892e-05	-6.849313e-06	0.1218817	0.008077656	6.434671e-05	-6.838028e-06	0.07291924	-0.008870437
8e+07	0.04701315	-0.02611297	-1.754754e-05	4.724632e-05	0.1027632	-0.06576947	-1.940914e-05	4.651033e-05
	-1.754754e-05	4.724632e-05	0.04913164	-0.02722787	-1.674644e-05	4.63466e-05	0.105817	-0.06505773
	0.1027621	-0.06576996	-1.674664e-05	4.634711e-05	0.04693636	-0.02625596	-1.851335e-05	4.56806e-05
	-1.940935e-05	4.651085e-05	0.1058158	-0.06505827	-1.851335e-05	4.568061e-05	0.04918244	-0.02710248
9e+07	0.02383802	-0.001747632	1.942e-05	0.0001714898	0.0289296	-0.06682862	1.864078e-05	0.0001701521
	1.941998e-05	0.0001714898	0.0258254	-0.009030967	1.917606e-05	0.0001710894	0.03287269	-0.07355846
	0.02892862	-0.06682827	1.917618e-05	0.0001710902	0.02376304	-0.001923979	1.849255e-05	0.0001696507
	1.86409e-05	0.0001701529	0.03287165	-0.07355811	1.849255e-05	0.0001696507	0.0258888	-0.008891984
1e+08	0.04335124	0.02823273	0.0001711955	0.0001770611	0.009365998	0.00184399	0.0001699021	0.0001738977
	0.0001711955	0.0001770612	0.03860933	0.01867449	0.000171391	0.0001780809	0.005526891	-0.008557371
	0.009365847	0.001844486	0.0001713919	0.0001780811	0.04324429	0.0280147	0.0001700107	0.0001747578
	0.000169903	0.0001738978	0.005526813	-0.008556836	0.0001700107	0.0001747578	0.03868586	0.01882216
1.1e+08	0.07826076	0.01694247	0.0002222451	3.762531e-05	0.07062248	0.03693514	0.000218567	3.416773e-05
	0.0002222457	3.762556e-05	0.06927872	0.01303699	0.0002243826	3.842165e-05	0.06084088	0.03308274
	0.07062261	0.03693504	0.0002243824	3.842106e-05	0.07806783	0.0167863	0.0002204254	3.506826e-05
	0.000218567	3.416729e-05	0.06084066	0.03308201	0.000220425	3.506813e-05	0.06936802	0.01319926
1.2e+08	0.0772083	-0.01829167	0.000111836	-4.071125e-05	0.1221886	-0.01301188	0.0001068784	-4.192359e-05
	0.0001118364	-4.071188e-05	0.07252259	-0.01706247	0.0001143751	-4.202561e-05	0.1171426	-0.00939195
	0.1221885	-0.01301198	0.0001143744	-4.202533e-05	0.07695961	-0.01842002	0.0001094489	-4.29141e-05
	0.000106878	-4.192304e-05	0.1171411	-0.009392404	0.0001094489	-4.291327e-05	0.07263438	-0.01689065
1.3e+08	0.04423513	-0.02630561	7.635635e-06	5.472259e-05	0.09074932	-0.07842079	4.387528e-06	5.542591e-05
	7.635048e-06	5.472199e-05	0.0461505	-0.028269	8.31077e-06	5.224967e-05	0.0949047	-0.07758094
	0.09074926	-0.07842055	8.311096e-06	5.225075e-05	0.04398802	-0.02643419	5.357495e-06	5.294425e-05
	4.388032e-06	5.542722e-05	0.09490317	-0.0775803	5.358243e-06	5.294505e-05	0.04627721	-0.02809263
1.4e+08	0.02830138	0.004808823	8.97678e-05	0.0002040808	0.02024117	-0.0686594	8.897675e-05	0.0002033584
	8.976735e-05	0.0002040813	0.02895203	-0.005853423	8.871377e-05	0.0002031109	0.02444058	-0.07897633
	0.02024151	-0.06865912	8.871473e-05	0.0002031106	0.02806162	0.004637221	8.788573e-05	0.000202051
	8.897838e-05	0.000203359	0.02443985	-0.0789754	8.788686e-05	0.0002020514	0.02909747	-0.005666135
1.5e+08	0.05691016	0.02953662	0.000280189	0.0001629377	0.01161507	-0.0004413085	0.0002782215	0.0001588603
	0.0002801895	0.0001629379	0.04779246	0.017108	0.0002804352	0.0001641813	0.003986858	-0.01457234
	0.01161557	-0.0004413461	0.000280435	0.0001641805	0.05664112	0.02931506	0.0002780218	0.0001600641
	0.0002782228	0.0001588597	0.003986463	-0.01457183	0.0002780228	0.0001600639	0.04795956	0.01729657
1.6e+08	0.089979	0.00808006	0.0003008597	-2.705819e-05	0.07511145	0.02425055	0.0002946963	-3.08652e-05
	0.00030086	-2.705861e-05	0.0762151	0.004366587	0.0003038872	-2.675218e-05	0.06019596	0.02042486
	0.07511174	0.02425032	0.0003038866	-2.675211e-05	0.0896451	0.007841139	0.0002975008	-3.012252e-05
	0.0002946966	-3.086569e-05	0.06019531	0.02042524	0.0002975013	-3.012273e-05	0.07639612	0.004559153
1.7e+08	0.07999606	-0.02892201	0.0001427778	-9.836242e-05	0.1175018	-0.03093557	0.0001353932	-9.796741e-05
	0.0001427775	-9.836283e-05	0.07288036	-0.02611139	0.0001458294	-0.0001012321	0.1101967	-0.02500108
	0.1175019	-0.03093569	0.0001458293	-0.0001012315	0.07961204	-0.02911245	0.0001387227	-0.0001005221
	0.0001353935	-9.796718e-05	0.110196	-0.02500037	0.0001387232	-0.000100522	0.07308057	-0.0259122
1.8e+08	0.04330148	-0.02986977	3.420499e-05	3.619846e-05	0.07806335	-0.08942601	3.028773e-05	3.916478e-05
	3.420458e-05	3.619853e-05	0.04452703	-0.03192101	3.423505e-05	3.195326e-05	0.08278247	-0.08828278
	0.07806355	-0.08942603	3.423558e-05	3.19535e-05	0.04294656	-0.03001409	3.057367e-05	3.475752e-05
	3.028863e-05	3.916506e-05	0.08278216	-0.08828186	3.05744e-05	3.475749e-05	0.04474688	-0.03171346
1.9e+08	0.03343653	0.006408273	0.0001571803	0.0001926912	0.01166229	-0.07005983	0.0001568726	0.0001928737
	0.0001571803	0.0001926915	0.03196353	-0.006485686	0.0001546924	0.0001909304	0.01505032	-0.08339344
	0.01166258	-0.07005995	0.0001546927	0.00019093	0.03311616	0.006228727	0.0001542167	0.0001908923
	0.0001568737	0.0001928732	0.01505037	-0.08339272	0.0001542174	0.000190892	0.03221937	-0.006271395
2e+08	0.06911851	0.02630972	0.0003638303	0.0001048794	0.013104	-0.003353912	0.0003612358	0.0001003325
	0.0003638306	0.0001048794	0.05512665	0.01263254	0.000363346	0.0001063983	0.000858713	-0.01995562
	0.01310419	-0.003354149	0.0003633458	0.000106398	0.06876052	0.02606924	0.0003604637	0.0001019838
	0.0003612363	0.0001003316	0.0008587892	-0.01995518	0.0003604642	0.0001019832	0.05541306	0.01282615
2.1e+08	0.100047	-0.003440277	0.0003457909	-0.0001155115	0.07761835	0.01137535	0.0003374193	-0.0001188449
	0.0003457909	-0.0001155118	0.08142952	-0.005491717	0.0003492495	-0.0001154213	0.05743753	0.008854677
	0.07761839	0.01137513	0.0003492492	-0.0001154211	0.09958804	-0.003691211	0.0003408525	-0.0001184622
	0.0003374193	-0.0001188454	0.05743752	0.008855051	0.0003408527	-0.0001184626	0.08172035	-0.005308192
2.2e+08	0.08242498	-0.04136793	0.0001518714	-0.0001678235	0.1107991	-0.04776939	0.0001427701	-0.0001651429
	0.0001518711	-0.0001678237	0.0728553	-0.03599824	0.000155141	-0.0001722389	0.101327	-0.03879943
	0.1107991	-0.04776949	0.0001551411	-0.0001722386	0.08188996	-0.04152694	0.0001461805	-0.0001694229
	0.0001427701	-0.0001651431	0.101327	-0.038799	0.0001461807	-0.0001694232	0.07316128	-0.03580758
2.3e+08	0.04294823	-0.03619577	4.883162e-05	-8.914781e-07	0.06454489	-0.09887275	4.501329e-05	4.628686e-06
	4.883143e-05	-8.91343e-07	0.04309101	-0.03752486	4.756705e-05	-7.005546e-06	0.06948249	-0.0970182
	0.06454497	-0.09887281	4.756735e-05	-7.005576e-06	0.04246124	-0.03626714	4.383279e-05	-1.481855e-06
	4.50136e-05	4.628482e-06	0.06948268	-0.09701784	4.383296e-05	-1.482133e-06	0.04342322	-0.0373259
2.4e+08	0.03837518	0.003972706	0.0002056344	0.0001530863	0.003040427	-0.07086133	0.0002063862	0.000154264
	0.0002056344	0.0001530864	0.03416883	-0.00998465	0.0002008812	0.0001509302	0.004847794	-0.08641281
	0.003040501	-0.07086145	0.0002008813	0.00015093	0.03794892	0.003866278	0.000201651	0.0001520897
	0.0002063864	0.0001542636	0.00484801	-0.08641261	0.0002016511	0.0001520893	0.03455057	-0.009788555
2.5e+08	0.07953565	0.01928198	0.0004152521	2.412108e-05	0.01388183	-0.006668119	0.0004124127	1.922987e-05
	0.0004152522	2.412101e-05	0.060385	0.005910548	0.000413729	2.661953e-05	-0.003476359	-0.02435
	0.01388185	-0.006668259	0.0004137288	2.661947e-05	0.07906964	0.01910052	0.0004108287	2.168828e-05
	0.0004124126	1.92294e-05	-0.003476198	-0.0243499	0.0004108287	2.168797e-05	0.06080038	0.006061684
2.6e+08	0.1079319	-0.01737469	0.0003579836	-0.000212295	0.07827287	-0.001577387	0.0003478161	-0.0002148725
	0.0003579835	-0.0002122951	0.08465969	-0.01632662	0.0003618987	-0.0002121979	0.05298757	-0.001435662
	0.07827283	-0.001577472	0.0003618987	-0.0002121978	0.1073387	-0.01756574	0.000351547	-0.0002147018
	0.0003478159	-0.0002148727	0.05298767	-0.001435577	0.0003515469	-0.000214702	0.0850645	-0.0161992
2.7e+08	0.08362529	-0.05563062	0.0001384635	-0.0002403559	0.1021794	-0.06349187	0.0001282519	-0.000235157
	0.0001384633	-0.0002403559	0.07186486	-0.04664099	0.0001414708	-0.0002463846	0.09087383	-0.05068384
	0.1021794	-0.0634919	0.0001414709	-0.0002463845	0.08293381	-0.05569122	0.0001311874	-0.0002408911
	0.0001282518	-0.000235157	0.09087393	-0.05068376	0.0001311874	-0.0002408912	0.07227797	-0.04650439
2.8e+08	0.0419925	-0.04515878	4.610829e-05	-4.738204e-05	0.05020496	-0.1067766	4.302913e-05	-3.93032e-05
	4.610825e-05	-4.738196e-05	0.04104704	-0.04478071	4.274627e-05	-5.484915e-05	0.05525432	-0.1036635
	0.05020497	-0.1067767	4.274637e-05	-5.484921e-05	0.04137309	-0.04508773	3.988624e-05	-4.654312e-05
	4.302916e-05	-3.930329e-05	0.05525443	-0.1036634	3.988623e-05	-4.654321e-05	0.04149101	-0.04463619
2.9e+08	0.04193909	-0.002034246	0.0002305849	9.955827e-05	-0.005696017	-0.07100502	0.0002328849	0.000101582
	0.0002305849	9.95583e-05	0.03489777	-0.01576601	0.0002233402	9.795786e-05	-0.005919748	-0.08782131
	-0.005696009	-0.07100507	0.0002233401	9.795777e-05	0.04141765	-0.00199685	0.0002258703	9.988272e-05
	0.0002328849	0.0001015819	-0.005919671	-0.0878213	0.0002258703	9.988264e-05	0.03540202	-0.01563447
3e+08	0.08730167	0.009026686	0.0004361721	-6.48554e-05	0.01392575	-0.01022579	0.0004333771	-7.021022e-05
	0.0004361721	-6.485541e-05	0.06320104	-0.002484277	0.0004338719	-6.089733e-05	-0.008671932	-0.02751622
	0.01392574	-0.01022582	0.0004338719	-6.089734e-05	0.08674935	0.008971128	0.0004309676	-6.646167e-05
	0.000433377	-7.02103e-05	-0.008671894	-0.02751623	0.0004309676	-6.646172e-05	0.06373895	-0.002423169
3.1e+08	0.1129274	-0.03338425	0.0003414108	-0.0003080969	0.07714697	-0.01446108	0.0003297227	-0.0003098544
	0.0003414108	-0.0003080969	0.08561426	-0.02781887	0.0003456473	-0.0003079491	0.0472623	-0.0102911
	0.07714696	-0.01446109	0.0003456473	-0.0003079491	0.1122279	-0.03345602	0.0003336275	-0.0003095805
	0.0003297227	-0.0003098544	0.04726231	-0.01029111	0.0003336275	-0.0003095805	0.08612118	-0.02779511
3.2e+08	0.08269612	-0.07153238	0.0001038637	-0.0003095583	0.09174416	-0.07804145	9.300761e-05	-0.0003017726
	0.0001038637	-0.0003095583	0.06941293	-0.05784235	0.0001060783	-0.0003167613	0.07922113	-0.06059577
	0.09174416	-0.07804145	0.0001060783	-0.0003167613	0.08187608	-0.07143877	9.518458e-05	-0.000308522
	9.300762e-05	-0.0003017726	0.07922114	-0.06059577	9.518458e-05	-0.000308522	0.06991783	-0.05780414
3.3e+08	0.03928623	-0.05641371	2.504822e-05	-9.543156e-05	0.03507097	-0.1131445	2.320852e-05	-8.493875e-05
	2.504821e-05	-9.543156e-05	0.03771102	-0.05332129	1.941371e-05	-0.0001033844	0.04039871	-0.1081724
	0.03507098	-0.1131445	1.94137e-05	-0.0001033844	0.03856619	-0.05614052	1.793425e-05	-9.264044e-05
	2.320851e-05	-8.493879e-05	0.04039871	-0.1081724	1.793427e-05	-9.264044e-05	0.03825069	-0.05327432
3.4e+08	0.04302261	-0.01091942	0.0002326793	4.23897e-05	-0.01461538	-0.0704418	0.0002368615	4.500405e-05
	0.0002326793	4.238971e-05	0.033557	-0.02319845	0.0002231988	4.199305e-05	-0.01697191	-0.08750834
	-0.01461538	-0.07044181	0.0002231988	4.199306e-05	0.04244889	-0.01067945	0.0002276646	4.443651e-05
	0.0002368614	4.500406e-05	-0.01697192	-0.08750834	0.0002276646	4.443652e-05	0.03416584	-0.02317494
3.5e+08	0.09162678	-0.003652522	0.0004305392	-0.0001531027	0.01319519	-0.01387848	0.0004279479	-0.0001591142
	0.0004305393	-0.0001531027	0.06325006	-0.01189834	0.0004276383	-0.0001473705	-0.01437939	-0.02932039
	0.0131952	-0.01387848	0.0004276383	-0.0001473705	0.09103892	-0.003530624	0.000424912	-0.0001536155
	0.000427948	-0.0001591142	-0.01437941	-0.02932038	0.0004249121	-0.0001536154	0.06388958	-0.0119718
3.6e+08	0.1143873	-0.05086381	0.0002999576	-0.0003971326	0.0742838	-0.02712276	0.0002869109	-0.0003980667
	0.0002999576	-0.0003971326	0.08405368	-0.03951866	0.0003044575	-0.0003965925	0.040662	-0.01764309
	0.07428382	-0.02712277	0.0003044575	-0.0003965925	0.1136353	-0.05077308	0.0002910714	-0.0003973574
	0.000286911	-0.0003980668	0.04066199	-0.01764308	0.0002910714	-0.0003973574	0.08463591	-0.03964237
3.7e+08	0.07883336	-0.08857801	4.997926e-05	-0.0003704389	0.07956937	-0.09133277	3.88463e-05	-0.0003600606
	4.997925e-05	-0.0003704389	0.06509886	-0.0692485	5.134432e-05	-0.0003782564	0.06674023	-0.0685439
	0.07956939	-0.09133278	5.134431e-05	-0.0003782564	0.07793616	-0.08829125	4.022495e-05	-0.0003673756
	3.884631e-05	-0.0003600606	0.06674021	-0.06854388	4.022497e-05	-0.0003673756	0.06566556	-0.06934774
3.8e+08	0.03385755	-0.06929319	-1.320743e-05	-0.0001388315	0.01916214	-0.117949	-1.342127e-05	-0.0001261367
	-1.320745e-05	-0.0001388315	0.03254291	-0.06263854	-2.095413e-05	-0.0001466282	0.02522064	-0.1105638
	0.01916215	-0.117949	-2.095415e-05	-0.0001466282	0.03309042	-0.06877575	-2.073369e-05	-0.0001336783
	-1.342129e-05	-0.0001261367	0.02522062	-0.1105638	-2.073367e-05	-0.0001336782	0.03314866	-0.06272637
3.9e+08	0.04074452	-0.02173061	0.0002143611	-1.128217e-05	-0.02377757	-0.06910266	0.0002206319	-8.361433e-06
	0.0002143611	-1.128215e-05	0.02970815	-0.0315554	0.0002029641	-9.96948e-06	-0.02801992	-0.08544965
	-0.02377756	-0.06910266	0.0002029641	-9.969457e-06	0.0401821	-0.02124833	0.0002095694	-7.24222e-06
	0.000220632	-8.361403e-06	-0.02801993	-0.08544962	0.0002095695	-7.24221e-06	0.03039004	-0.03167759
4e+08	0.09191897	-0.01774533	0.0004023204	-0.0002347607	0.01164609	-0.01747551	0.0003999957	-0.0002416251
	0.0004023205	-0.0002347607	0.06033198	-0.02160131	0.0003991252	-0.0002268858	-0.02026677	-0.02972774
	0.01164612	-0.01747551	0.0003991253	-0.0002268858	0.09136453	-0.01741532	0.0003966981	-0.0002340061
	0.0003999959	-0.0002416252	-0.02026677	-0.0297277	0.0003966982	-0.0002340061	0.06103827	-0.02184709
4.1e+08	0.1118278	-0.06898535	0.0002369637	-0.000475145	0.06970354	-0.03939798	0.0002226461	-0.0004752591
	0.0002369637	-0.000475145	0.0798456	-0.05087603	0.0002419558	-0.000473892	0.03354797	-0.02350532
	0.06970356	-0.039398	0.0002419558	-0.000473892	0.111093	-0.06871014	0.0002273141	-0.0004738475
	0.0002226461	-0.0004752592	0.03354797	-0.02350529	0.0002273142	-0.0004738476	0.08046269	-0.05118311
4.2e+08	0.07141738	-0.1060049	-2.09137e-05	-0.0004186828	0.0657101	-0.1032469	-3.202411e-05	-0.0004057238
	-2.091372e-05	-0.0004186828	0.05865092	-0.08037763	-2.022286e-05	-0.0004267139	0.0537671	-0.07459724
	0.06571011	-0.1032469	-2.022287e-05	-0.0004267139	0.07050886	-0.105508	-3.129223e-05	-0.0004132347
	-3.202413e-05	-0.0004057238	0.05376709	-0.07459721	-3.129223e-05	-0.0004132347	0.05923639	-0.08064425
4.3e+08	0.02498974	-0.08286384	-6.639254e-05	-0.0001725561	0.002497933	-0.1211222	-6.467504e-05	-0.0001578931
	-6.639255e-05	-0.0001725561	0.02517618	-0.07210348	-7.595954e-05	-0.000179696	0.01000589	-0.1109156
	0.002497931	-0.1211222	-7.595954e-05	-0.0001796959	0.02424153	-0.08208255	-7.374486e-05	-0.0001647696
	-6.467501e-05	-0.0001578931	0.01000588	-0.1109156	-7.374484e-05	-0.0001647695	0.02580648	-0.07235384
4.4e+08	0.03451806	-0.03331536	0.0001786989	-5.62414e-05	-0.03323048	-0.06689463	0.0001871709	-5.329141e-05
	0.0001786989	-5.624139e-05	0.02310339	-0.04003369	0.0001658437	-5.280588e-05	-0.03879353	-0.08169692
	-0.03323047	-0.06689463	0.0001658437	-5.280586e-05	0.034042	-0.03257398	0.0001747159	-5.00746e-05
	0.000187171	-5.329143e-05	-0.03879353	-0.08169689	0.0001747159	-5.007464e-05	0.02381479	-0.04032963
4.5e+08	0.08785072	-0.03209299	0.0003552261	-0.0003054572	0.009232855	-0.0208534	0.0003531677	-0.0003133434
	0.0003552261	-0.0003054573	0.05441123	-0.03081363	0.0003522099	-0.0002951819	-0.02604168	-0.02878522
	0.009232873	-0.02085341	0.00035221	-0.0002951819	0.08740826	-0.03154859	0.0003500945	-0.0003033702
	0.0003531678	-0.0003133435	-0.02604166	-0.02878519	0.0003500945	-0.0003033702	0.05513748	-0.03125854
4.6e+08	0.1049941	-0.08676032	0.0001556118	-0.0005384572	0.06341212	-0.05109767	0.0001400654	-0.0005377356
	0.0001556118	-0.0005384572	0.07300022	-0.06127808	0.0001614769	-0.0005363203	0.02622679	-0.0279567
	0.06341214	-0.05109768	0.0001614769	-0.0005363203	0.1043533	-0.08630307	0.0001456155	-0.0005354776
	0.0001400653	-0.0005377357	0.0262268	-0.02795668	0.0001456155	-0.0005354776	0.07360059	-0.06179242
4.7e+08	0.06007677	-0.1228531	-0.0001060017	-0.0004503558	0.05021428	-0.1136239	-0.0001168301	-0.0004348188
	-0.0001060017	-0.0004503558	0.04995381	-0.09066075	-0.0001056933	-0.0004583541	0.04058837	-0.0788732
	0.05021427	-0.1136239	-0.0001056934	-0.000458354	0.05922871	-0.1221536	-0.0001164651	-0.0004422904
	-0.0001168302	-0.0004348187	0.04058837	-0.07887319	-0.0001164651	-0.0004422904	0.05050484	-0.09111183
4.8e+08	0.01227654	-0.0960021	-0.0001313969	-0.0001924255	-0.01489283	-0.1225542	-0.0001274893	-0.0001760257
	-0.0001313969	-0.0001924255	0.01543999	-0.08100545	-0.0001423846	-0.0001985513	-0.004997937	-0.1093544
	-0.01489283	-0.1225542	-0.0001423846	-0.0001985513	0.01161727	-0.09496224	-0.0001379172	-0.0001818873
	-0.0001274893	-0.0001760256	-0.004997929	-0.1093544	-0.0001379172	-0.0001818873	0.01604422	-0.08143293
