!
!4 port subset of full cascaded channels using these ports:5 37 6 38
# Hz S RI R 50
0	0.01090185	0.0002810933	0.9879553	-8.287073e-05	0.002146235	9.419233e-05	-0.001893307	1.800723e-06
	0.9879545	-8.286979e-05	0.0125608	0.0002809536	-0.002100117	1.943494e-06	0.001829216	9.423245e-05
	0.002149414	9.259972e-05	-0.00209104	1.911808e-06	0.01241959	0.0002814333	0.9886298	-8.217233e-05
	-0.00188402	1.773326e-06	0.001824681	9.264004e-05	0.9886259	-8.217287e-05	0.01132659	0.0002815991
1e+07	0.05649209	0.02744047	0.7496757	-0.60732	0.05185449	0.06113728	-0.005960313	0.001400003
	0.7496757	-0.60732	0.056522	0.02739839	-0.005960543	0.001401303	0.05187301	0.06112049
	0.05185449	0.06113728	-0.005960552	0.001401319	0.05650702	0.02744618	0.749687	-0.6073087
	-0.005960323	0.001400019	0.05187301	0.06112049	0.749687	-0.6073087	0.0565222	0.02741793
2e+07	0.07957196	-0.003168815	0.2167382	-0.9248227	0.1239356	0.02857306	-0.0007290864	0.008272031
	0.2167385	-0.9248236	0.07957881	-0.003323726	-0.0007358938	0.008278741	0.1239422	0.02848668
	0.1239428	0.02857668	-0.0007336853	0.008271855	0.0795928	-0.003162474	0.2167682	-0.9248236
	-0.0007279255	0.008271736	0.1239616	0.02849013	0.2167679	-0.9248227	0.07959721	-0.003331237
3e+07	0.05692762	-0.03180069	-0.3878813	-0.859596	0.1161525	-0.05035457	0.006894326	0.002512461
	-0.3878813	-0.859596	0.05682364	-0.03197383	0.006898708	0.002507773	0.1161152	-0.05043873
	0.1161524	-0.05035443	0.006898542	0.002507914	0.05689971	-0.03183705	-0.3878449	-0.8596184
	0.006894157	0.002512554	0.1161151	-0.05043855	-0.3878449	-0.8596184	0.05683462	-0.03192482
4e+07	0.02357903	-0.01866595	-0.8313057	-0.4427389	0.0406974	-0.06777413	0.001999563	-0.003406159
	-0.8313058	-0.4427388	0.02346405	-0.01871821	0.00198929	-0.00341762	0.04066238	-0.06779856
	0.0406999	-0.067772	0.001995727	-0.003417958	0.0235212	-0.01864586	-0.8312852	-0.4427889
	0.002002692	-0.003405138	0.04066487	-0.06779919	-0.8312851	-0.442789	0.02347956	-0.01865687
5e+07	0.02744814	0.01627655	-0.9243299	0.1617901	0.004999772	-0.002597819	-0.0001925743	0.0008374795
	-0.92433	0.1617901	0.02753249	0.01624758	-0.0002131926	0.0008383053	0.005075377	-0.00262298
	0.005000501	-0.002598433	-0.0002079034	0.0008321338	0.02744834	0.01635137	-0.924344	0.1617248
	-0.0001872161	0.0008314755	0.005075468	-0.002623729	-0.924344	0.1617248	0.02755108	0.01632738
6e+07	0.0608436	0.02073079	-0.6243547	0.6883408	0.05862985	0.04680314	0.004145508	-0.001039715
	-0.6243548	0.688341	0.06106162	0.02044568	0.004129629	-0.001027047	0.05876669	0.04663608
	0.05862931	0.04680433	0.004129649	-0.001032667	0.06092705	0.02075447	-0.6244174	0.6882866
	0.004136599	-0.001047895	0.05876666	0.04663605	-0.6244174	0.6882865	0.06108605	0.02054338
7e+07	0.07286733	-0.008450448	-0.07601262	0.9167129	0.121857	0.008364569	-0.0003655751	-0.005793779
	-0.07601251	0.9167129	0.07288082	-0.008985872	-0.0003753111	-0.005779608	0.1218816	0.008078562
	0.1218573	0.008365301	-0.0003753742	-0.005780383	0.07291797	-0.008535855	-0.07610946	0.9167111
	-0.0003673058	-0.005787487	0.1218817	0.008077656	-0.07610956	0.916711	0.07291924	-0.008870437
8e+07	0.0494041	-0.02682184	0.49259	0.7720853	0.1059228	-0.06485727	-0.004933166	-0.0005782801
	0.49259	0.7720851	0.04913164	-0.02722787	-0.004943078	-0.0005543577	0.105817	-0.06505773
	0.1059222	-0.06485641	-0.004938536	-0.0005542604	0.04932554	-0.02690666	0.4925076	0.7721496
	-0.004934696	-0.0005800983	0.1058158	-0.06505827	0.4925076	0.7721498	0.04918244	-0.02710248
9e+07	0.02598226	-0.008955035	0.8612066	0.3128461	0.03287389	-0.07352283	-0.0001392159	0.002416223
	0.8612066	0.312846	0.0258254	-0.009030967	-0.000122765	0.002438987	0.03287269	-0.07355846
	0.03287374	-0.0735219	-0.0001169625	0.002435135	0.02585997	-0.008899682	0.8611742	0.3129518
	-0.0001395212	0.002418415	0.03287165	-0.07355811	0.8611743	0.3129519	0.0258888	-0.008891984
1e+08	0.03830407	0.01881603	0.8706858	-0.2802139	0.005264064	-0.008433053	6.809588e-06	-0.001848937
	0.8706857	-0.2802139	0.03860933	0.01867449	1.750552e-05	-0.001858165	0.005526891	-0.008557371
	0.005264183	-0.008432802	1.941594e-05	-0.001861241	0.03831996	0.01896324	0.8707213	-0.2800934
	8.709982e-06	-0.001852032	0.005526813	-0.008556836	0.8707214	-0.2800935	0.03868586	0.01882216
1.1e+08	0.06881829	0.01371924	0.5129492	-0.7489332	0.06055606	0.03353969	-0.004024616	0.0009627606
	0.5129492	-0.7489332	0.06927872	0.01303699	-0.004024918	0.000961414	0.06084088	0.03308274
	0.06055596	0.0335391	-0.004030167	0.0009597465	0.06897135	0.01374901	0.5130688	-0.748847
	-0.004029846	0.0009610486	0.06084066	0.03308201	0.5130689	-0.7488471	0.06936802	0.01319926
1.2e+08	0.07256874	-0.01603208	-0.04729765	-0.8986753	0.1171638	-0.008794575	0.0005809294	0.004796475
	-0.04729766	-0.8986754	0.07252259	-0.01706247	0.0005935279	0.004795396	0.1171426	-0.00939195
	0.1171627	-0.008794955	0.000589261	0.004798379	0.07264681	-0.01618123	-0.0471361	-0.8986908
	0.0005764511	0.004799423	0.1171411	-0.009392404	-0.04713609	-0.8986909	0.07263438	-0.01689065
1.3e+08	0.04665295	-0.02765565	-0.5792892	-0.6842803	0.09512222	-0.0772511	0.003631247	-0.0001737096
	-0.5792892	-0.6842802	0.0461505	-0.028269	0.003637134	-0.0001956473	0.0949047	-0.07758094
	0.09512102	-0.07725069	0.003636119	-0.0001907707	0.04652055	-0.02778742	-0.5791735	-0.6843965
	0.003630158	-0.0001688736	0.09490317	-0.0775803	-0.5791736	-0.6843966	0.04627721	-0.02809263
1.4e+08	0.02906268	-0.005808087	-0.8766013	-0.1914951	0.02436822	-0.07891998	-0.0009575157	-0.001376714
	-0.8766013	-0.1914951	0.02895203	-0.005853423	-0.0009775376	-0.00139038	0.02444058	-0.07897633
	0.02436754	-0.07891935	-0.0009751819	-0.001386778	0.02887969	-0.005714906	-0.8765708	-0.1916561
	-0.0009552579	-0.00137292	0.02443985	-0.0789754	-0.8765708	-0.191656	0.02909747	-0.005666135
1.5e+08	0.04710952	0.01746888	-0.8098108	0.3844479	0.00347253	-0.01424632	0.0004631647	0.002821283
	-0.8098109	0.3844479	0.04779246	0.017108	0.0004505984	0.002830077	0.003986858	-0.01457234
	0.003472055	-0.0142459	0.0004543967	0.002831137	0.04714258	0.01768172	-0.8098773	0.3842788
	0.0004669076	0.002822384	0.003986463	-0.01457183	-0.8098773	0.3842788	0.04795956	0.01729657
1.6e+08	0.0755692	0.005712654	-0.4030731	0.7944707	0.05978582	0.02133666	0.004426736	-0.0009284925
	-0.4030731	0.7944707	0.0762151	0.004366587	0.004424351	-0.0009297258	0.06019596	0.02042486
	0.05978519	0.02133704	0.004427257	-0.0009313233	0.07578597	0.005743003	-0.4032554	0.7943634
	0.004429625	-0.000930038	0.06019531	0.02042524	-0.4032553	0.7943634	0.07639612	0.004559153
1.7e+08	0.0731882	-0.02444918	0.1612587	0.8692162	0.1103733	-0.02398177	-0.0004049482	-0.00444637
	0.1612587	0.8692163	0.07288036	-0.02611139	-0.000426031	-0.004443439	0.1101967	-0.02500108
	0.1103727	-0.02398114	-0.0004250727	-0.00444615	0.07327943	-0.02465952	0.1610351	0.8692627
	-0.000403974	-0.004449046	0.110196	-0.02500037	0.1610351	0.8692627	0.07308057	-0.0259122
1.8e+08	0.04537623	-0.03106703	0.6520068	0.5924611	0.08319807	-0.08780174	-0.002703542	0.0002567229
	0.6520067	0.5924611	0.04452703	-0.03192101	-0.002712146	0.0002907136	0.08278247	-0.08828278
	0.08319775	-0.08780094	-0.002713069	0.000288394	0.04518245	-0.03122964	0.6518704	0.5926376
	-0.002704454	0.0002544311	0.08278216	-0.08828186	0.6518704	0.5926375	0.04474688	-0.03171346
1.9e+08	0.03206715	-0.006356028	0.8785203	0.07487649	0.01490452	-0.08328493	0.001471261	0.0003157146
	0.8785204	0.07487649	0.03196353	-0.006485686	0.001501607	0.0003379627	0.01505032	-0.08339344
	0.01490452	-0.08328428	0.001499698	0.0003370145	0.03183002	-0.006212877	0.8785054	0.07508989
	0.001469366	0.0003149429	0.01505037	-0.08339272	0.8785055	0.0750899	0.03221937	-0.006271395
2e+08	0.05418517	0.0134177	0.7408304	-0.4772807	8.761175e-05	-0.01930125	-0.001178156	-0.003598771
	0.7408303	-0.4772806	0.05512665	0.01263254	-0.001154877	-0.003610766	0.000858713	-0.01995562
	8.766065e-05	-0.01930084	-0.001156485	-0.003610141	0.05424226	0.01369629	0.740936	-0.4770719
	-0.001179875	-0.003598282	0.0008587892	-0.01995518	0.7409361	-0.4770719	0.05541306	0.01282615
2.1e+08	0.08079536	-0.003338958	0.2931523	-0.8260559	0.05699323	0.01038536	-0.005062676	0.001058886
	0.2931524	-0.826056	0.08142952	-0.005491717	-0.00505506	0.001053885	0.05743753	0.008854677
	0.05699322	0.01038575	-0.005055661	0.001055175	0.08107265	-0.0033101	0.2933999	-0.825939
	-0.005063284	0.001060186	0.05743752	0.008855051	0.2933998	-0.8259389	0.08172035	-0.005308192
2.2e+08	0.0736435	-0.03364685	-0.2670585	-0.8283838	0.1018227	-0.03726582	9.388304e-05	0.004540711
	-0.2670585	-0.8283838	0.0728553	-0.03599824	0.0001185546	0.004528754	0.101327	-0.03879943
	0.1018228	-0.03726542	0.0001187792	0.004529926	0.07374412	-0.03391275	-0.2667774	-0.8284734
	9.411616e-05	0.004541897	0.101327	-0.038799	-0.2667774	-0.8284735	0.07316128	-0.03580758
2.3e+08	0.04446139	-0.03645114	-0.7113849	-0.4963497	0.07022462	-0.09637577	0.002123404	7.770768e-05
	-0.711385	-0.4963497	0.04309101	-0.03752486	0.002126924	3.037466e-05	0.06948249	-0.0970182
	0.07022477	-0.09637544	0.002127718	3.091484e-05	0.04420903	-0.03663727	-0.7112401	-0.4965935
	0.002124216	7.825692e-05	0.06948268	-0.09701784	-0.7112401	-0.4965935	0.04342322	-0.0373259
2.4e+08	0.03434666	-0.009790185	-0.8672671	0.0372246	0.004679829	-0.08622691	-0.001519168	0.0006819456
	-0.867267	0.03722458	0.03416883	-0.00998465	-0.001565729	0.0006553689	0.004847794	-0.08641281
	0.004680024	-0.08622671	-0.001564974	0.0006551852	0.03406201	-0.00959443	-0.8672817	0.03696195
	-0.001518365	0.0006819322	0.00484801	-0.08641261	-0.8672816	0.03696196	0.03455057	-0.009788555
2.5e+08	0.05923966	0.007197039	-0.6640429	0.5587499	-0.004449353	-0.02325911	0.002071803	0.004139377
	-0.6640429	0.5587499	0.060385	0.005910548	0.002036091	0.004161069	-0.003476359	-0.02435
	-0.00444922	-0.023259	0.002036485	0.004160602	0.05932492	0.0075385	-0.6641954	0.5585122
	0.002072199	0.004138883	-0.003476198	-0.0243499	-0.6641954	0.5585122	0.06080038	0.006061684
2.6e+08	0.08418857	-0.01323208	-0.1837043	0.8439447	0.05265534	0.0008460451	0.00581565	-0.001389265
	-0.1837043	0.8439447	0.08465969	-0.01632662	0.005805743	-0.001372016	0.05298757	-0.001435662
	0.05265543	0.0008461388	0.005805788	-0.00137248	0.08452424	-0.01320725	-0.1840174	0.8438296
	0.005815522	-0.001389769	0.05298767	-0.001435577	-0.1840174	0.8438296	0.0850645	-0.0161992
2.7e+08	0.07337643	-0.04354174	0.3643087	0.7768834	0.091895	-0.04857906	0.0002250241	-0.005000106
	0.3643087	0.7768835	0.07186486	-0.04664099	0.0002028682	-0.004976779	0.09087383	-0.05068384
	0.09189511	-0.04857897	0.0002025564	-0.004976997	0.07348269	-0.0438599	0.3639756	0.7770267
	0.0002247021	-0.005000339	0.09087393	-0.05068376	0.3639756	0.7770267	0.07227797	-0.04650439
2.8e+08	0.04313975	-0.04353462	0.7575746	0.3968872	0.05648873	-0.1028782	-0.001903132	-0.0006928465
	0.7575746	0.3968872	0.04104704	-0.04478071	-0.001895874	-0.0006347089	0.05525432	-0.1036635
	0.05648883	-0.1028782	-0.001896151	-0.0006346957	0.04282928	-0.04373761	0.7574335	0.397204
	-0.001903423	-0.0006928353	0.05525443	-0.1036634	0.7574335	0.397204	0.04149101	-0.04463619
2.9e+08	0.03524573	-0.01553525	0.8435877	-0.144105	-0.006015231	-0.08755822	0.001161425	-0.001545156
	0.8435877	-0.144105	0.03489777	-0.01576601	0.001226486	-0.001519294	-0.005919748	-0.08782131
	-0.006015161	-0.08755822	0.00122634	-0.001519171	0.03491858	-0.01528232	0.8436457	-0.1437979
	0.001161269	-0.001545028	-0.005919671	-0.0878213	0.8436457	-0.1437979	0.03540202	-0.01563447
3e+08	0.06195164	-0.0006107854	0.5805004	-0.6287184	-0.009741566	-0.0259137	-0.003095563	-0.004402649
	0.5805004	-0.6287184	0.06320104	-0.002484277	-0.003048593	-0.004439094	-0.008671932	-0.02751622
	-0.009741532	-0.02591371	-0.003048621	-0.004438976	0.06206971	-0.0002072474	0.5807059	-0.6284639
	-0.003095583	-0.004402516	-0.008671894	-0.02751623	0.5807059	-0.6284639	0.06373895	-0.002423169
3.1e+08	0.08553236	-0.02366642	0.07570433	-0.8486467	0.04723588	-0.007172205	-0.006595472	0.001953539
	0.07570434	-0.8486467	0.08561426	-0.02781887	-0.006587499	0.001920586	0.0472623	-0.0102911
	0.0472359	-0.007172206	-0.006587464	0.001920647	0.08592506	-0.02364691	0.07608095	-0.8485452
	-0.006595454	0.001953607	0.04726231	-0.01029111	0.07608094	-0.8485452	0.08612118	-0.02779511
3.2e+08	0.07195274	-0.05398775	-0.4524954	-0.7157388	0.08101039	-0.05791393	-0.0004413071	0.005765082
	-0.4524954	-0.7157388	0.06941293	-0.05784235	-0.000427343	0.005730418	0.07922113	-0.06059577
	0.0810104	-0.05791393	-0.0004273137	0.005730426	0.07206184	-0.05435314	-0.4521178	-0.7159449
	-0.0004412765	0.005765091	0.07922114	-0.06059577	-0.4521178	-0.7159449	0.06991783	-0.05780414
3.3e+08	0.04076781	-0.05199764	-0.7907803	-0.2952298	0.04232156	-0.1073088	0.00205967	0.001467521
	-0.7907803	-0.2952298	0.03771102	-0.05332129	0.002037525	0.001402366	0.04039871	-0.1081724
	0.04232156	-0.1073088	0.002037522	0.001402373	0.04040189	-0.05220944	-0.7906557	-0.2956237
	0.002059712	0.001467365	0.04039871	-0.1081724	-0.7906557	-0.2956237	0.03825069	-0.05327432
3.4e+08	0.03422064	-0.02299501	-0.8083383	0.2449561	-0.01686493	-0.08721173	-0.0004559387	0.002203272
	-0.8083383	0.2449561	0.033557	-0.02319845	-0.0005399992	0.002183423	-0.01697191	-0.08750834
	-0.01686494	-0.08721173	-0.0005400725	0.002183294	0.03385831	-0.02268001	-0.8084533	0.2446108
	-0.0004559548	0.002203299	-0.01697192	-0.08750834	-0.8084533	0.2446108	0.03416584	-0.02317494
3.5e+08	0.06206505	-0.009402653	-0.4913643	0.6870284	-0.01539993	-0.02718325	0.004192423	0.004356035
	-0.4913643	0.6870284	0.06325006	-0.01189834	0.004136653	0.004411387	-0.01437939	-0.02932039
	-0.01539994	-0.02718324	0.004136664	0.004411431	0.06222255	-0.008937713	-0.4916277	0.6867707
	0.004192435	0.004356084	-0.01437941	-0.02932038	-0.4916277	0.6867707	0.06388958	-0.0119718
3.6e+08	0.08464955	-0.03427254	0.02980036	0.840705	0.04117054	-0.01366536	0.007316786	-0.002766514
	0.02980036	0.840705	0.08405368	-0.03951866	0.007314906	-0.002715794	0.040662	-0.01764309
	0.04117052	-0.01366534	0.007314942	-0.002715758	0.08509982	-0.03425954	0.02936451	0.8406291
	0.007316827	-0.002766473	0.04066199	-0.01764308	0.02936453	0.8406291	0.08463591	-0.03964237
3.7e+08	0.06900805	-0.06472113	0.5310758	0.6460183	0.06956303	-0.06534778	0.0004643034	-0.006768846
	0.5310758	0.6460183	0.06509886	-0.0692485	0.0004634733	-0.006723849	0.06674023	-0.0685439
	0.06956301	-0.06534777	0.0004635224	-0.006723835	0.06911957	-0.06512846	0.5306626	0.6462944
	0.0004643702	-0.00676884	0.06674021	-0.06854388	0.5306626	0.6462944	0.06566556	-0.06934774
3.8e+08	0.03682932	-0.06140986	0.8111981	0.192575	0.02804425	-0.1097494	-0.002594872	-0.002287424
	0.8111981	0.192575	0.03254291	-0.06263854	-0.002554644	-0.002219703	0.02522064	-0.1105638
	0.02804423	-0.1097494	-0.002554596	-0.002219725	0.03641367	-0.06162322	0.8111025	0.1930479
	-0.002594813	-0.002287461	0.02522062	-0.1105638	0.8111025	0.1930479	0.03314866	-0.06272637
3.9e+08	0.03086558	-0.03151653	0.7623889	-0.3389262	-0.02756055	-0.08522444	-0.0005300835	-0.002593626
	0.7623889	-0.3389262	0.02970815	-0.0315554	-0.0004274298	-0.002584809	-0.02801992	-0.08544965
	-0.02756056	-0.0852244	-0.0004274085	-0.002584856	0.03047739	-0.03113631	0.7625733	-0.3385504
	-0.0005300622	-0.002593692	-0.02801993	-0.08544962	0.7625733	-0.3385504	0.03039004	-0.03167759
4e+08	0.05941708	-0.01853755	0.3978404	-0.7335004	-0.02107022	-0.02710271	-0.005296873	-0.003982462
	0.3978404	-0.7335004	0.06033198	-0.02160131	-0.005235556	-0.004060265	-0.02026677	-0.02972774
	-0.02107023	-0.02710268	-0.005235583	-0.00406032	0.05962204	-0.01801308	0.398165	-0.7332541
	-0.005296884	-0.003982522	-0.02026677	-0.0297277	0.398165	-0.7332541	0.06103827	-0.02184709
4.1e+08	0.08143109	-0.0446067	-0.1317187	-0.8206849	0.03483541	-0.01872741	-0.007901284	0.003821357
	-0.1317187	-0.8206849	0.0798456	-0.05087603	-0.007910142	0.003751787	0.03354797	-0.02350532
	0.0348354	-0.01872738	-0.007910183	0.003751761	0.08194115	-0.0446024	-0.1312302	-0.8206462
	-0.00790133	0.003821323	0.03354797	-0.02350529	-0.1312302	-0.8206462	0.08046269	-0.05118311
4.2e+08	0.0642727	-0.07536644	-0.5994958	-0.5688347	0.05789012	-0.07103198	-0.0002243184	0.007935805
	-0.5994958	-0.5688347	0.05865092	-0.08037763	-0.0002413772	0.007882564	0.0537671	-0.07459724
	0.05789012	-0.07103195	-0.0002414146	0.007882558	0.06438824	-0.07581152	-0.5990572	-0.5691861
	-0.0002243728	0.007935811	0.05376709	-0.07459721	-0.5990572	-0.5691861	0.05923639	-0.08064425
4.3e+08	0.03095191	-0.07123731	-0.819046	-0.09015957	0.01393686	-0.1103535	0.003492578	0.003045578
	-0.819046	-0.09015958	0.02517618	-0.07210348	0.003431883	0.002980243	0.01000589	-0.1109156
	0.01393686	-0.1103535	0.003431858	0.002980271	0.03049455	-0.07144687	-0.8189914	-0.09071132
	0.00349254	0.003045774	0.01000588	-0.1109156	-0.8189914	-0.09071131	0.02580648	-0.07235384
4.4e+08	0.02493192	-0.04038966	-0.7066571	0.425146	-0.0378349	-0.0817216	0.001719235	0.002666364
	-0.7066571	0.425146	0.02310339	-0.04003369	0.00159945	0.002673926	-0.03879353	-0.08169692
	-0.03783489	-0.08172157	0.001599537	0.002674085	0.02452842	-0.03994369	-0.7069224	0.4247485
	0.001719228	0.002666405	-0.03879353	-0.08169689	-0.7069224	0.4247485	0.02381479	-0.04032963
4.5e+08	0.05397062	-0.02733993	-0.3011911	0.7679802	-0.02646318	-0.0258	0.006339889	0.003283468
	-0.3011911	0.7679802	0.05441123	-0.03081363	0.006277419	0.003386826	-0.02604168	-0.02878522
	-0.02646316	-0.02579998	0.006277582	0.003386893	0.05423176	-0.02675951	-0.3015784	0.7677606
	0.006339907	0.003283499	-0.02604166	-0.02878519	-0.3015784	0.7677606	0.05513748	-0.03125854
4.6e+08	0.07587222	-0.05416973	0.2289361	0.7892188	0.02852481	-0.02252627	0.008282007	-0.005092223
	0.2289361	0.7892188	0.07300022	-0.06127808	0.008306906	-0.005003894	0.02622679	-0.0279567
	0.02852481	-0.02252625	0.008306925	-0.00500389	0.07644552	-0.0541779	0.2284037	0.7892284
	0.008282016	-0.005092205	0.0262268	-0.02795668	0.2284037	0.7892284	0.07360059	-0.06179242
4.7e+08	0.05759891	-0.08546622	0.6572353	0.4853702	0.0462521	-0.07517256	-0.0003264969	-0.009186079
	0.6572353	0.4853702	0.04995381	-0.09066075	-0.0002871836	-0.009127824	0.04058837	-0.0788732
	0.0462521	-0.07517255	-0.0002870789	-0.009127981	0.05772141	-0.08594669	0.6567831	0.4858003
	-0.0003264783	-0.009186074	0.04058837	-0.07887319	0.6567831	0.4858002	0.05050484	-0.09111183
4.8e+08	0.02292473	-0.08087019	0.8146171	-0.01075014	0.0002139048	-0.109328	-0.004719976	-0.003645178
	0.8146171	-0.01075014	0.01543999	-0.08100545	-0.004637363	-0.003587686	-0.004997937	-0.1093544
	0.000213912	-0.109328	-0.00463736	-0.003587701	0.02243525	-0.08107306	0.8146152	-0.01012195
	-0.004719978	-0.003645342	-0.004997929	-0.1093544	0.8146152	-0.01012194	0.01604422	-0.08143293
4.9e+08	0.01634727	-0.04886983	0.6421424	-0.5027715	-0.04748981	-0.07689155	-0.003026838	-0.002387026
	0.6421424	-0.5027715	0.01370764	-0.04779069	-0.002892586	-0.002416378	-0.04906348	-0.07636097
	-0.04748979	-0.07689154	-0.002892707	-0.002416508	0.01593964	-0.04836067	0.6424985	-0.5023623
	-0.003026843	-0.002387038	-0.04906346	-0.07636095	0.6424985	-0.5023623	0.01439613	-0.0482753
5e+08	0.0458388	-0.03512602	0.2027308	-0.790392	-0.03137537	-0.02346369	-0.007253505	-0.002278582
	0.2027308	-0.790392	0.04564073	-0.03874616	-0.007195466	-0.002409887	-0.03146788	-0.02659808
	-0.03137535	-0.02346368	-0.007195474	-0.002409886	0.04616484	-0.03449539	0.2031807	-0.7902151
	-0.007253662	-0.002278611	-0.03146786	-0.02659808	0.2031807	-0.7902151	0.04633154	-0.03940259
5.1e+08	0.06809614	-0.06244133	-0.3203503	-0.7470412	0.02243824	-0.02527364	-0.008406692	0.00653864
	-0.3203503	-0.7470412	0.06369309	-0.0700931	-0.008453382	0.006433091	0.0189408	-0.03112041
	0.02243825	-0.02527364	-0.008453385	0.006433096	0.06873678	-0.06246778	-0.3197844	-0.7471091
	-0.008406842	0.006538721	0.01894081	-0.03112041	-0.3197844	-0.7471091	0.0642178	-0.07082336
5.2e+08	0.04897868	-0.09451988	-0.7038554	-0.39688	0.03481999	-0.07800461	0.001215524	0.01043975
	-0.7038554	-0.39688	0.03906826	-0.09948954	0.001150223	0.01038104	0.02743165	-0.08152127
