!
!4 port subset of full cascaded channels using these ports:1 37 2 38
# Hz S RI R 50
0	0.01093328	0.0002810659	-1.674936e-05	7.645392e-09	0.001873849	9.422881e-05	-1.499239e-05	7.253355e-09
	-1.674931e-05	7.649199e-09	0.0125608	0.0002809536	-1.495917e-05	7.127855e-09	0.001829216	9.423245e-05
	0.001877027	9.263639e-05	-1.495938e-05	7.102446e-09	0.01252213	0.0002814007	-1.633854e-05	7.604909e-09
	-1.499253e-05	7.226205e-09	0.001824681	9.264004e-05	-1.63385e-05	7.601026e-09	0.01132659	0.0002815991
1e+07	0.05727285	0.02799921	-0.0001976957	-0.0001397705	0.05268001	0.0617056	-0.0001982693	-0.0001412345
	-0.0001976957	-0.0001397705	0.056522	0.02739839	-0.0002001285	-0.000143533	0.05187301	0.06112049
	0.05268001	0.06170559	-0.0002001285	-0.000143533	0.05729496	0.02800812	-0.0001892494	-0.0001300976
	-0.0001982692	-0.0001412345	0.05187301	0.06112049	-0.0001892494	-0.0001300976	0.0565222	0.02741793
2e+07	0.08022172	-0.003394962	-0.0003804436	-1.820986e-05	0.1247758	0.02805457	-0.0003776038	-1.709875e-05
	-0.0003804481	-1.821229e-05	0.07957881	-0.003323726	-0.00038331	-1.827279e-05	0.1239422	0.02848668
	0.1247825	0.02805818	-0.0003833017	-1.826568e-05	0.08030056	-0.003425512	-0.0003556183	-1.350921e-05
	-0.0003775934	-1.709221e-05	0.1239616	0.02849013	-0.000355611	-1.35069e-05	0.07959721	-0.003331237
3e+07	0.0557354	-0.03158325	-0.0005378103	0.0002193176	0.114799	-0.05080353	-0.0005355686	0.0002081099
	-0.0005378103	0.0002193178	0.05682364	-0.03197383	-0.0005430718	0.000211831	0.1161152	-0.05043873
	0.1147989	-0.05080337	-0.0005430718	0.0002118312	0.05569743	-0.03163141	-0.0005052112	0.0002025165
	-0.0005355686	0.0002081104	0.1161151	-0.05043855	-0.0005052111	0.0002025165	0.05683462	-0.03192482
4e+07	0.0218534	-0.0153239	-0.000470504	0.0008010009	0.03828735	-0.06480503	-0.0004911327	0.0007951531
	-0.0004705025	0.0008010034	0.02346405	-0.01871821	-0.0004961873	0.0008047797	0.04066238	-0.06779856
	0.03828988	-0.06480306	-0.0004961839	0.0008047705	0.02178306	-0.01528912	-0.0004496155	0.0007584703
	-0.0004911287	0.0007951473	0.04066487	-0.06779919	-0.0004496165	0.0007584711	0.02347956	-0.01865687
5e+07	0.02907592	0.02171056	0.0003527078	0.00117584	0.006236323	0.003114775	0.0003417787	0.001200966
	0.0003527076	0.00117584	0.02753249	0.01624758	0.0003438065	0.001214585	0.005075377	-0.00262298
	0.006236906	0.003114189	0.0003437962	0.001214579	0.02908592	0.02181961	0.0003425669	0.001117526
	0.0003417693	0.00120096	0.005075468	-0.002623729	0.0003425676	0.001117526	0.02755108	0.01632738
6e+07	0.06542617	0.02346774	0.001144259	0.0006061917	0.06374299	0.04954447	0.001164539	0.0006178387
	0.001144259	0.0006061991	0.06106162	0.02044568	0.001176761	0.0006293527	0.05876669	0.04663608
	0.06374244	0.04954575	0.001176754	0.0006293543	0.06554945	0.02350419	0.001091051	0.0005573618
	0.001164534	0.0006178528	0.05876666	0.04663605	0.00109105	0.000557368	0.06108605	0.02054338
7e+07	0.07527231	-0.009112828	0.001239643	-0.0001316575	0.1247752	0.006445671	0.001240827	-0.0001402632
	0.001239649	-0.0001316594	0.07288082	-0.008985872	0.001260048	-0.0001387822	0.1218816	0.008078562
	0.1247755	0.006446374	0.001260046	-0.0001387817	0.07534984	-0.009223394	0.001155943	-0.0001370902
	0.001240835	-0.0001402624	0.1218817	0.008077656	0.001155947	-0.0001370879	0.07291924	-0.008870437
8e+07	0.04722807	-0.02583559	0.001224085	-0.0007764367	0.1028522	-0.06560189	0.001224517	-0.0007552038
	0.001224082	-0.0007764337	0.04913164	-0.02722787	0.001242307	-0.0007667076	0.105817	-0.06505773
	0.1028517	-0.065601	0.001242309	-0.0007667158	0.04713122	-0.02594242	0.001147421	-0.0007241691
	0.001224517	-0.0007552027	0.1058158	-0.06505827	0.001147422	-0.0007241626	0.04918244	-0.02710248
9e+07	0.02387256	-0.001735053	0.0006857106	-0.001814005	0.02890545	-0.06673832	0.0007320942	-0.001812169
	0.0006857149	-0.001813998	0.0258254	-0.009030967	0.0007408104	-0.001833917	0.03287269	-0.07355846
	0.02890533	-0.06673736	0.0007408019	-0.001833933	0.02372143	-0.001649197	0.0006512669	-0.001718371
	0.0007320982	-0.001812171	0.03287165	-0.07355811	0.0006512752	-0.001718365	0.0258888	-0.008891984
1e+08	0.04297926	0.0283984	-0.0009901305	-0.002068325	0.009183964	0.002066691	-0.000976305	-0.002127391
	-0.0009901307	-0.002068325	0.03860933	0.01867449	-0.0009829002	-0.00215327	0.005526891	-0.008557371
	0.009184125	0.00206696	-0.0009829102	-0.002153274	0.04302041	0.02860515	-0.0009587504	-0.001958006
	-0.0009763147	-0.002127395	0.005526813	-0.008556836	-0.0009587504	-0.001958006	0.03868586	0.01882216
1.1e+08	0.07770104	0.01763078	-0.002125136	-0.0007474475	0.07050309	0.03739348	-0.002174253	-0.0007695036
	-0.002125136	-0.0007474456	0.06927872	0.01303699	-0.002198214	-0.0007876433	0.06084088	0.03308274
	0.07050295	0.03739283	-0.002198213	-0.000787632	0.07792686	0.01767656	-0.002020223	-0.0006709127
	-0.002174252	-0.000769493	0.06084066	0.03308201	-0.002020224	-0.0006709146	0.06936802	0.01319926
1.2e+08	0.07715544	-0.01745499	-0.001980251	0.000536655	0.1223169	-0.01252454	-0.001991204	0.0005586663
	-0.001980249	0.0005366569	0.07252259	-0.01706247	-0.002023401	0.0005598282	0.1171426	-0.00939195
	0.1223157	-0.01252487	-0.002023398	0.0005598319	0.07727983	-0.01765055	-0.001839331	0.0005285283
	-0.001991202	0.0005586702	0.1171411	-0.009392404	-0.001839333	0.0005285271	0.07263438	-0.01689065
1.3e+08	0.04441777	-0.02602049	-0.00166777	0.001496457	0.09094968	-0.07818217	-0.001670665	0.00147295
	-0.001667768	0.001496456	0.0461505	-0.028269	-0.001696513	0.001494046	0.0949047	-0.07758094
	0.0909485	-0.07818164	-0.001696507	0.001494053	0.04425882	-0.02619128	-0.001557725	0.001399177
	-0.00167066	0.001472957	0.09490317	-0.0775803	-0.001557727	0.001399178	0.04627721	-0.02809263
1.4e+08	0.02787738	0.004729424	-0.0005835608	0.002794253	0.02013756	-0.06854529	-0.000650467	0.002801221
	-0.0005835599	0.002794251	0.02895203	-0.005853423	-0.0006602934	0.002835187	0.02444058	-0.07897633
	0.02013697	-0.06854462	-0.0006602814	0.002835186	0.02765569	0.004863757	-0.0005487728	0.002645007
	-0.0006504547	0.00280122	0.02443985	-0.0789754	-0.0005487728	0.002645008	0.02909747	-0.005666135
1.5e+08	0.05585743	0.0300718	0.00182914	0.00271766	0.01124779	4.718342e-06	0.001818376	0.002810868
	0.00182914	0.002717658	0.04779246	0.017108	0.001831622	0.002847894	0.003986858	-0.01457234
	0.01124736	5.099024e-06	0.001831626	0.002847883	0.05593203	0.03036242	0.001766071	0.002561886
	0.001818381	0.002810857	0.003986463	-0.01457183	0.001766071	0.002561887	0.04795956	0.01729657
1.6e+08	0.0892971	0.009527821	0.003097218	0.0006057285	0.07497364	0.02511253	0.003180358	0.000635788
	0.003097217	0.0006057274	0.0762151	0.004366587	0.003217241	0.000658322	0.06019596	0.02042486
	0.07497299	0.02511291	0.003217237	0.0006583164	0.08961971	0.009570333	0.002935352	0.0005129055
	0.003180355	0.0006357827	0.06019531	0.02042524	0.002935352	0.0005129063	0.07639612	0.004559153
1.7e+08	0.08028706	-0.02747036	0.00256691	-0.001146101	0.117836	-0.03013794	0.002591112	-0.001187483
	0.002566908	-0.001146101	0.07288036	-0.02611139	0.002635727	-0.00119384	0.1101967	-0.02500108
	0.1178354	-0.03013724	0.002635725	-0.001193843	0.08044487	-0.02775444	0.002371705	-0.001111421
	0.00259111	-0.001187486	0.110196	-0.02500037	0.002371706	-0.001111421	0.07308057	-0.0259122
1.8e+08	0.04383825	-0.02932935	0.00186993	-0.002301661	0.07844089	-0.08911347	0.001873204	-0.002283607
	0.001869929	-0.002301659	0.04452703	-0.03192101	0.001905126	-0.002315783	0.08278247	-0.08828278
	0.07844064	-0.08911261	0.00190512	-0.002315787	0.04361285	-0.02955326	0.001737411	-0.002151264
	0.001873198	-0.00228361	0.08278216	-0.08828186	0.001737412	-0.002151265	0.04474688	-0.03171346
1.9e+08	0.03301764	0.006510057	0.0002257586	-0.00368852	0.01148318	-0.06989009	0.0003057555	-0.003707772
	0.0002257593	-0.00368852	0.03196353	-0.006485686	0.0003144688	-0.003754014	0.01505032	-0.08339344
	0.01148326	-0.06988945	0.0003144612	-0.003754009	0.03273721	0.006697161	0.0002035889	-0.003486451
	0.0003057485	-0.003707769	0.01505037	-0.08339272	0.000203589	-0.003486452	0.03221937	-0.006271395
2e+08	0.06789589	0.02738225	-0.002803256	-0.003132083	0.01257493	-0.002579751	-0.002802036	-0.003256734
	-0.002803255	-0.003132081	0.05512665	0.01263254	-0.00282391	-0.003303822	0.000858713	-0.01995562
	0.012575	-0.002579381	-0.002823909	-0.003303815	0.06801403	0.02774554	-0.002699053	-0.002938687
	-0.002802036	-0.003256726	0.0008587892	-0.01995518	-0.002699054	-0.002938687	0.05541306	0.01282615
2.1e+08	0.09950471	-0.001155638	-0.004022905	-0.0002129954	0.07756426	0.01274883	-0.004143218	-0.0002464683
	-0.004022904	-0.0002129954	0.08142952	-0.005491717	-0.004194081	-0.0002711749	0.05743753	0.008854677
	0.07756424	0.01274922	-0.004194077	-0.0002711728	0.09991939	-0.001128469	-0.003800767	-0.0001157678
	-0.004143215	-0.0002464661	0.05743752	0.008855051	-0.003800767	-0.0001157676	0.08172035	-0.005308192
2.2e+08	0.08326211	-0.03927527	-0.002977475	0.001918088	0.1114771	-0.04661888	-0.0030161	0.001984946
	-0.002977475	0.001918088	0.0728553	-0.03599824	-0.003072524	0.001998973	0.101327	-0.03879943
	0.1114772	-0.04661846	-0.003072521	0.001998974	0.08344729	-0.03964932	-0.002732625	0.001844807
	-0.003016098	0.001984948	0.101327	-0.038799	-0.002732626	0.001844808	0.07316128	-0.03580758
2.3e+08	0.04397432	-0.03547821	-0.001837238	0.003136495	0.06519942	-0.09849723	-0.001836904	0.003131002
	-0.001837238	0.003136494	0.04309101	-0.03752486	-0.001872896	0.003175768	0.06948249	-0.0970182
	0.06519961	-0.09849689	-0.001872892	0.003175768	0.04368386	-0.03575457	-0.001693972	0.002926373
	-0.001836901	0.003131002	0.06948268	-0.09701784	-0.001693972	0.002926374	0.04342322	-0.0373259
2.4e+08	0.03795148	0.004185669	0.0003409081	0.004461607	0.002828104	-0.0706249	0.0002570804	0.004494706
	0.0003409081	0.004461606	0.03416883	-0.00998465	0.0002518619	0.00455324	0.004847794	-0.08641281
	0.002828329	-0.07062473	0.0002518636	0.004553237	0.03761815	0.004420067	0.0003373993	0.004209354
	0.000257083	0.004494702	0.00484801	-0.08641261	0.0003374001	0.004209354	0.03455057	-0.009788555
2.5e+08	0.07810856	0.02097718	0.003863559	0.003318838	0.01324875	-0.005489313	0.003878105	0.003468819
	0.003863559	0.003318838	0.060385	0.005910548	0.003910625	0.003524686	-0.003476359	-0.02435
	0.01324888	-0.005489231	0.003910623	0.003524683	0.07827102	0.02139951	0.003710027	0.003097494
	0.003878103	0.003468816	-0.003476198	-0.0243499	0.003710027	0.003097494	0.06080038	0.006061684
2.6e+08	0.1076435	-0.0140995	0.004872922	-0.0004062004	0.07843519	0.0003875911	0.00503061	-0.0003755687
	0.004872921	-0.0004061997	0.08465969	-0.01632662	0.005096381	-0.0003510805	0.05298757	-0.001435662
	0.07843528	0.0003876813	0.005096379	-0.0003510812	0.1081407	-0.01409895	0.004589535	-0.0004954771
	0.005030608	-0.0003755685	0.05298767	-0.001435577	0.004589535	-0.0004954767	0.0850645	-0.0161992
2.7e+08	0.08522387	-0.05285304	0.003194491	-0.002818416	0.1033682	-0.06197561	0.003246278	-0.002915928
	0.003194491	-0.002818416	0.07186486	-0.04664099	0.003313698	-0.002940145	0.09087383	-0.05068384
	0.1033683	-0.06197553	0.003313697	-0.002940144	0.08542592	-0.05331934	0.002906557	-0.002695729
	0.003246277	-0.002915928	0.09087393	-0.05068376	0.002906557	-0.002695729	0.07227797	-0.04650439
2.8e+08	0.04364677	-0.04432548	0.001576383	-0.003956116	0.05125899	-0.1063796	0.001567233	-0.00396881
	0.001576383	-0.003956115	0.04104704	-0.04478071	0.001605078	-0.004027614	0.05525432	-0.1036635
	0.0512591	-0.1063796	0.001605077	-0.004027613	0.04328642	-0.0446535	0.001434753	-0.003681567
	0.001567232	-0.003968809	0.05525443	-0.1036634	0.001434753	-0.003681567	0.04149101	-0.04463619
2.9e+08	0.04153454	-0.001700565	-0.001078269	-0.005085665	-0.00587831	-0.07071325	-0.0010005	-0.00513216
	-0.001078268	-0.005085665	0.03489777	-0.01576601	-0.001001325	-0.005202789	-0.005919748	-0.08782131
	-0.005878238	-0.07071326	-0.001001325	-0.005202788	0.04114804	-0.001421504	-0.001036427	-0.004787814
	-0.0010005	-0.005132159	-0.005919671	-0.0878213	-0.001036427	-0.004787814	0.03540202	-0.01563447
3e+08	0.08575189	0.01150414	-0.004969948	-0.003282866	0.01327881	-0.008586533	-0.005005437	-0.003449524
	-0.004969948	-0.003282866	0.06320104	-0.002484277	-0.005050602	-0.003512596	-0.008671932	-0.02751622
	0.01327884	-0.008586544	-0.005050602	-0.003512596	0.08595548	0.01197577	-0.00476051	-0.003044702
	-0.005005436	-0.003449524	-0.008671894	-0.02751623	-0.00476051	-0.003044702	0.06373895	-0.002423169
3.1e+08	0.1131484	-0.02896378	-0.005620445	0.001231531	0.07769573	-0.01186034	-0.005812766	0.001210819
	-0.005620445	0.001231531	0.08561426	-0.02781887	-0.005894173	0.001189175	0.0472623	-0.0102911
	0.07769574	-0.01186034	-0.005894173	0.001189174	0.1137153	-0.02899738	-0.005277127	0.001300448
	-0.005812766	0.001210819	0.04726231	-0.01029111	-0.005277127	0.001300448	0.08612118	-0.02779511
3.2e+08	0.08537101	-0.06806328	-0.003202206	0.003815467	0.09363473	-0.0761918	-0.003263739	0.003947243
	-0.003202206	0.003815466	0.06941293	-0.05784235	-0.003341025	0.003984222	0.07922113	-0.06059577
	0.09363473	-0.0761918	-0.003341025	0.003984222	0.08557721	-0.06861955	-0.002879452	0.003634071
	-0.003263739	0.003947243	0.07922114	-0.06059577	-0.002879452	0.003634071	0.06991783	-0.05780414
3.3e+08	0.04178605	-0.05554438	-0.001094527	0.0047204	0.03666178	-0.1128037	-0.001070793	0.004754954
	-0.001094527	0.0047204	0.03771102	-0.05332129	-0.001107985	0.004829108	0.04039871	-0.1081724
	0.03666178	-0.1128037	-0.001107985	0.004829108	0.04135045	-0.05591958	-0.0009672393	0.004378724
	-0.001070793	0.004754954	0.04039871	-0.1081724	-0.0009672397	0.004378724	0.03825069	-0.05327432
3.4e+08	0.04276826	-0.01046964	0.001951987	0.005535911	-0.01468087	-0.07013524	0.001889898	0.005593477
	0.001951987	0.005535911	0.033557	-0.02319845	0.001899492	0.005675687	-0.01697191	-0.08750834
	-0.01468088	-0.07013523	0.001899491	0.005675688	0.04232734	-0.01014594	0.001859864	0.00519883
	0.001889898	0.005593477	-0.01697192	-0.08750834	0.001859865	0.00519883	0.03416584	-0.02317494
3.5e+08	0.090163	-0.0002901132	0.006085151	0.003027822	0.01265874	-0.01176262	0.006145271	0.003200696
	0.006085151	0.003027822	0.06325006	-0.01189834	0.006205006	0.003269032	-0.01437939	-0.02932039
	0.01265873	-0.01176261	0.006205007	0.003269032	0.0904032	0.0002241747	0.00581496	0.002785117
	0.006145271	0.003200696	-0.01437941	-0.02932038	0.00581496	0.002785117	0.06388958	-0.0119718
3.6e+08	0.1154736	-0.04524571	0.006238691	-0.002243051	0.07541722	-0.02389943	0.006460067	-0.002239528
	0.006238691	-0.002243051	0.08405368	-0.03951866	0.006557555	-0.002223613	0.040662	-0.01764309
	0.0754172	-0.02389942	0.006557555	-0.002223613	0.1160963	-0.04531723	0.005838938	-0.002279405
	0.006460067	-0.002239528	0.04066199	-0.01764308	0.005838938	-0.002279405	0.08463591	-0.03964237
3.7e+08	0.08295634	-0.08451638	0.002986679	-0.004876879	0.08236282	-0.08924207	0.003052678	-0.005044463
	0.002986678	-0.004876879	0.06509886	-0.0692485	0.003138288	-0.005096802	0.06674023	-0.0685439
	0.0823628	-0.08924206	0.003138288	-0.005096802	0.08315427	-0.08515605	0.002638902	-0.004629099
	0.003052678	-0.005044464	0.06674021	-0.06854388	0.002638902	-0.004629099	0.06566556	-0.06934774
3.8e+08	0.03746719	-0.06855096	0.0004009302	-0.005391147	0.02143207	-0.1177905	0.0003569261	-0.005448955
	0.00040093	-0.005391147	0.03254291	-0.06263854	0.0003906279	-0.005539546	0.02522064	-0.1105638
	0.02143206	-0.1177905	0.0003906281	-0.005539546	0.03695248	-0.06896633	0.0003007732	-0.004981694
	0.0003569262	-0.005448956	0.02522062	-0.1105638	0.0003007731	-0.004981694	0.03314866	-0.06272637
3.9e+08	0.0408354	-0.02125486	-0.002928042	-0.005789541	-0.02362554	-0.06886872	-0.002890196	-0.005854228
	-0.002928043	-0.005789541	0.02970815	-0.0315554	-0.002911438	-0.005947101	-0.02801992	-0.08544965
	-0.02362554	-0.06886869	-0.002911438	-0.005947102	0.04033849	-0.02088503	-0.002774631	-0.005421248
	-0.002890197	-0.005854229	-0.02801993	-0.08544962	-0.002774631	-0.005421248	0.03039004	-0.03167759
4e+08	0.09081472	-0.0135093	-0.007171934	-0.00255824	0.01136198	-0.01492539	-0.007258553	-0.002725822
	-0.007171934	-0.00255824	0.06033198	-0.02160131	-0.00733463	-0.002797058	-0.02026677	-0.02972774
	0.01136198	-0.01492536	-0.007334631	-0.002797058	0.09108611	-0.01295598	-0.006837975	-0.002324178
	-0.007258554	-0.002725822	-0.02026677	-0.0297277	-0.006837976	-0.002324178	0.06103827	-0.02184709
4.1e+08	0.1141733	-0.06225368	-0.006700864	0.003418558	0.07162712	-0.03563663	-0.006943139	0.003439037
	-0.006700864	0.003418558	0.0798456	-0.05087603	-0.007056783	0.003431998	0.03354797	-0.02350532
	0.07162712	-0.0356366	-0.007056784	0.003431999	0.1148378	-0.06236313	-0.006250265	0.00341059
	-0.00694314	0.003439037	0.03354797	-0.02350529	-0.006250265	0.00341059	0.08046269	-0.05118311
4.2e+08	0.07736644	-0.1015799	-0.002536846	0.005967989	0.06959756	-0.1010774	-0.002600619	0.006170486
	-0.002536846	0.005967989	0.05865092	-0.08037763	-0.002692519	0.006240747	0.0537671	-0.07459724
	0.06959756	-0.1010774	-0.002692519	0.006240748	0.07754493	-0.1022927	-0.002175223	0.005647902
	-0.002600619	0.006170486	0.05376709	-0.07459721	-0.002175223	0.005647902	0.05923639	-0.08064425
4.3e+08	0.0299735	-0.08252231	0.0004914579	0.005931272	0.005575601	-0.1213301	0.0005606785	0.00601133
	0.0004914586	0.005931272	0.02517618	-0.07210348	0.0005336547	0.006119107	0.01000589	-0.1109156
	0.0055756	-0.12133	0.0005336546	0.006119108	0.02937783	-0.08296872	0.0005518498	0.005455526
	0.0005606796	0.006011331	0.01000588	-0.1109156	0.0005518504	0.005455526	0.02580648	-0.07235384
4.4e+08	0.03516032	-0.03301488	0.00397079	0.005826185	-0.03276712	-0.06687849	0.003964006	0.005892826
	0.003970789	0.005826185	0.02310339	-0.04003369	0.003999879	0.005994953	-0.03879353	-0.08169692
	-0.0327671	-0.06687846	0.00399988	0.005994953	0.03460585	-0.03259607	0.003746275	0.005436211
	0.003964007	0.005892826	-0.03879353	-0.08169689	0.003746275	0.005436212	0.02381479	-0.04032963
4.5e+08	0.08738775	-0.02712418	0.008192259	0.00188139	0.009335946	-0.01797851	0.008305258	0.002031973
	0.008192259	0.001881391	0.05441123	-0.03081363	0.008399201	0.002103284	-0.02604168	-0.02878522
	0.009335968	-0.01797849	0.008399202	0.002103282	0.08768468	-0.02653204	0.007793456	0.001669808
	0.008305258	0.002031973	-0.02604166	-0.02878519	0.007793456	0.001669809	0.05513748	-0.03125854
4.6e+08	0.1089789	-0.07914196	0.006980936	-0.004732133	0.06631345	-0.0469591	0.007233858	-0.004782362
	0.006980936	-0.004732133	0.07300022	-0.06127808	0.00736326	-0.004787575	0.02622679	-0.0279567
	0.06631345	-0.04695909	0.00736326	-0.004787576	0.1096727	-0.07928547	0.006487087	-0.004668788
	0.007233859	-0.004782363	0.0262268	-0.02795668	0.006487087	-0.004668788	0.07360059	-0.06179242
4.7e+08	0.06819007	-0.1184292	0.001845655	-0.007051311	0.05535242	-0.1116103	0.001899685	-0.007285233
	0.001845655	-0.007051311	0.04995381	-0.09066075	0.001995282	-0.00737586	0.04058837	-0.0788732
	0.05535242	-0.1116103	0.00199528	-0.007375861	0.06834033	-0.1192013	0.001482554	-0.006654886
	0.001899685	-0.007285233	0.04058837	-0.07887319	0.001482555	-0.006654886	0.05050484	-0.09111183
4.8e+08	0.01885308	-0.09645109	-0.001564812	-0.006304949	-0.01091645	-0.1233723	-0.001662856	-0.006403966
	-0.001564813	-0.006304949	0.01543999	-0.08100545	-0.001646031	-0.006529224	-0.004997937	-0.1093544
	-0.01091644	-0.1233723	-0.001646031	-0.006529225	0.01817743	-0.0969176	-0.001573213	-0.005766589
	-0.001662857	-0.006403966	-0.004997929	-0.1093544	-0.001573214	-0.005766589	0.01604422	-0.08143293
4.9e+08	0.02546069	-0.04458711	-0.005042065	-0.005628808	-0.04217145	-0.06410173	-0.005070906	-0.005691551
	-0.005042065	-0.005628808	0.01370764	-0.04779069	-0.005124412	-0.005800964	-0.04906348	-0.07636097
	-0.04217142	-0.06410171	-0.005124414	-0.005800963	0.02484805	-0.04411522	-0.004738095	-0.005228026
	-0.005070907	-0.005691551	-0.04906346	-0.07636095	-0.004738095	-0.005228027	0.01439613	-0.0482753
5e+08	0.07982268	-0.04002767	-0.00910731	-0.001008685	0.006505086	-0.02079827	-0.009244634	-0.001131222
