!
!4 port subset of full cascaded channels using these ports:55 37 56 38
# Hz S RI R 50
0	0.01224312	0.0002780339	2.499852e-06	-1.338927e-09	0.001822755	9.194578e-05	2.514701e-06	-1.335276e-09
	2.499852e-06	-1.342584e-09	0.0125608	0.0002809536	2.533535e-06	-1.365519e-09	0.001829216	9.423245e-05
	0.001818979	9.283227e-05	2.533564e-06	-1.364451e-09	0.01126698	0.0002804235	2.528538e-06	-1.35759e-09
	2.514729e-06	-1.334285e-09	0.001824681	9.264004e-05	2.52854e-06	-1.353921e-09	0.01132659	0.0002815991
1e+07	0.05651554	0.02741945	2.591866e-05	2.129288e-05	0.05186401	0.06111689	2.620188e-05	2.082237e-05
	2.591866e-05	2.129288e-05	0.056522	0.02739839	2.578442e-05	2.178238e-05	0.05187301	0.06112049
	0.05186401	0.06111689	2.578442e-05	2.178238e-05	0.05650255	0.0273727	2.589684e-05	2.126444e-05
	2.620188e-05	2.082237e-05	0.05187301	0.06112049	2.589684e-05	2.126444e-05	0.0565222	0.02741793
2e+07	0.07957832	-0.003272279	2.371968e-05	-4.997291e-07	0.1239322	0.02849367	2.360586e-05	-2.06151e-06
	2.37198e-05	-4.998874e-07	0.07957881	-0.003323726	2.39354e-05	8.547267e-07	0.1239422	0.02848668
	0.123954	0.02850062	2.393554e-05	8.528518e-07	0.07955893	-0.00337662	2.368347e-05	-4.797059e-07
	2.360602e-05	-2.063387e-06	0.1239616	0.02849013	2.368337e-05	-4.796354e-07	0.07959721	-0.003331237
3e+07	0.05683969	-0.03190703	-2.868606e-05	1.94771e-05	0.1161258	-0.05043466	-3.007312e-05	1.778441e-05
	-2.868608e-05	1.947709e-05	0.05682364	-0.03197383	-2.754746e-05	2.097635e-05	0.1161152	-0.05043873
	0.1161257	-0.05043474	-2.754746e-05	2.097638e-05	0.05684655	-0.03199247	-2.862006e-05	1.949394e-05
	-3.007312e-05	1.778444e-05	0.1161151	-0.05043855	-2.862004e-05	1.949395e-05	0.05683462	-0.03192482
4e+07	0.02349045	-0.01864858	-2.967448e-05	0.0001184178	0.04068293	-0.06782402	-3.130755e-05	0.0001178576
	-2.967448e-05	0.0001184178	0.02346405	-0.01871821	-2.842062e-05	0.0001192329	0.04066238	-0.06779856
	0.04068561	-0.06782462	-2.842051e-05	0.0001192319	0.02351842	-0.01882989	-2.959788e-05	0.0001182625
	-3.130744e-05	0.0001178566	0.04066487	-0.06779919	-2.959788e-05	0.0001182626	0.02347956	-0.01865687
5e+07	0.0275464	0.01632258	8.739014e-05	0.0001664998	0.005064853	-0.002675364	8.721784e-05	0.0001659787
	8.739016e-05	0.0001664998	0.02753249	0.01624758	8.764915e-05	0.0001676248	0.005075377	-0.00262298
	0.005064941	-0.002676157	8.76478e-05	0.0001676242	0.02750041	0.01604537	8.724886e-05	0.0001662906
	8.721649e-05	0.0001659781	0.005075468	-0.002623729	8.724889e-05	0.0001662906	0.02755108	0.01632738
6e+07	0.06106298	0.02055756	0.0001669366	6.715626e-05	0.05871778	0.04660664	0.0001671288	6.443512e-05
	0.0001669366	6.715624e-05	0.06106162	0.02044568	0.0001674018	7.007265e-05	0.05876669	0.04663608
	0.05871777	0.04660661	0.0001674016	7.007423e-05	0.06090585	0.02028735	0.0001666972	6.716522e-05
	0.0001671286	6.44367e-05	0.05876666	0.04663605	0.0001666972	6.716518e-05	0.06108605	0.02054338
7e+07	0.07290347	-0.008829993	8.59592e-05	-2.272586e-05	0.1218448	0.008092905	8.372372e-05	-2.686488e-05
	8.59592e-05	-2.272586e-05	0.07288082	-0.008985872	8.857571e-05	-1.915884e-05	0.1218816	0.008078562
	0.1218448	0.008092004	8.857573e-05	-1.915933e-05	0.07274268	-0.009017861	8.59294e-05	-2.258136e-05
	8.372375e-05	-2.686538e-05	0.1218817	0.008077656	8.59294e-05	-2.258133e-05	0.07291924	-0.008870437
8e+07	0.04919514	-0.02705347	-2.98869e-05	5.45256e-05	0.105832	-0.06504319	-3.447891e-05	5.218272e-05
	-2.988689e-05	5.452559e-05	0.04913164	-0.02722787	-2.583977e-05	5.631991e-05	0.105817	-0.06505773
	0.1058309	-0.06504372	-2.584001e-05	5.632062e-05	0.04914135	-0.02726008	-2.971424e-05	5.443433e-05
	-3.447915e-05	5.218342e-05	0.1058158	-0.06505827	-2.971425e-05	5.443434e-05	0.04918244	-0.02710248
9e+07	0.02591874	-0.008872316	2.765541e-05	0.0002253044	0.03290831	-0.07360681	2.415959e-05	0.0002255869
	2.765539e-05	0.0002253044	0.0258254	-0.009030967	3.023455e-05	0.0002254667	0.03287269	-0.07355846
	0.03290729	-0.07360644	3.023476e-05	0.0002254678	0.02589449	-0.009248687	2.755329e-05	0.0002248963
	2.41598e-05	0.000225588	0.03287165	-0.07355811	2.755331e-05	0.0002248963	0.0258888	-0.008891984
1e+08	0.0386837	0.01881626	0.0002400329	0.0002241775	0.005498262	-0.008653677	0.0002393404	0.0002235152
	0.0002400328	0.0002241776	0.03860933	0.01867449	0.000240741	0.000226107	0.005526891	-0.008557371
	0.005498065	-0.008653204	0.0002407422	0.0002261072	0.03849821	0.01830119	0.0002395088	0.0002240297
	0.0002393416	0.0002235154	0.005526813	-0.008556836	0.0002395087	0.0002240297	0.03868586	0.01882216
1.1e+08	0.06932372	0.01322074	0.0003034734	2.179932e-05	0.06074258	0.03303375	0.0003020528	1.763276e-05
	0.0003034742	2.179965e-05	0.06927872	0.01303699	0.000306104	2.648124e-05	0.06084088	0.03308274
	0.06074274	0.03303362	0.0003061036	2.648042e-05	0.06894764	0.01277701	0.0003031155	2.210815e-05
	0.0003020527	1.763208e-05	0.06084066	0.03308201	0.000303115	2.2108e-05	0.06936802	0.01319926
1.2e+08	0.07259288	-0.0168123	0.0001387352	-8.235244e-05	0.1170652	-0.009362059	0.0001331276	-8.691428e-05
	0.0001387357	-8.235337e-05	0.07252259	-0.01706247	0.000145094	-7.870651e-05	0.1171426	-0.00939195
	0.1170651	-0.00936227	0.000145093	-7.870602e-05	0.0722308	-0.01709093	0.0001388399	-8.208211e-05
	0.0001331272	-8.691357e-05	0.1171411	-0.009392404	0.00013884	-8.208095e-05	0.07263438	-0.01689065
1.3e+08	0.0462909	-0.02799051	6.964336e-07	5.986341e-05	0.09491145	-0.07754651	-6.895298e-06	5.926917e-05
	6.955076e-07	5.986262e-05	0.0461505	-0.028269	7.441555e-06	5.954495e-05	0.0949047	-0.07758094
	0.09491136	-0.07754641	7.442134e-06	5.954642e-05	0.04609837	-0.02828223	8.863468e-07	5.960912e-05
	-6.894512e-06	5.927078e-05	0.09490317	-0.0775803	8.874804e-07	5.961001e-05	0.04627721	-0.02809263
1.4e+08	0.02915202	-0.005612186	0.0001255389	0.0002562244	0.02448014	-0.07903425	0.0001210781	0.000258609
	0.0001255383	0.0002562252	0.02895203	-0.005853423	0.0001285165	0.0002545988	0.02444058	-0.07897633
	0.02448039	-0.07903405	0.0001285178	0.0002545984	0.02899153	-0.006134906	0.0001250886	0.0002557454
	0.0001210803	0.0002586096	0.02443985	-0.0789754	0.0001250901	0.0002557456	0.02909747	-0.005666135
1.5e+08	0.04796869	0.01729887	0.0003823899	0.0001835942	0.003933654	-0.01469804	0.0003813139	0.0001833526
	0.0003823905	0.0001835945	0.04779246	0.017108	0.0003835497	0.0001859218	0.003986858	-0.01457234
	0.003934114	-0.01469811	0.0003835495	0.0001859207	0.04757081	0.01661396	0.0003815615	0.0001838032
	0.0003813154	0.0001833515	0.003986463	-0.01457183	0.0003815627	0.0001838029	0.04795956	0.01729657
1.6e+08	0.0763397	0.004599064	0.0003935547	-8.416075e-05	0.06004365	0.02037007	0.0003901189	-8.850796e-05
	0.000393555	-8.416135e-05	0.0762151	0.004366587	0.0003989304	-7.897799e-05	0.06019596	0.02042486
	0.06004393	0.02036977	0.0003989296	-7.897783e-05	0.0756772	0.004044715	0.0003933014	-8.345018e-05
	0.0003901191	-8.850872e-05	0.06019531	0.02042524	0.0003933022	-8.345051e-05	0.07639612	0.004559153
1.7e+08	0.0730356	-0.0257956	0.0001627048	-0.0001672907	0.110076	-0.02494153	0.0001540719	-0.0001703278
	0.0001627044	-0.0001672912	0.07288036	-0.02611139	0.0001725318	-0.0001655817	0.1101967	-0.02500108
	0.1100761	-0.02494179	0.0001725318	-0.0001655809	0.07239046	-0.02608751	0.0001630494	-0.000166947
	0.0001540722	-0.0001703275	0.110196	-0.02500037	0.0001630501	-0.0001669471	0.07308057	-0.0259122
1.8e+08	0.0447749	-0.03157365	2.983738e-05	2.972143e-05	0.08277948	-0.08821493	2.05671e-05	3.233223e-05
	2.983681e-05	2.97216e-05	0.04452703	-0.03192101	3.795864e-05	2.583506e-05	0.08278247	-0.08828278
	0.08277954	-0.08821504	3.79594e-05	2.583532e-05	0.04437441	-0.03184744	3.000376e-05	2.932781e-05
	2.05682e-05	3.233244e-05	0.08278216	-0.08828186	3.000466e-05	2.932757e-05	0.04474688	-0.03171346
1.9e+08	0.03229341	-0.006192831	0.0002100761	0.0002228952	0.01509244	-0.08344668	0.0002059207	0.0002278445
	0.0002100762	0.0002228957	0.03196353	-0.006485686	0.0002122496	0.0002190937	0.01505032	-0.08339344
	0.01509259	-0.08344681	0.00021225	0.0002190931	0.03195539	-0.006756355	0.000209302	0.000222521
	0.0002059219	0.0002278438	0.01505037	-0.08339272	0.0002093028	0.0002225205	0.03221937	-0.006271395
2e+08	0.05543157	0.01284644	0.0004748425	8.509468e-05	0.000781652	-0.02009452	0.000473903	8.55831e-05
	0.0004748428	8.50946e-05	0.05512665	0.01263254	0.0004760955	8.751984e-05	0.000858713	-0.01995562
	0.0007817573	-0.02009474	0.0004760951	8.751946e-05	0.05478889	0.01208122	0.0004739079	8.579571e-05
	0.0004739035	8.558194e-05	0.0008587892	-0.01995518	0.0004739084	8.5795e-05	0.05541306	0.01282615
2.1e+08	0.08166413	-0.005241592	0.0004261692	-0.0002131022	0.05723599	0.008809112	0.0004211335	-0.0002167081
	0.0004261692	-0.0002131026	0.08142952	-0.005491717	0.0004340054	-0.0002084432	0.05743753	0.008854677
	0.05723598	0.008808881	0.0004340051	-0.0002084429	0.08067913	-0.005817783	0.0004262275	-0.0002120299
	0.0004211333	-0.0002167087	0.05743752	0.008855051	0.0004262277	-0.0002120305	0.08172035	-0.005308192
2.2e+08	0.07311931	-0.03565097	0.000152071	-0.0002595582	0.1011681	-0.03869935	0.0001414981	-0.0002600025
	0.0001520706	-0.0002595583	0.0728553	-0.03599824	0.0001643021	-0.000260955	0.101327	-0.03879943
	0.1011681	-0.03869949	0.0001643023	-0.0002609546	0.07216362	-0.03586419	0.0001527205	-0.0002592306
	0.0001414981	-0.0002600026	0.101327	-0.038799	0.0001527207	-0.0002592311	0.07316128	-0.03580758
2.3e+08	0.04346652	-0.03713872	3.821881e-05	-2.237688e-05	0.06947112	-0.09690661	2.875526e-05	-1.612955e-05
	3.821857e-05	-2.237665e-05	0.04309101	-0.03752486	4.623227e-05	-3.025935e-05	0.06948249	-0.0970182
	0.0694711	-0.09690668	4.623268e-05	-3.025944e-05	0.04283587	-0.03730562	3.836203e-05	-2.288855e-05
	2.875556e-05	-1.612982e-05	0.06948268	-0.09701784	3.836215e-05	-2.288896e-05	0.04342322	-0.0373259
2.4e+08	0.0346526	-0.009667277	0.0002583069	0.0001542494	0.004893516	-0.08644602	0.0002555651	0.0001616098
	0.000258307	0.0001542496	0.03416883	-0.00998465	0.0002586802	0.0001484688	0.004847794	-0.08641281
	0.004893513	-0.0864461	0.0002586802	0.0001484685	0.03411555	-0.01018051	0.0002573143	0.0001540784
	0.0002555653	0.0001616092	0.00484801	-0.08641261	0.0002573144	0.000154078	0.03455057	-0.009788555
2.5e+08	0.06084783	0.006115135	0.0005113899	-3.389344e-05	-0.00357014	-0.02448457	0.0005111675	-3.26913e-05
	0.00051139	-3.389354e-05	0.060385	0.005910548	0.0005123356	-3.142329e-05	-0.003476359	-0.02435
	-0.003570156	-0.02448466	0.0005123353	-3.142337e-05	0.05994534	0.005366679	0.0005105574	-3.270021e-05
	0.0005111673	-3.269184e-05	-0.003476198	-0.0243499	0.0005105573	-3.270057e-05	0.06080038	0.006061684
2.6e+08	0.08503092	-0.01609964	0.0004085733	-0.0003390148	0.05274856	-0.001458802	0.0004026165	-0.0003414693
	0.0004085732	-0.0003390149	0.08465969	-0.01632662	0.0004182855	-0.0003354503	0.05298757	-0.001435662
	0.0527485	-0.001458865	0.0004182855	-0.0003354501	0.08371842	-0.01660099	0.0004090892	-0.0003377037
	0.0004026162	-0.0003414695	0.05298767	-0.001435577	0.0004090891	-0.0003377039	0.0850645	-0.0161992
2.7e+08	0.07225753	-0.04630596	0.0001100359	-0.0003452027	0.09068713	-0.05053494	9.867101e-05	-0.0003427327
	0.0001100357	-0.0003452027	0.07186486	-0.04664099	0.00012352	-0.000350142	0.09087383	-0.05068384
	0.09068709	-0.05053495	0.0001235202	-0.0003501419	0.07098955	-0.0463475	0.0001110193	-0.0003449976
	9.867092e-05	-0.0003427327	0.09087393	-0.05068376	0.0001110192	-0.0003449977	0.07227797	-0.04650439
2.8e+08	0.04156542	-0.0443979	2.037687e-05	-8.062646e-05	0.05524062	-0.1034991	1.194464e-05	-7.094433e-05
	2.037684e-05	-8.062634e-05	0.04104704	-0.04478071	2.707804e-05	-9.232441e-05	0.05525432	-0.1036635
	0.0552406	-0.1034991	2.707814e-05	-9.232451e-05	0.04070312	-0.04436152	2.051948e-05	-8.12625e-05
	1.194466e-05	-7.094441e-05	0.05525443	-0.1036634	2.051942e-05	-8.12626e-05	0.04149101	-0.04463619
2.9e+08	0.03555112	-0.01546338	0.0002674713	7.515058e-05	-0.005863262	-0.08782	0.0002669616	8.444629e-05
	0.0002674714	7.515061e-05	0.03489777	-0.01576601	0.0002653498	6.78308e-05	-0.005919748	-0.08782131
	-0.005863269	-0.08782001	0.0002653497	6.78307e-05	0.03482075	-0.01582298	0.0002663809	7.518996e-05
	0.0002669616	8.444614e-05	-0.005919671	-0.0878213	0.0002663808	7.518987e-05	0.03540202	-0.01563447
3e+08	0.06384143	-0.002331618	0.0005005942	-0.0001492533	-0.008768017	-0.02763132	0.0005015929	-0.0001475948
	0.0005005942	-0.0001492533	0.06320104	-0.002484277	0.0005008582	-0.000146634	-0.008671932	-0.02751622
	-0.008768028	-0.02763133	0.0005008581	-0.000146634	0.06269723	-0.002958569	0.0005000174	-0.0001476623
	0.0005015928	-0.0001475949	-0.008671894	-0.02751623	0.0005000173	-0.0001476623	0.06373895	-0.002423169
3.1e+08	0.08613917	-0.02766571	0.0003528385	-0.0004477765	0.0470042	-0.01028271	0.0003466167	-0.0004490734
	0.0003528385	-0.0004477765	0.08561426	-0.02781887	0.0003637958	-0.0004455087	0.0472623	-0.0102911
	0.04700419	-0.01028272	0.0003637957	-0.0004455087	0.08452675	-0.0279928	0.0003538831	-0.0004463853
	0.0003466166	-0.0004490734	0.04726231	-0.01029111	0.0003538831	-0.0004463853	0.08612118	-0.02779511
3.2e+08	0.06994346	-0.0575734	4.29611e-05	-0.0004153772	0.07902247	-0.0603943	3.175632e-05	-0.0004101441
	4.296109e-05	-0.0004153771	0.06941293	-0.05784235	5.670255e-05	-0.0004238356	0.07922113	-0.06059577
	0.07902247	-0.0603943	5.670257e-05	-0.0004238356	0.06839294	-0.05734853	4.426816e-05	-0.0004154078
	3.175633e-05	-0.0004101441	0.07922114	-0.06059577	4.426815e-05	-0.0004154078	0.06991783	-0.05780414
3.3e+08	0.03837507	-0.05299332	-2.152589e-05	-0.0001327893	0.0403939	-0.1079508	-2.804166e-05	-0.0001202008
	-2.15259e-05	-0.0001327893	0.03771102	-0.05332129	-1.702496e-05	-0.0001478289	0.04039871	-0.1081724
	0.0403939	-0.1079508	-1.702498e-05	-0.000147829	0.03731275	-0.05265622	-2.13725e-05	-0.0001335852
	-2.804167e-05	-0.0001202008	0.04039871	-0.1081724	-2.137249e-05	-0.0001335852	0.03825069	-0.05327432
3.4e+08	0.03438219	-0.02295751	0.0002435537	2.00703e-06	-0.01689223	-0.08746282	0.0002458183	1.261328e-05
	0.0002435536	2.007041e-06	0.033557	-0.02319845	0.0002384714	-6.318665e-06	-0.01697191	-0.08750834
	-0.01689223	-0.08746283	0.0002384714	-6.318655e-06	0.03349951	-0.02306241	0.0002424529	2.203659e-06
	0.0002458182	1.261331e-05	-0.01697192	-0.08750834	0.000242453	2.203664e-06	0.03416584	-0.02317494
3.5e+08	0.06407465	-0.01184664	0.0004543886	-0.0002478881	-0.01445808	-0.02940658	0.0004569743	-0.0002461888
	0.0004543886	-0.0002478881	0.06325006	-0.01189834	0.0004536537	-0.0002448901	-0.01437939	-0.02932039
	-0.01445807	-0.02940658	0.0004536538	-0.0002448901	0.06274161	-0.01225386	0.0004541481	-0.0002460352
	0.0004569744	-0.0002461888	-0.01437941	-0.02932038	0.0004541482	-0.0002460352	0.06388958	-0.0119718
3.6e+08	0.08473628	-0.03949648	0.0002703124	-0.0005326598	0.04040774	-0.01760076	0.0002643316	-0.0005330528
	0.0002703124	-0.0005326598	0.08405368	-0.03951866	0.0002819606	-0.0005316281	0.040662	-0.01764309
	0.04040775	-0.01760077	0.0002819606	-0.0005316281	0.08288481	-0.03955871	0.0002718888	-0.0005313482
	0.0002643316	-0.0005330529	0.04066199	-0.01764308	0.0002718888	-0.0005313483	0.08463591	-0.03964237
3.7e+08	0.06576246	-0.06910554	-4.225483e-05	-0.0004648779	0.06654903	-0.06829309	-5.260904e-05	-0.0004572886
	-4.225484e-05	-0.000464878	0.06509886	-0.0692485	-2.903777e-05	-0.0004765691	0.06674023	-0.0685439
	0.06654904	-0.06829311	-2.903779e-05	-0.0004765691	0.0639919	-0.06853025	-4.067259e-05	-0.00046525
	-5.260906e-05	-0.0004572887	0.06674021	-0.06854388	-4.067257e-05	-0.0004652501	0.06566556	-0.06934774
3.8e+08	0.03334086	-0.0624222	-8.211465e-05	-0.0001707831	0.02523887	-0.1102876	-8.613703e-05	-0.0001559593
	-8.211468e-05	-0.0001707831	0.03254291	-0.06263854	-8.043483e-05	-0.0001885573	0.02522064	-0.1105638
	0.02523888	-0.1102876	-8.043485e-05	-0.0001885573	0.03214224	-0.06169976	-8.196512e-05	-0.0001717867
	-8.613705e-05	-0.0001559593	0.02522062	-0.1105638	-8.196509e-05	-0.0001717867	0.03314866	-0.06272637
3.9e+08	0.03069227	-0.03142748	0.0001950225	-5.563232e-05	-0.0279021	-0.08535735	0.0002003653	-4.439467e-05
	0.0001950225	-5.56323e-05	0.02970815	-0.0315554	0.0001866911	-6.43913e-05	-0.02801992	-0.08544965
	-0.0279021	-0.08535736	0.0001866911	-6.439128e-05	0.02972968	-0.03119158	0.0001939534	-5.535747e-05
	0.0002003653	-4.439464e-05	-0.02801993	-0.08544962	0.0001939535	-5.535749e-05	0.03039004	-0.03167759
4e+08	0.06133213	-0.02170306	0.0003839234	-0.0003234215	-0.02030609	-0.02978312	0.0003883023	-0.0003221809
	0.0003839234	-0.0003234215	0.06033198	-0.02160131	0.0003819584	-0.0003197243	-0.02026677	-0.02972774
	-0.02030608	-0.02978312	0.0003819584	-0.0003197243	0.0598934	-0.02180959	0.0003840341	-0.0003214485
	0.0003883024	-0.000322181	-0.02026677	-0.0297277	0.0003840341	-0.0003214486	0.06103827	-0.02184709
4.1e+08	0.08067433	-0.05104512	0.0001704822	-0.000590833	0.03332196	-0.02343477	0.0001650625	-0.0005907155
	0.0001704822	-0.000590833	0.0798456	-0.05087603	0.0001823937	-0.000590809	0.03354797	-0.02350532
	0.03332198	-0.02343478	0.0001823937	-0.000590809	0.07867374	-0.05077094	0.0001725395	-0.0005897411
	0.0001650625	-0.0005907156	0.03354797	-0.02350529	0.0001725395	-0.0005897412	0.08046269	-0.05118311
4.2e+08	0.0594266	-0.08042296	-0.0001389754	-0.000490835	0.05360332	-0.07430853	-0.0001480376	-0.0004814101
	-0.0001389754	-0.000490835	0.05865092	-0.08037763	-0.000126856	-0.0005053331	0.0537671	-0.07459724
	0.05360332	-0.07430854	-0.000126856	-0.0005053332	0.05752634	-0.0794342	-0.000137198	-0.0004916357
	-0.0001480377	-0.0004814101	0.05376709	-0.07459721	-0.000137198	-0.0004916358	0.05923639	-0.08064425
4.3e+08	0.02607982	-0.07205722	-0.000154997	-0.0001897916	0.01006122	-0.1105954	-0.0001562034	-0.0001734434
	-0.000154997	-0.0001897916	0.02517618	-0.07210348	-0.0001565452	-0.0002096409	0.01000589	-0.1109156
	0.01006122	-0.1105954	-0.0001565451	-0.0002096409	0.02483471	-0.07088748	-0.0001548943	-0.0001910479
	-0.0001562033	-0.0001734433	0.01000588	-0.1109156	-0.0001548943	-0.0001910479	0.02580648	-0.07235384
4.4e+08	0.02421634	-0.04007113	0.0001303771	-9.275354e-05	-0.03862334	-0.08156334	0.0001389015	-8.156185e-05
	0.0001303771	-9.275352e-05	0.02310339	-0.04003369	0.0001186553	-0.0001013609	-0.03879353	-0.08169692
	-0.03862334	-0.08156334	0.0001186553	-0.0001013609	0.02327108	-0.03943198	0.0001293385	-9.248043e-05
	0.0001389016	-8.156189e-05	-0.03879353	-0.08169689	0.0001293385	-9.248048e-05	0.02381479	-0.04032963
4.5e+08	0.05556073	-0.03112101	0.0002987101	-0.0003732295	-0.02602077	-0.02881594	0.0003049322	-0.0003729723
	0.0002987101	-0.0003732295	0.05441123	-0.03081363	0.0002953836	-0.0003684566	-0.02604168	-0.02878522
	-0.02602077	-0.02881595	0.0002953836	-0.0003684567	0.05412335	-0.03087131	0.0002991351	-0.000371263
	0.0003049322	-0.0003729724	-0.02604166	-0.02878519	0.0002991351	-0.0003712631	0.05513748	-0.03125854
4.6e+08	0.07394592	-0.06169757	6.125152e-05	-0.0006215123	0.02605162	-0.02787199	5.653334e-05	-0.0006213315
	6.125151e-05	-0.0006215123	0.07300022	-0.06127808	7.313564e-05	-0.0006221718	0.02622679	-0.0279567
	0.02605162	-0.02787199	7.313565e-05	-0.0006221719	0.07190824	-0.06104255	6.369944e-05	-0.0006207495
	5.653331e-05	-0.0006213316	0.0262268	-0.02795668	6.369941e-05	-0.0006207495	0.07360059	-0.06179242
4.7e+08	0.0508027	-0.09095456	-0.0002409507	-0.0004919559	0.0404692	-0.07856615	-0.0002484923	-0.0004812428
	-0.0002409508	-0.0004919559	0.04995381	-0.09066075	-0.0002303197	-0.0005087717	0.04058837	-0.0788732
	0.04046919	-0.07856616	-0.0002303197	-0.0005087717	0.04888347	-0.08951778	-0.0002390822	-0.0004932462
	-0.0002484923	-0.0004812428	0.04058837	-0.07887319	-0.0002390822	-0.0004932462	0.05050484	-0.09111183
4.8e+08	0.01640322	-0.08118486	-0.0002336641	-0.0001873766	-0.00489477	-0.1090088	-0.0002319346	-0.0001701963
	-0.0002336641	-0.0001873766	0.01543999	-0.08100545	-0.0002386758	-0.0002086312	-0.004997937	-0.1093544
	-0.004894776	-0.1090088	-0.0002386758	-0.0002086312	0.01521971	-0.07953542	-0.0002336758	-0.0001889153
	-0.0002319346	-0.0001701963	-0.004997929	-0.1093544	-0.0002336757	-0.0001889154	0.01604422	-0.08143293
