!
!4 port subset of full cascaded channels using these ports:3 37 4 38
# Hz S RI R 50
0	0.01119291	0.0002780403	-4.430059e-06	2.400424e-09	0.00194167	9.194495e-05	-7.845066e-06	3.723332e-09
	-4.430013e-06	2.407911e-09	0.0125608	0.0002809536	-2.250803e-06	1.47023e-09	0.001829216	9.423245e-05
	0.001945613	9.283086e-05	-2.250862e-06	1.468081e-09	0.0127307	0.0002802103	-4.784968e-06	2.545588e-09
	-7.845088e-06	3.721651e-09	0.001824681	9.264004e-05	-4.784942e-06	2.540378e-09	0.01132659	0.0002815991
1e+07	0.05729849	0.02797846	-1.89238e-05	-7.862603e-06	0.0526923	0.06168163	-4.060872e-05	-2.491624e-05
	-1.89238e-05	-7.862603e-06	0.056522	0.02739839	-6.685562e-06	4.147429e-07	0.05187301	0.06112049
	0.0526923	0.06168163	-6.685562e-06	4.147429e-07	0.05729682	0.02795344	-2.708167e-05	-1.626535e-05
	-4.060872e-05	-2.491624e-05	0.05187301	0.06112049	-2.708167e-05	-1.626535e-05	0.0565222	0.02741793
2e+07	0.08025947	-0.003501028	-2.870864e-05	5.828786e-06	0.1247828	0.02796616	-7.850032e-05	1.497656e-06
	-2.87097e-05	5.828333e-06	0.07957881	-0.003323726	-3.983497e-06	6.370841e-06	0.1239422	0.02848668
	0.1247924	0.02797332	-3.98291e-06	6.371229e-06	0.08023011	-0.003521133	-5.049353e-05	1.907279e-06
	-7.849937e-05	1.498048e-06	0.1239616	0.02849013	-5.049354e-05	1.906658e-06	0.07959721	-0.003331237
3e+07	0.05565685	-0.0317378	-3.560962e-05	2.454786e-05	0.1147521	-0.05092344	-0.0001011678	6.15772e-05
	-3.560962e-05	2.454782e-05	0.05682364	-0.03197383	-3.476501e-06	6.972701e-06	0.1161152	-0.05043873
	0.1147522	-0.0509236	-3.4765e-06	6.972722e-06	0.05564602	-0.0317994	-6.588837e-05	3.899368e-05
	-0.0001011678	6.157721e-05	0.1161151	-0.05043855	-6.588837e-05	3.899368e-05	0.05683462	-0.03192482
4e+07	0.02171883	-0.01539265	-1.941763e-05	6.892348e-05	0.03820662	-0.06489421	-5.73588e-05	0.0001650147
	-1.941757e-05	6.892433e-05	0.02346405	-0.01871821	2.456e-06	2.025992e-05	0.04066238	-0.06779856
	0.03820935	-0.06489212	2.456051e-06	2.0259e-05	0.0217051	-0.01548797	-3.926395e-05	0.0001104311
	-5.735853e-05	0.0001650141	0.04066487	-0.06779919	-3.926431e-05	0.0001104318	0.02347956	-0.01865687
5e+07	0.02905065	0.02170679	5.576871e-05	7.557582e-05	0.006205651	0.0030484	9.754293e-05	0.0001936468
	5.576951e-05	7.557619e-05	0.02753249	0.01624758	3.371603e-05	1.135163e-05	0.005075377	-0.00262298
	0.006206335	0.003047709	3.371485e-05	1.135125e-05	0.02901761	0.02158484	7.035027e-05	0.0001300743
	9.754189e-05	0.0001936465	0.005075468	-0.002623729	7.035115e-05	0.0001300749	0.02755108	0.01632738
6e+07	0.06553119	0.0233265	9.310202e-05	5.800954e-06	0.06377502	0.04939634	0.0002100377	8.019729e-05
	9.310282e-05	5.800884e-06	0.06106162	0.02044568	2.844731e-05	-3.051973e-05	0.05876669	0.04663608
	0.06377449	0.04939759	2.844675e-05	-3.051935e-05	0.06547601	0.02319133	0.0001441125	4.397495e-05
	0.0002100374	8.019864e-05	0.05876666	0.04663605	0.0001441131	4.397496e-05	0.06108605	0.02054338
7e+07	0.07528238	-0.00947863	6.976117e-05	-4.13764e-05	0.1247519	0.006168011	0.0002252067	-4.566702e-05
	6.976129e-05	-4.137678e-05	0.07288082	-0.008985872	-7.153121e-06	-3.436428e-05	0.1218816	0.008078562
	0.1247522	0.006168723	-7.153241e-06	-3.436414e-05	0.07521359	-0.009617626	0.0001417566	-3.914365e-05
	0.0002252075	-4.566707e-05	0.1218817	0.008077656	0.0001417567	-3.914361e-05	0.07291924	-0.008870437
8e+07	0.04697221	-0.02620527	5.888137e-05	-7.690584e-05	0.1026813	-0.06589456	0.0002068657	-0.0001883538
	5.888112e-05	-7.690519e-05	0.04913164	-0.02722787	-1.334924e-05	-2.355384e-05	0.105817	-0.06505773
	0.1026807	-0.06589366	-1.334918e-05	-2.355455e-05	0.04690717	-0.02635686	0.0001292555	-0.0001244355
	0.0002068656	-0.0001883536	0.1058158	-0.06505827	0.0001292556	-0.0001244345	0.04918244	-0.02710248
9e+07	0.02353685	-0.001853858	-8.641652e-06	-0.0001417631	0.02867956	-0.06691152	4.050016e-05	-0.0003533672
	-8.640759e-06	-0.0001417619	0.0258254	-0.009030967	-3.911202e-05	-3.466069e-05	0.03287269	-0.07355846
	0.02867943	-0.06691053	-3.911314e-05	-3.46619e-05	0.0234622	-0.002043204	1.962688e-05	-0.0002365787
	4.050047e-05	-0.0003533676	0.03287165	-0.07355811	1.962813e-05	-0.0002365777	0.0258888	-0.008891984
1e+08	0.0428904	0.02840526	-0.0001416365	-9.03792e-05	0.009073177	0.001955097	-0.0002526593	-0.0002962585
	-0.0001416357	-9.037897e-05	0.03860933	0.01867449	-8.354312e-05	2.238016e-05	0.005526891	-0.008557371
	0.009073219	0.001955305	-8.354414e-05	2.238018e-05	0.04277921	0.02818832	-0.000185456	-0.0001885252
	-0.0002526603	-0.0002962585	0.005526813	-0.008556836	-0.0001854553	-0.0001885249	0.03868586	0.01882216
1.1e+08	0.07782978	0.01733146	-0.0001424056	4.99678e-05	0.07049502	0.03713952	-0.000358559	-4.610305e-05
	-0.0001424064	4.996672e-05	0.06927872	0.01303699	-2.283244e-05	9.606125e-05	0.06084088	0.03308274
	0.07049532	0.0371395	-2.283246e-05	9.60615e-05	0.0776786	0.01711053	-0.0002400755	-2.3033e-06
	-0.0003585634	-4.610544e-05	0.06084066	0.03308201	-0.0002400779	-2.305123e-06	0.06936802	0.01319926
1.2e+08	0.07700232	-0.01806929	-6.773009e-05	9.286604e-05	0.1221919	-0.01296431	-0.0003145554	0.0001335195
	-6.773148e-05	9.286556e-05	0.07252259	-0.01706247	5.45917e-05	6.33386e-05	0.1171426	-0.00939195
	0.1221922	-0.01296448	5.459172e-05	6.333946e-05	0.07683288	-0.01827952	-0.0001847469	0.0001055471
	-0.0003145639	0.0001335213	0.1171411	-0.009392404	-0.0001847527	0.0001055477	0.07263438	-0.01689065
1.3e+08	0.04386469	-0.02646894	-4.397283e-05	0.0001207295	0.09059194	-0.07859736	-0.0002484862	0.0003226024
	-4.39754e-05	0.0001207302	0.0461505	-0.028269	5.459207e-05	2.233932e-05	0.0949047	-0.07758094
	0.09059215	-0.07859749	5.459495e-05	2.234002e-05	0.04369634	-0.02668772	-0.0001433249	0.0002095586
	-0.0002484928	0.0003226115	0.09490317	-0.0775803	-0.0001433313	0.0002095644	0.04627721	-0.02809263
1.4e+08	0.02736532	0.004692857	6.606718e-05	0.0001829649	0.01972402	-0.06875268	3.823208e-05	0.0005078155
	6.606679e-05	0.0001829695	0.02895203	-0.005853423	8.732372e-05	1.851302e-05	0.02444058	-0.07897633
	0.01972433	-0.06875277	8.732576e-05	1.85082e-05	0.02717731	0.004441793	4.407329e-05	0.0003312104
	3.8234e-05	0.0005078289	0.02443985	-0.0789754	4.407219e-05	0.0003312222	0.02909747	-0.005666135
1.5e+08	0.05575118	0.0300838	0.0002236582	5.662944e-05	0.01101491	-0.0001157654	0.0004277916	0.0003262742
	0.0002236629	5.663097e-05	0.04779246	0.017108	0.0001167755	-9.169019e-05	0.003986858	-0.01457234
	0.0110153	-0.0001159513	0.0001167712	-9.16935e-05	0.0555173	0.02981481	0.0003082686	0.0001884895
	0.0004278033	0.0003262819	0.003986463	-0.01457183	0.0003082778	0.0001884988	0.04795956	0.01729657
1.6e+08	0.08935906	0.009124479	0.0001524566	-0.0001319412	0.07487597	0.02480036	0.000469515	-4.669359e-05
	0.0001524594	-0.0001319439	0.0762151	0.004366587	-2.301476e-05	-0.0001707266	0.06019596	0.02042486
	0.07487626	0.02480002	-2.301831e-05	-0.0001707248	0.089074	0.008861467	0.0002987337	-8.008204e-05
	0.0004695277	-4.669606e-05	0.06019531	0.02042524	0.0002987457	-8.00826e-05	0.07639612	0.004559153
1.7e+08	0.07998251	-0.02822569	2.609818e-05	-0.0001344866	0.1175678	-0.0306888	0.0003468134	-0.0002358192
	2.609847e-05	-0.0001344894	0.07288036	-0.02611139	-0.0001327627	-6.932475e-05	0.1101967	-0.02500108
	0.1175679	-0.03068914	-0.0001327635	-6.93224e-05	0.0796663	-0.02845399	0.0001812009	-0.0001736747
	0.000346821	-0.0002358287	0.110196	-0.02500037	0.0001812084	-0.0001736819	0.07308057	-0.0259122
1.8e+08	0.0430268	-0.02987827	9.005793e-06	-0.0001361497	0.07785347	-0.08960044	0.0002432679	-0.0004378771
	9.005043e-06	-0.0001361524	0.04452703	-0.03192101	-0.0001014887	1.28445e-05	0.08278247	-0.08828278
	0.07785352	-0.08960066	-0.0001014888	1.284657e-05	0.04272317	-0.03009212	0.0001256113	-0.0002715893
	0.0002432676	-0.000437889	0.08278216	-0.08828186	0.0001256128	-0.0002715987	0.04474688	-0.03171346
1.9e+08	0.0322192	0.006506395	-0.0001231924	-0.0001915546	0.01083657	-0.07006929	-0.0001446689	-0.0006218857
	-0.0001231954	-0.0001915569	0.03196353	-0.006485686	-0.0001198112	2.602563e-05	0.01505032	-0.08339344
	0.01083666	-0.07006948	-0.0001198096	2.602806e-05	0.03190511	0.006259274	-0.0001205137	-0.0003907684
	-0.0001446773	-0.0006218944	0.01505037	-0.08339272	-0.0001205187	-0.0003907767	0.03221937	-0.006271395
2e+08	0.06761349	0.02750789	-0.0002835735	3.656747e-06	0.01219082	-0.002634911	-0.0005986836	-0.0003050096
	-0.0002835775	3.657728e-06	0.05512665	0.01263254	-0.0001184645	0.0001740067	0.000858713	-0.01995562
	0.01219089	-0.002635177	-0.0001184612	0.0001740067	0.06724633	0.02724368	-0.0004179676	-0.0001512598
	-0.0005986949	-0.0003050094	0.0008587892	-0.01995518	-0.0004179769	-0.0001512617	0.05541306	0.01282615
2.1e+08	0.09948998	-0.001526457	-0.0001269916	0.0002167193	0.07735864	0.01243681	-0.0005420747	0.0001729705
	-0.0001269931	0.0002167227	0.08142952	-0.005491717	0.0001027609	0.0002319928	0.05743753	0.008854677
	0.07735861	0.01243659	0.0001027623	0.0002319906	0.09906081	-0.001775271	-0.000321577	0.0001792245
	-0.0005420815	0.0001729778	0.05743752	0.008855051	-0.0003215834	0.0001792294	0.08172035	-0.005308192
2.2e+08	0.08280921	-0.04011687	4.07478e-05	0.0001535572	0.1110336	-0.04722207	-0.0003326066	0.0003361252
	4.074869e-05	0.0001535596	0.0728553	-0.03599824	0.0002251536	4.163012e-05	0.101327	-0.03879943
	0.1110335	-0.04722222	0.0002251531	4.162856e-05	0.08234278	-0.04030917	-0.0001436758	0.0002292221
	-0.0003326066	0.0003361336	0.101327	-0.038799	-0.0001436769	0.0002292284	0.07316128	-0.03580758
2.3e+08	0.04285509	-0.03606199	2.802627e-05	0.0001208885	0.06435278	-0.09897828	-0.0002083308	0.0005255212
	2.802778e-05	0.0001208899	0.04309101	-0.03752486	0.0001354476	-8.091743e-05	0.06948249	-0.0970182
	0.06435272	-0.09897836	0.0001354469	-8.091821e-05	0.04241301	-0.0362225	-9.35543e-05	0.0003055103
	-0.0002083263	0.0005255266	0.06948268	-0.09701784	-9.355182e-05	0.0003055148	0.04342322	-0.0373259
2.4e+08	0.0368428	0.004332192	0.0001640262	0.0001785794	0.001940336	-0.07069168	0.0002586731	0.0007012332
	0.0001640283	0.0001785797	0.03416883	-0.00998465	0.0001225435	-8.49793e-05	0.004847794	-0.08641281
	0.001940318	-0.07069177	0.0001225424	-8.497983e-05	0.0363959	0.004140257	0.0001921764	0.0004238322
	0.0002586794	0.0007012341	0.00484801	-0.08641261	0.0001921808	0.0004238341	0.03455057	-0.009788555
2.5e+08	0.07768022	0.02131072	0.0003194025	-7.159406e-05	0.01271713	-0.005409648	0.0007572945	0.000250393
	0.0003194042	-7.159553e-05	0.060385	0.005910548	8.969253e-05	-0.0002495989	-0.003476359	-0.02435
	0.01271709	-0.005409734	8.969133e-05	-0.0002495982	0.07717913	0.02110976	0.0005100056	9.495537e-05
	0.0007572991	0.0002503896	-0.003476198	-0.0243499	0.0005100096	9.495365e-05	0.06080038	0.006061684
2.6e+08	0.1075656	-0.01438986	7.677078e-05	-0.0002921109	0.07811646	0.0001386951	0.0005822776	-0.0003182734
	7.677059e-05	-0.0002921128	0.08465969	-0.01632662	-0.0002028811	-0.0002685517	0.05298757	-0.001435662
	0.07811639	0.0001386457	-0.0002028811	-0.0002685506	0.1070019	-0.01456931	0.0003171065	-0.0002821693
	0.0005822781	-0.0003182779	0.05298767	-0.001435577	0.0003171076	-0.0002821726	0.0850645	-0.0161992
2.7e+08	0.08459557	-0.05371568	-0.0001195406	-0.0001482007	0.1027411	-0.06255703	0.0002820754	-0.0004283076
	-0.0001195416	-0.0001482014	0.07186486	-0.04664099	-0.0003164954	1.932017e-05	0.09087383	-0.05068384
	0.1027411	-0.06255704	-0.0003164948	1.932046e-05	0.08398823	-0.05382374	8.387609e-05	-0.0002685018
	0.0002820733	-0.0004283102	0.09087393	-0.05068376	8.387493e-05	-0.000268504	0.07227797	-0.04650439
2.8e+08	0.04220724	-0.04483177	-5.63025e-05	-8.027506e-05	0.05015626	-0.1067704	0.0001545333	-0.0005847675
	-5.630325e-05	-8.027504e-05	0.04104704	-0.04478071	-0.0001454881	0.0001731263	0.05525432	-0.1036635
	0.05015624	-0.1067704	-0.0001454878	0.0001731263	0.04163218	-0.04488796	5.779016e-05	-0.0003139877
	0.0001545309	-0.000584768	0.05525443	-0.1036634	5.778857e-05	-0.0003139884	0.04149101	-0.04463619
2.9e+08	0.04015711	-0.001290723	-0.0001830412	-0.0001554468	-0.006987233	-0.07058521	-0.0003701688	-0.0007527518
	-0.0001830418	-0.0001554465	0.03489777	-0.01576601	-9.232483e-05	0.000144291	-0.005919748	-0.08782131
	-0.006987248	-0.07058523	-9.232462e-05	0.0001442909	0.03958694	-0.001369175	-0.0002517749	-0.0004396801
	-0.0003701705	-0.0007527509	-0.005919671	-0.0878213	-0.0002517763	-0.0004396798	0.03540202	-0.01563447
3e+08	0.08523537	0.01211123	-0.0003357034	0.0001353446	0.01262658	-0.008301575	-0.0009023677	-0.0001741416
	-0.0003357035	0.0001353452	0.06320104	-0.002484277	-3.82217e-05	0.0003062331	-0.008671932	-0.02751622
	0.01262657	-0.008301584	-3.822163e-05	0.0003062328	0.08462111	0.01203397	-0.0005864314	-3.103996e-05
	-0.000902368	-0.0001741403	-0.008671894	-0.02751623	-0.0005864319	-3.103909e-05	0.06373895	-0.002423169
3.1e+08	0.1130298	-0.0291265	-1.201928e-05	0.0003537385	0.07728668	-0.01198047	-0.0005962055	0.0004753804
	-1.201904e-05	0.0003537387	0.08561426	-0.02781887	0.0003105396	0.0002774034	0.0472623	-0.0102911
	0.07728667	-0.01198047	0.0003105395	0.0002774033	0.1123612	-0.02918402	-0.0002935211	0.0003835041
	-0.0005962051	0.000475381	0.04726231	-0.01029111	-0.000293521	0.0003835046	0.08612118	-0.02779511
3.2e+08	0.08457353	-0.06886886	0.0002011915	0.0001212809	0.0928464	-0.07668075	-0.00020214	0.0005108315
	0.0002011915	0.0001212808	0.06941293	-0.05784235	0.0003962312	-0.0001080654	0.07922113	-0.06059577
	0.09284639	-0.07668075	0.0003962312	-0.0001080653	0.08385236	-0.06884735	-9.712317e-06	0.0002924633
	-0.0002021399	0.0005108315	0.07922114	-0.06059577	-9.71223e-06	0.0002924634	0.06991783	-0.05780414
3.3e+08	0.04006091	-0.05587133	7.090619e-05	2.106037e-05	0.0353335	-0.1130275	-8.761951e-05	0.0006169005
	7.090611e-05	2.106038e-05	0.03771102	-0.05332129	0.0001271159	-0.0002795095	0.04039871	-0.1081724
	0.03533351	-0.1130275	0.0001271159	-0.0002795095	0.0393774	-0.05577402	-2.341521e-05	0.000301308
	-8.761973e-05	0.0006169006	0.04039871	-0.1081724	-2.341531e-05	0.0003013081	0.03825069	-0.05327432
3.4e+08	0.04119149	-0.009710128	0.0001800265	0.0001304891	-0.0159663	-0.06973784	0.000474309	0.0007811375
	0.0001800264	0.0001304893	0.033557	-0.02319845	3.150809e-05	-0.0001934724	-0.01697191	-0.08750834
	-0.0159663	-0.06973785	3.150813e-05	-0.0001934724	0.04052954	-0.009621275	0.0002972213	0.0004448727
	0.0004743088	0.0007811381	-0.01697192	-0.08750834	0.0002972213	0.000444873	0.03416584	-0.02317494
3.5e+08	0.0896285	0.0006426737	0.0003382358	-0.0001885902	0.0119382	-0.01120978	0.001034194	8.303615e-05
	0.000338236	-0.0001885899	0.06325006	-0.01189834	-2.706927e-05	-0.0003376528	-0.01437939	-0.02932039
	0.01193821	-0.01120978	-2.706928e-05	-0.000337653	0.08894304	0.0007408997	0.0006505916	-3.425164e-05
	0.001034194	8.303697e-05	-0.01437941	-0.02932038	0.0006505919	-3.425105e-05	0.06388958	-0.0119718
3.6e+08	0.1153592	-0.04523378	-5.961927e-05	-0.0004010953	0.07496653	-0.02383588	0.0005878382	-0.00064054
	-5.961877e-05	-0.0004010954	0.08405368	-0.03951866	-0.0004157714	-0.0002597709	0.040662	-0.01764309
	0.07496654	-0.02383589	-0.0004157716	-0.000259771	0.1146345	-0.0451274	0.000256628	-0.0004814686
	0.0005878393	-0.0006405399	0.04066199	-0.01764308	0.0002566287	-0.0004814684	0.08463591	-0.03964237
3.7e+08	0.08203269	-0.08519553	-0.0002800838	-7.685433e-05	0.08145992	-0.08958091	9.704065e-05	-0.000583272
	-0.0002800835	-7.685467e-05	0.06509886	-0.0692485	-0.00045778	0.0002178249	0.06674023	-0.0685439
	0.08145993	-0.08958093	-0.0004577801	0.000217825	0.08124234	-0.08501064	-7.403395e-05	-0.0003031624
	9.704151e-05	-0.0005832726	0.06674021	-0.06854388	-7.403332e-05	-0.0003031628	0.06566556	-0.06934774
3.8e+08	0.03552346	-0.06862218	-7.031675e-05	5.078794e-05	0.01993195	-0.1177856	1.055149e-05	-0.0006229751
	-7.031672e-05	5.078756e-05	0.03254291	-0.06263854	-7.968443e-05	0.0003911609	0.02522064	-0.1105638
	0.01993195	-0.1177856	-7.968451e-05	0.0003911611	0.03477277	-0.06833398	-7.564809e-06	-0.0002711632
	1.055187e-05	-0.0006229761	0.02522062	-0.1105638	-7.564456e-06	-0.0002711638	0.03314866	-0.06272637
3.9e+08	0.03914561	-0.02008536	-0.000156815	-0.0001090583	-0.02502119	-0.06814344	-0.0005682233	-0.0007887866
	-0.0001568152	-0.0001090587	0.02970815	-0.0315554	5.5366e-05	0.0002254467	-0.02801992	-0.08544965
	-0.02502119	-0.06814345	5.5366e-05	0.0002254469	0.03844048	-0.01978847	-0.0003283718	-0.0004432844
	-0.0005682238	-0.0007887879	-0.02801993	-0.08544962	-0.000328372	-0.0004432852	0.03039004	-0.03167759
4e+08	0.09034728	-0.01221379	-0.0003320673	0.0002282449	0.01064611	-0.01405927	-0.001152598	1.88687e-05
	-0.0003320679	0.0002282449	0.06033198	-0.02160131	9.808698e-05	0.0003412287	-0.02026677	-0.02972774
	0.01064612	-0.01405928	9.808716e-05	0.0003412288	0.0896485	-0.01190382	-0.0007051999	9.765019e-05
	-0.0011526	1.886842e-05	-0.02026677	-0.0297277	-0.0007052007	9.764985e-05	0.06103827	-0.02184709
4.1e+08	0.1141316	-0.06203396	0.0001328407	0.0004351963	0.07120268	-0.03535302	-0.0005592118	0.0008111139
	0.0001328404	0.0004351967	0.0798456	-0.05087603	0.0005112255	0.0002187037	0.03354797	-0.02350532
	0.07120269	-0.03535303	0.0005112257	0.0002187036	0.1134134	-0.06173842	-0.0002100667	0.0005756007
	-0.0005592127	0.0008111147	0.03354797	-0.02350529	-0.0002100673	0.0005756011	0.08046269	-0.05118311
4.2e+08	0.07638626	-0.1020859	0.0003527615	1.876401e-05	0.06864506	-0.1012277	3.041105e-05	0.0006448572
	0.0003527616	1.876437e-05	0.05865092	-0.08037763	0.0004971811	-0.0003419275	0.0537671	-0.07459724
	0.06864507	-0.1012277	0.0004971811	-0.0003419276	0.07558353	-0.1017213	0.0001644083	0.0003023486
	3.041091e-05	0.0006448581	0.05376709	-0.07459721	0.0001644081	0.0003023492	0.05923639	-0.08064425
4.3e+08	0.02789819	-0.08229147	5.465029e-05	-0.0001303963	0.00397476	-0.1210558	7.473732e-05	0.0006034404
	5.465049e-05	-0.000130396	0.02517618	-0.07210348	4.600742e-06	-0.0005005256	0.01000589	-0.1109156
	0.003974753	-0.1210558	4.600715e-06	-0.0005005257	0.02713218	-0.08179222	3.448016e-05	0.0002263334
	7.473764e-05	0.0006034413	0.01000588	-0.1109156	3.448021e-05	0.000226334	0.02580648	-0.07235384
4.4e+08	0.03345512	-0.03140274	0.0001158297	9.44229e-05	-0.03419162	-0.0657893	0.0006495168	0.0007766407
	0.00011583	9.442298e-05	0.02310339	-0.04003369	-0.0001630261	-0.0002356261	-0.03879353	-0.08169692
	-0.03419161	-0.0657893	-0.0001630261	-0.0002356262	0.03276612	-0.03087458	0.000345565	0.0004369879
	0.0006495178	0.0007766411	-0.03879353	-0.08169689	0.0003455655	0.0004369883	0.02381479	-0.04032963
4.5e+08	0.08708459	-0.02545097	0.0003212502	-0.0002529167	0.008711189	-0.01677664	0.001256566	-0.0001286737
	0.0003212504	-0.0002529169	0.05441123	-0.03081363	-0.0001678362	-0.0003164236	-0.02604168	-0.02878522
	0.008711199	-0.01677665	-0.0001678364	-0.0003164236	0.08644013	-0.02491245	0.0007520054	-0.0001572985
	0.001256567	-0.0001286743	-0.02604166	-0.02878519	0.000752006	-0.0001572986	0.05513748	-0.03125854
4.6e+08	0.1090941	-0.0787054	-0.0002039899	-0.0004575247	0.06599495	-0.04644248	0.0005111192	-0.0009844955
	-0.00020399	-0.000457525	0.07300022	-0.06127808	-0.0005914908	-0.0001580264	0.02622679	-0.0279567
	0.06599495	-0.04644249	-0.0005914908	-0.0001580263	0.1084527	-0.07821589	0.0001560164	-0.0006656766
	0.0005111193	-0.0009844961	0.0262268	-0.02795668	0.0001560165	-0.000665677	0.07360059	-0.06179242
4.7e+08	0.06723753	-0.1187441	-0.0004169812	4.973336e-05	0.05442614	-0.1115573	-0.0001778734	-0.0006940767
	-0.0004169813	4.973323e-05	0.04995381	-0.09066075	-0.0005121558	0.0004741976	0.04058837	-0.0788732
	0.05442613	-0.1115573	-0.0005121557	0.0004741977	0.06648475	-0.1182039	-0.0002593231	-0.0002910979
	-0.0001778735	-0.0006940771	0.04058837	-0.07887319	-0.0002593231	-0.0002910981	0.05050484	-0.09111183
4.8e+08	0.01674303	-0.09590367	-2.471168e-05	0.0002137376	-0.01253709	-0.1228132	-0.0001663554	-0.000558394
	-2.471178e-05	0.0002137376	0.01543999	-0.08100545	9.561584e-05	0.0006011714	-0.004997937	-0.1093544
	-0.0125371	-0.1228132	9.56159e-05	0.0006011714	0.01601756	-0.09519306	-5.703868e-05	-0.0001689529
	-0.0001663557	-0.0005583943	-0.004997929	-0.1093544	-5.703881e-05	-0.0001689531	0.01604422	-0.08143293
