!
!4 port subset of full cascaded channels using these ports:49 37 50 38
# Hz S RI R 50
0	0.02992258	0.0002743377	3.686618e-06	-1.855625e-09	0.00344423	9.206957e-05	3.480006e-06	-1.791728e-09
	3.686621e-06	-1.85557e-09	0.02976701	0.000274387	3.568707e-06	-1.82289e-09	0.003385663	9.211927e-05
	0.003447433	9.050645e-05	3.568752e-06	-1.816714e-09	0.02870463	0.0002749607	3.362877e-06	-1.753058e-09
	3.480052e-06	-1.785544e-09	0.00338979	9.055577e-05	3.362875e-06	-1.753001e-09	0.02864619	0.0002749351
1e+07	0.07784058	0.01842209	2.729492e-05	1.196069e-05	0.07807936	0.06332906	2.570617e-05	1.19073e-05
	2.729492e-05	1.196069e-05	0.07704628	0.01801492	2.713375e-05	1.138085e-05	0.07723756	0.06298641
	0.07808337	0.06332417	2.713374e-05	1.138104e-05	0.0778684	0.01843715	2.5514e-05	1.132471e-05
	2.570616e-05	1.190749e-05	0.07724158	0.06298151	2.5514e-05	1.132471e-05	0.0770609	0.01803922
2e+07	0.07526218	-0.02812247	1.395527e-05	-7.922543e-06	0.1315294	-0.01615509	1.343665e-05	-5.490192e-06
	1.395541e-05	-7.922204e-06	0.07489217	-0.02796204	1.33775e-05	-9.334445e-06	0.1312075	-0.01554052
	0.1315487	-0.01616045	1.337721e-05	-9.335877e-06	0.07528658	-0.02815991	1.285539e-05	-6.829144e-06
	1.343629e-05	-5.491654e-06	0.131233	-0.01554629	1.285522e-05	-6.829478e-06	0.07490695	-0.02792339
3e+07	0.02476391	-0.01387986	-1.019508e-05	4.194689e-05	0.04946808	-0.06087578	-7.118708e-06	4.248734e-05
	-1.019508e-05	4.194684e-05	0.02527564	-0.01531374	-1.212267e-05	4.018997e-05	0.05064804	-0.0619296
	0.04947197	-0.06087502	-1.2122e-05	4.019002e-05	0.02472023	-0.01384847	-8.919852e-06	4.075709e-05
	-7.118047e-06	4.248738e-05	0.0506514	-0.06192909	-8.919882e-06	4.075712e-05	0.02532203	-0.01521833
4e+07	0.05080439	0.04225926	7.624884e-05	8.549255e-05	0.01743396	0.02493597	7.670278e-05	8.116746e-05
	7.624886e-05	8.549251e-05	0.04875776	0.03906218	7.338311e-05	8.476076e-05	0.01591103	0.02145777
	0.01744021	0.0249295	7.338258e-05	8.475998e-05	0.05077721	0.0424097	7.391744e-05	8.027866e-05
	7.670227e-05	8.116668e-05	0.01591727	0.02145089	7.391741e-05	8.027865e-05	0.04883485	0.03916434
5e+07	0.1102118	0.01078134	0.000143359	-3.47305e-06	0.1070515	0.04727317	0.0001375149	-4.964041e-06
	0.0001433589	-3.473027e-06	0.1056839	0.009910692	0.0001408431	-3.660188e-06	0.1024053	0.04657898
	0.107051	0.04726721	0.0001408428	-3.65928e-06	0.1103233	0.01094654	0.0001348548	-5.279798e-06
	0.0001375146	-4.963134e-06	0.1024046	0.04657305	0.0001348548	-5.279785e-06	0.1057707	0.0100109
6e+07	0.08145735	-0.04654349	8.392433e-05	-8.087857e-05	0.1272533	-0.04372081	8.015789e-05	-7.454629e-05
	8.392433e-05	-8.087855e-05	0.07819539	-0.04495635	8.096488e-05	-8.171191e-05	0.1247976	-0.04116978
	0.1272522	-0.043723	8.096677e-05	-8.171188e-05	0.08158329	-0.04652055	7.706724e-05	-7.52522e-05
	8.015978e-05	-7.454625e-05	0.1247963	-0.04117207	7.706732e-05	-7.525214e-05	0.07827922	-0.04483117
7e+07	0.03001684	-0.01562249	2.195891e-05	-3.321542e-05	0.03826609	-0.05951737	2.727819e-05	-2.769486e-05
	2.195888e-05	-3.321541e-05	0.02858515	-0.01515203	1.67951e-05	-3.345591e-05	0.0387545	-0.05931913
	0.03826599	-0.05951837	1.679523e-05	-3.345689e-05	0.02995751	-0.01560303	2.228199e-05	-2.780534e-05
	2.727832e-05	-2.769584e-05	0.03875441	-0.05932015	2.228192e-05	-2.78054e-05	0.02871507	-0.01498552
8e+07	0.07349583	0.03268616	9.920075e-05	6.556475e-06	0.03503693	0.02744276	0.0001046729	2.311018e-06
	9.920073e-05	6.556498e-06	0.06982123	0.03161604	9.340955e-05	9.600929e-06	0.03197952	0.02480933
	0.03503827	0.02743995	9.340969e-05	9.600092e-06	0.07341868	0.03295422	9.909055e-05	5.123311e-06
	0.0001046731	2.310188e-06	0.03198039	0.02480646	9.909055e-05	5.123372e-06	0.07003065	0.03175076
9e+07	0.1264647	-0.0183533	0.0001498379	-9.488085e-05	0.1241086	0.02105286	0.0001451016	-0.0001000703
	0.0001498379	-9.488076e-05	0.1204678	-0.01682179	0.0001464312	-9.001428e-05	0.1176601	0.02246256
	0.1241072	0.02104879	0.0001464315	-9.001472e-05	0.1266605	-0.01802352	0.0001414908	-9.555339e-05
	0.0001451019	-0.0001000708	0.1176588	0.02245916	0.0001414909	-9.55534e-05	0.1206687	-0.01677283
1e+08	0.08352366	-0.0778994	7.633378e-05	-0.0001876712	0.1188736	-0.07146341	6.912595e-05	-0.0001817589
	7.633381e-05	-0.0001876712	0.07842235	-0.07303864	7.43398e-05	-0.0001837055	0.1152636	-0.06598535
	0.1188708	-0.07146475	7.433998e-05	-0.0001837068	0.08382329	-0.07783259	6.671915e-05	-0.0001777203
	6.912611e-05	-0.0001817603	0.1152608	-0.06598676	6.671919e-05	-0.0001777204	0.07855016	-0.07298204
1.1e+08	0.02716116	-0.04518346	-3.254279e-05	-0.0001720141	0.02908088	-0.06750527	-2.753262e-05	-0.0001610733
	-3.254288e-05	-0.000172014	0.02491481	-0.03909788	-3.593421e-05	-0.0001681451	0.02912022	-0.06341718
	0.02908021	-0.06750434	-3.593482e-05	-0.0001681457	0.02718908	-0.04524295	-3.093406e-05	-0.0001568518
	-2.753324e-05	-0.0001610738	0.02911946	-0.06341616	-3.093415e-05	-0.0001568517	0.02508197	-0.03895732
1.2e+08	0.06372301	0.000197958	-3.880021e-05	-9.960751e-05	0.04251177	0.01483506	-2.605484e-05	-0.000101013
	-3.880018e-05	-9.960743e-05	0.0628165	0.005092772	-4.237002e-05	-9.216205e-05	0.04094871	0.01663391
	0.04251253	0.01483376	-4.237021e-05	-9.2163e-05	0.06360602	0.0004435622	-2.929933e-05	-9.363328e-05
	-2.6055e-05	-0.0001010139	0.0409495	0.01663276	-2.929927e-05	-9.363311e-05	0.0630985	0.00516464
1.3e+08	0.1058378	-0.0462378	-2.665351e-06	-0.0001195022	0.1224705	-0.01033614	-9.653683e-07	-0.0001306178
	-2.665254e-06	-0.0001195022	0.104345	-0.04144323	-2.013343e-06	-0.0001099252	0.1192997	-0.0057468
	0.122469	-0.01033815	-2.014143e-06	-0.0001099264	0.1060387	-0.04581547	-4.442526e-07	-0.0001215255
	-9.661209e-07	-0.0001306189	0.1192983	-0.005748788	-4.44116e-07	-0.0001215254	0.1045699	-0.04152824
1.4e+08	0.06197143	-0.09681251	-3.502535e-05	-0.0001785078	0.09610288	-0.09448108	-4.463339e-05	-0.0001800522
	-3.502538e-05	-0.0001785078	0.0600125	-0.09021751	-3.082341e-05	-0.0001710452	0.09547848	-0.0876792
	0.09610089	-0.09448082	-3.082476e-05	-0.0001710461	0.0623977	-0.0966835	-4.111599e-05	-0.0001726183
	-4.463465e-05	-0.0001800531	0.09547649	-0.08767896	-4.11159e-05	-0.0001726183	0.06006731	-0.09028753
1.5e+08	0.0083218	-0.06719637	-0.0001415629	-0.0001961686	0.01273753	-0.07295425	-0.0001420774	-0.0001841455
	-0.000141563	-0.0001961685	0.008733979	-0.05727399	-0.0001375686	-0.000191246	0.01437848	-0.06650118
	0.01273766	-0.07295354	-0.0001375703	-0.0001912463	0.008487982	-0.06734202	-0.0001383842	-0.0001785689
	-0.0001420791	-0.0001841457	0.01437861	-0.06650039	-0.0001383842	-0.0001785689	0.008792015	-0.05719784
1.6e+08	0.03031275	-0.02625497	-0.0002318234	-9.577347e-05	0.03705144	-3.477121e-05	-0.0002156577	-9.248787e-05
	-0.0002318234	-9.577337e-05	0.03649821	-0.01672866	-0.0002287705	-8.950697e-05	0.0400657	0.006070899
	0.03705184	-3.607096e-05	-0.000228772	-8.950656e-05	0.03017417	-0.02616388	-0.0002121631	-8.586284e-05
	-0.0002156591	-9.248745e-05	0.0400662	0.006069686	-0.000212163	-8.586277e-05	0.03669415	-0.01670082
1.7e+08	0.05749909	-0.05449467	-0.0001943616	1.273112e-05	0.1009452	-0.03510748	-0.0001847832	-3.53236e-06
	-0.0001943615	1.273113e-05	0.06594812	-0.05010188	-0.0001876318	2.076423e-05	0.106062	-0.02963869
	0.1009437	-0.035109	-0.000187633	2.076509e-05	0.05757432	-0.05408928	-0.0001778751	4.09336e-06
	-0.0001847843	-3.531535e-06	0.1060606	-0.02964023	-0.0001778749	4.093343e-06	0.06606294	-0.05026538
1.8e+08	0.02320053	-0.08315198	-0.0001189043	1.034663e-05	0.05934511	-0.09974112	-0.0001305885	-3.155648e-06
	-0.0001189042	1.034656e-05	0.02824524	-0.08135393	-0.0001077221	1.51646e-05	0.06525003	-0.09707169
	0.05934328	-0.09974101	-0.0001077228	1.516535e-05	0.0236088	-0.08293093	-0.000120074	1.515158e-06
	-0.0001305891	-3.154993e-06	0.06524823	-0.09707162	-0.0001200739	1.515044e-06	0.02810293	-0.08148775
1.9e+08	-0.0123707	-0.05658501	-0.0001565726	-6.228582e-05	-0.006578326	-0.06088739	-0.0001687165	-5.359905e-05
	-0.0001565727	-6.228584e-05	-0.008595624	-0.0502474	-0.0001454435	-6.272541e-05	-0.003008751	-0.0580453
	-0.00657892	-0.06088685	-0.0001454444	-6.272471e-05	-0.01210544	-0.05674311	-0.0001580646	-5.319828e-05
	-0.0001687175	-5.359841e-05	-0.003009322	-0.05804475	-0.0001580646	-5.319841e-05	-0.008788783	-0.05013626
2e+08	-0.0001215542	-0.02835963	-0.0002974261	1.03126e-05	0.02888667	-0.004022651	-0.0002860675	2.10947e-05
	-0.0002974261	1.031265e-05	0.01188838	-0.02006715	-0.0002893254	8.348645e-06	0.03554218	0.002353717
	0.02888625	-0.004023077	-0.0002893261	8.350174e-06	-0.0002767865	-0.0284419	-0.0002773685	1.993918e-05
	-0.0002860683	2.109619e-05	0.03554185	0.002353284	-0.0002773685	1.993913e-05	0.01187025	-0.01991425
2.1e+08	0.008905014	-0.03722029	-0.0002681081	0.0002246636	0.07183687	-0.04398672	-0.0002526066	0.0002099088
	-0.000268108	0.0002246636	0.02660127	-0.03879942	-0.000259532	0.0002240818	0.08555565	-0.04185099
	0.07183546	-0.04398703	-0.0002595317	0.0002240836	0.008745652	-0.03688832	-0.000243314	0.0002090896
	-0.0002526063	0.0002099105	0.08555432	-0.0418514	-0.000243314	0.0002090896	0.02654238	-0.03881564
2.2e+08	-0.0091903	-0.03537496	-5.16848e-05	0.0002763651	0.02296902	-0.08026406	-6.336188e-05	0.0002531427
	-5.168475e-05	0.000276365	0.000806925	-0.04581187	-3.98242e-05	0.0002733329	0.03426521	-0.08818386
	0.02296767	-0.08026325	-3.982308e-05	0.0002733338	-0.008969374	-0.03498978	-5.178577e-05	0.0002496939
	-6.336078e-05	0.0002531435	0.03426383	-0.08818316	-5.178575e-05	0.0002496938	0.0004920285	-0.04578108
2.3e+08	-0.01085981	-0.01262481	1.696181e-05	0.00010274	-0.01330134	-0.02780679	-8.347487e-06	0.000106582
	1.696178e-05	0.00010274	-0.009258138	-0.0172081	2.821506e-05	9.35918e-05	-0.01222927	-0.03467049
	-0.01330172	-0.02780579	2.821555e-05	9.359199e-05	-0.0105669	-0.01261965	2.408053e-06	9.807899e-05
	-8.347043e-06	0.0001065822	-0.01222969	-0.0346695	2.408007e-06	9.807889e-05	-0.00963825	-0.01687812
2.4e+08	0.001671447	-0.009496234	-0.0001628375	8.303886e-05	0.03524403	0.004353608	-0.0001626409	0.0001039125
	-0.0001628376	8.303886e-05	0.0112865	-0.007190115	-0.0001569625	7.086091e-05	0.03926779	0.007199264
	0.0352439	0.004353974	-0.0001569624	7.08617e-05	0.001550482	-0.009615597	-0.0001561014	9.27193e-05
	-0.0001626409	0.0001039133	0.03926769	0.007199616	-0.0001561015	9.271927e-05	0.0111149	-0.006718526
2.5e+08	-0.009208012	-0.009920376	-0.0001719742	0.000340711	0.05489443	-0.04101143	-0.0001528771	0.0003371469
	-0.0001719742	0.000340711	0.009520985	-0.01915458	-0.0001695662	0.0003303557	0.0710986	-0.04398017
	0.05489386	-0.04101108	-0.0001695651	0.0003303568	-0.009558218	-0.009633499	-0.000149256	0.0003266476
	-0.000152876	0.0003371481	0.07109804	-0.04397992	-0.000149256	0.0003266476	0.009423165	-0.01878833
2.6e+08	-0.01263455	0.02090368	0.0001464199	0.0004223248	0.004923778	-0.04703063	0.0001408686	0.000397013
	0.0001464199	0.0004223248	-0.005373725	-0.002598167	0.000149463	0.0004124609	0.01539114	-0.06681897
	0.004923392	-0.04702977	0.0001494647	0.0004124608	-0.012661	0.02149613	0.0001441724	0.0003863065
	0.0001408703	0.0003970129	0.01539066	-0.06681819	0.0001441724	0.0003863065	-0.005612647	-0.002221214
2.7e+08	0.02535047	0.03726953	0.0002977871	0.0001346679	0.005189497	0.01118426	0.0002659261	0.0001333902
	0.0002977871	0.0001346679	0.01617586	0.02179501	0.0003001582	0.0001213948	-0.003259504	-0.005486721
	0.005189735	0.01118502	0.000300159	0.0001213939	0.0256292	0.03762109	0.0002678297	0.0001200984
	0.0002659269	0.0001333893	-0.003259349	-0.005485939	0.0002678297	0.0001200984	0.01588445	0.02241046
2.8e+08	0.04479384	0.005364933	7.321216e-05	-4.754551e-06	0.06554259	0.0106036	6.183821e-05	2.44857e-05
	7.321209e-05	-4.754566e-06	0.04194466	0.003859997	7.018351e-05	-2.068127e-05	0.05914346	0.0112997
	0.06554288	0.01060382	7.018349e-05	-2.068149e-05	0.04484282	0.005407906	5.919017e-05	9.304879e-06
	6.183819e-05	2.448549e-05	0.05914376	0.01129994	5.919011e-05	9.304862e-06	0.04185218	0.004664683
2.9e+08	0.01263309	-0.002829873	-1.92851e-05	0.0002382442	0.06044117	-0.04412104	1.938249e-06	0.0002518365
	-1.928514e-05	0.0002382442	0.02252111	-0.01323175	-2.841438e-05	0.0002250887	0.07102956	-0.04781048
	0.06044114	-0.04412085	-2.841369e-05	0.000225089	0.01229225	-0.002549103	-5.883713e-06	0.0002385607
	1.938944e-06	0.0002518368	0.07102951	-0.04781034	-5.88376e-06	0.0002385607	0.02262857	-0.01245633
3e+08	0.01222918	0.04652917	0.0003113497	0.0003400679	0.009720115	-0.02506112	0.0003197118	0.0003203039
	0.0003113497	0.0003400679	0.01027924	0.0194231	0.0003009379	0.0003316013	0.01335005	-0.0494679
	0.009720215	-0.0250607	0.0003009391	0.0003316006	0.01205088	0.04728081	0.0003099242	0.0003105993
	0.0003197131	0.0003203033	0.01335006	-0.04946751	0.0003099243	0.0003105994	0.01043879	0.02011148
3.1e+08	0.07911963	0.05645734	0.0004782914	-9.94078e-06	0.04263737	0.03125678	0.0004519512	-1.80979e-05
	0.0004782914	-9.940806e-06	0.05616935	0.03940042	0.0004686663	-1.703763e-05	0.02193306	0.01263282
	0.04263778	0.03125694	0.0004686664	-1.703897e-05	0.07938591	0.05719254	0.0004417945	-2.606064e-05
	0.0004519512	-1.809924e-05	0.0219334	0.01263305	0.0004417945	-2.606067e-05	0.05627372	0.04012346
3.2e+08	0.105024	-0.00840472	0.0002215397	-0.0002199136	0.1086903	-0.003442457	0.0002030326	-0.0001909365
	0.0002215396	-0.0002199136	0.0869178	-0.005663237	0.0002102105	-0.0002278727	0.08990978	0.001282887
	0.1086905	-0.003442604	0.00021021	-0.0002278733	0.1053723	-0.008039558	0.0001913572	-0.0001986861
	0.0002030321	-0.0001909371	0.08991002	0.001282797	0.0001913572	-0.0001986861	0.08711266	-0.004763352
3.3e+08	0.05258256	-0.03602313	3.31551e-05	-3.617393e-05	0.07853477	-0.07037225	5.362258e-05	-7.917659e-06
	3.315505e-05	-3.617389e-05	0.05041832	-0.03619817	1.635764e-05	-4.21279e-05	0.08030396	-0.0663916
	0.07853473	-0.07037231	1.635761e-05	-4.212794e-05	0.05254619	-0.03575584	3.757504e-05	-1.38387e-05
	5.362255e-05	-7.917701e-06	0.08030393	-0.06639166	3.757499e-05	-1.383867e-05	0.05088604	-0.03525252
3.4e+08	0.03741122	0.01940564	0.0002706235	0.000115325	0.02091639	-0.03390319	0.0002965508	0.0001050374
	0.0002706235	0.0001153251	0.02881398	0.002944002	0.0002517795	0.0001173607	0.01862403	-0.05133821
	0.02091647	-0.03390309	0.00025178	0.0001173601	0.03724553	0.02014428	0.0002783466	0.0001058352
	0.0002965513	0.0001050368	0.01862406	-0.05133811	0.0002783466	0.0001058353	0.02951341	0.003690471
3.5e+08	0.1117295	0.03049666	0.0004272524	-0.0002001683	0.07453507	0.01919301	0.0004168763	-0.0002182184
	0.0004272524	-0.0002001683	0.082891	0.02290157	0.0004127991	-0.0001929989	0.04747593	0.008380235
	0.07453528	0.01919287	0.0004127987	-0.000193	0.1120213	0.03147852	0.0004017065	-0.0002124707
	0.000416876	-0.0002182195	0.04747611	0.008380168	0.0004017065	-0.0002124707	0.08350912	0.02340296
3.6e+08	0.1395553	-0.05102239	0.000167049	-0.0004047806	0.1380898	-0.04225721	0.0001468183	-0.0003884048
	0.000167049	-0.0004047807	0.1148525	-0.03753696	0.0001560331	-0.0003976087	0.1143087	-0.02806955
	0.1380898	-0.0422575	0.0001560323	-0.0003976091	0.1402219	-0.05034358	0.0001345429	-0.0003814724
	0.0001468175	-0.0003884053	0.1143086	-0.02806979	0.0001345429	-0.0003814724	0.1153316	-0.03692342
3.7e+08	0.07395619	-0.09688628	-5.872965e-05	-0.0002806846	0.08564232	-0.1175462	-4.511868e-05	-0.0002482778
	-5.872968e-05	-0.0002806845	0.06607997	-0.08068669	-7.115846e-05	-0.0002741764	0.08315574	-0.1014912
	0.0856421	-0.1175462	-7.1159e-05	-0.0002741764	0.074453	-0.09664011	-5.786021e-05	-0.000241307
	-4.511922e-05	-0.0002482778	0.08315555	-0.1014912	-5.786024e-05	-0.0002413069	0.06680818	-0.07991261
3.8e+08	0.03198757	-0.04593891	1.783526e-05	-8.801216e-05	0.01529647	-0.07113536	5.572842e-05	-8.806023e-05
	1.783527e-05	-8.80121e-05	0.02723561	-0.04286181	2.819381e-06	-7.49812e-05	0.01445714	-0.07378965
	0.01529642	-0.07113532	2.819241e-06	-7.498135e-05	0.03201901	-0.04550844	4.110868e-05	-7.551217e-05
	5.572828e-05	-8.806037e-05	0.01445709	-0.0737896	4.110868e-05	-7.551211e-05	0.02831111	-0.04236463
3.9e+08	0.09182792	-0.0199405	0.0001771146	-0.0002485991	0.07488141	-0.01493772	0.0001865506	-0.0002772729
	0.0001771147	-0.000248599	0.07249468	-0.01502804	0.0001694872	-0.0002284504	0.05367383	-0.01435482
	0.07488142	-0.01493789	0.0001694867	-0.0002284509	0.09210463	-0.01897567	0.0001782225	-0.000258447
	0.0001865501	-0.0002772733	0.05367385	-0.01435494	0.0001782226	-0.000258447	0.07343286	-0.01500178
4e+08	0.1203759	-0.09453955	-2.327135e-05	-0.0004186901	0.1319449	-0.08977974	-4.231222e-05	-0.0004246123
	-2.327132e-05	-0.0004186902	0.1031039	-0.07260696	-2.304106e-05	-0.000400455	0.1149761	-0.06722623
	0.1319447	-0.08977995	-2.304187e-05	-0.000400455	0.1212661	-0.09371571	-4.39569e-05	-0.0004066854
	-4.231303e-05	-0.0004246123	0.1149759	-0.06722641	-4.395687e-05	-0.0004066854	0.1036409	-0.07255235
4.1e+08	0.0539018	-0.1464163	-0.0002267798	-0.0003223768	0.06240224	-0.163539	-0.0002276584	-0.0002984798
	-0.0002267798	-0.0003223768	0.0513927	-0.1192788	-0.0002245035	-0.0003082244	0.06480736	-0.1398871
	0.06240192	-0.1635389	-0.0002245042	-0.0003082241	0.05489263	-0.1462334	-0.0002266454	-0.0002831899
	-0.0002276591	-0.0002984795	0.06480708	-0.1398871	-0.0002266454	-0.00028319	0.05203134	-0.1189108
4.2e+08	-0.009318964	-0.105631	-0.0002624452	-0.0001439382	-0.0168314	-0.1111173	-0.0002274488	-0.000134629
	-0.0002624452	-0.0001439382	-0.001247377	-0.08679143	-0.0002623535	-0.0001291475	-0.009595448	-0.1013564
	-0.01683155	-0.1111172	-0.0002623539	-0.0001291471	-0.008957783	-0.1057227	-0.0002271656	-0.0001189562
	-0.0002274492	-0.0001346287	-0.009595562	-0.1013563	-0.0002271656	-0.0001189562	-0.0001992825	-0.08665554
4.3e+08	0.02147112	-0.0578344	-0.0001412949	-9.839631e-05	0.03549886	-0.04716746	-0.0001160086	-0.000131185
	-0.0001412949	-9.839628e-05	0.02469851	-0.04690134	-0.000136153	-7.738981e-05	0.03122003	-0.03921166
	0.03549875	-0.04716751	-0.0001361533	-7.738956e-05	0.0215614	-0.05724893	-0.0001109209	-0.0001107024
	-0.0001160089	-0.0001311848	0.03121996	-0.03921172	-0.0001109208	-0.0001107024	0.02555011	-0.04734789
4.4e+08	0.05403494	-0.1021949	-0.0001840274	-0.000204857	0.08745398	-0.1174728	-0.0002008824	-0.0002350723
	-0.0001840273	-0.0002048571	0.0541165	-0.08419762	-0.0001685904	-0.0001873918	0.08615697	-0.09600112
	0.08745367	-0.1174729	-0.0001685908	-0.0001873914	0.05487562	-0.1013729	-0.0001870804	-0.0002178021
	-0.0002008828	-0.0002350719	0.08615669	-0.09600118	-0.0001870804	-0.0002178021	0.05437927	-0.08463706
4.5e+08	0.003081049	-0.1468963	-0.0003238167	-0.0001553621	0.01087327	-0.1802934	-0.0003453499	-0.0001474287
	-0.0003238167	-0.0001553622	0.01184726	-0.1232618	-0.0003057614	-0.000146108	0.02385765	-0.1604794
	0.01087294	-0.1802932	-0.0003057617	-0.0001461075	0.004306625	-0.1468263	-0.0003288583	-0.0001364808
	-0.0003453502	-0.0001474282	0.02385735	-0.1604792	-0.0003288582	-0.0001364808	0.01202768	-0.1232632
4.6e+08	-0.06199676	-0.1168543	-0.0003872722	-1.740944e-05	-0.06540473	-0.1213462	-0.0003717176	6.230226e-07
	-0.0003872723	-1.740944e-05	-0.04087003	-0.09695409	-0.0003719619	-1.278034e-05	-0.04938679	-0.1110621
	-0.06540487	-0.121346	-0.0003719621	-1.277973e-05	-0.06142963	-0.1174255	-0.0003560197	7.405342e-06
	-0.0003717178	6.2363e-07	-0.04938689	-0.1110619	-0.0003560197	7.405324e-06	-0.04030632	-0.09698859
4.7e+08	-0.05906204	-0.05704977	-0.0003349176	0.0001414579	-0.02330357	-0.0547215	-0.0003038431	0.0001187551
	-0.0003349176	0.0001414579	-0.03335796	-0.05067107	-0.000320365	0.0001481093	-0.009774548	-0.04743932
	-0.02330369	-0.05472139	-0.0003203649	0.00014811	-0.05928441	-0.05705497	-0.0002881076	0.0001258529
	-0.000303843	0.0001187558	-0.009774615	-0.04743925	-0.0002881076	0.0001258529	-0.03293612	-0.05123674
4.8e+08	-0.02380058	-0.0584559	-0.0002059111	0.0001634419	0.02271256	-0.1045321	-0.0002173541	0.0001180038
	-0.000205911	0.0001634419	-0.006095796	-0.05928161	-0.0001839856	0.0001685344	0.03852604	-0.09668376
	0.02271232	-0.104532	-0.0001839853	0.0001685349	-0.02343776	-0.05769104	-0.0001958006	0.0001227697
