!
!4 port subset of full cascaded channels using these ports:55 37 56 38
# Hz S RI R 50
0	0.02982869	0.0002713525	3.110848e-06	-1.557395e-09	0.003407773	8.985722e-05	2.991758e-06	-1.533853e-09
	3.110853e-06	-1.56154e-09	0.02976701	0.000274387	3.30115e-06	-1.610729e-09	0.003385663	9.211927e-05
	0.003411722	9.073071e-05	3.301189e-06	-1.60952e-09	0.02862133	0.0002737311	3.128181e-06	-1.576454e-09
	2.991797e-06	-1.532738e-09	0.00338979	9.055577e-05	3.128185e-06	-1.572316e-09	0.02864619	0.0002749351
1e+07	0.07703615	0.01804452	2.876101e-05	1.380577e-05	0.07721568	0.06298406	2.831336e-05	1.347041e-05
	2.876101e-05	1.380578e-05	0.07704628	0.01801492	2.963894e-05	1.413905e-05	0.07723756	0.06298641
	0.07721971	0.06297916	2.963892e-05	1.413926e-05	0.07702613	0.01800466	2.877561e-05	1.379414e-05
	2.831335e-05	1.347063e-05	0.07724158	0.06298151	2.877561e-05	1.379414e-05	0.0770609	0.01803922
2e+07	0.07491378	-0.02789852	1.602723e-05	-7.234237e-06	0.1312045	-0.01552208	1.555759e-05	-7.480686e-06
	1.602744e-05	-7.234043e-06	0.07489217	-0.02796204	1.660815e-05	-7.714058e-06	0.1312075	-0.01554052
	0.1312271	-0.01552494	1.660787e-05	-7.715849e-06	0.07486625	-0.02796849	1.603851e-05	-7.277047e-06
	1.555726e-05	-7.482472e-06	0.131233	-0.01554629	1.603822e-05	-7.27733e-06	0.07490695	-0.02792339
3e+07	0.02534407	-0.01526313	-8.091737e-06	4.553034e-05	0.05066837	-0.06195684	-8.592319e-06	4.467252e-05
	-8.091718e-06	4.55303e-05	0.02527564	-0.01531374	-8.583708e-06	4.614926e-05	0.05064804	-0.0619296
	0.05067211	-0.0619564	-8.582974e-06	4.61493e-05	0.02529214	-0.01529565	-8.113852e-06	4.544437e-05
	-8.591585e-06	4.467256e-05	0.0506514	-0.06192909	-8.113835e-06	4.54444e-05	0.02532203	-0.01521833
4e+07	0.04882006	0.03908767	8.655745e-05	8.945317e-05	0.01586595	0.02139108	8.480156e-05	8.827012e-05
	8.655745e-05	8.945311e-05	0.04875776	0.03906218	8.784908e-05	9.197505e-05	0.01591103	0.02145777
	0.01587241	0.02138444	8.784845e-05	9.197416e-05	0.0487201	0.03901639	8.645763e-05	8.940206e-05
	8.480094e-05	8.826922e-05	0.01591727	0.02145089	8.645761e-05	8.940207e-05	0.04883485	0.03916434
5e+07	0.1057443	0.009966172	0.0001569813	-1.040097e-05	0.1023072	0.0465802	0.0001542047	-1.034399e-05
	0.0001569813	-1.040095e-05	0.1056839	0.009910692	0.0001613935	-9.566338e-06	0.1024053	0.04657898
	0.1023066	0.04657418	0.0001613932	-9.565332e-06	0.1055224	0.00991288	0.0001569316	-1.038822e-05
	0.0001542044	-1.034299e-05	0.1024046	0.04657305	0.0001569316	-1.038821e-05	0.1057707	0.0100109
6e+07	0.07831222	-0.04487897	8.982464e-05	-9.363172e-05	0.1247517	-0.0411121	8.752731e-05	-9.224143e-05
	8.982466e-05	-9.363173e-05	0.07819539	-0.04495635	9.35569e-05	-9.668947e-05	0.1247976	-0.04116978
	0.1247505	-0.04111438	9.355898e-05	-9.668953e-05	0.07799898	-0.04478918	8.982954e-05	-9.370314e-05
	8.752938e-05	-9.224149e-05	0.1247963	-0.04117207	8.982962e-05	-9.370311e-05	0.07827922	-0.04483117
7e+07	0.02877444	-0.01511474	2.539398e-05	-4.326288e-05	0.03875604	-0.05930935	2.387766e-05	-4.177808e-05
	2.5394e-05	-4.32629e-05	0.02858515	-0.01515203	2.540476e-05	-4.664402e-05	0.0387545	-0.05931913
	0.03875591	-0.05931035	2.540486e-05	-4.664518e-05	0.02852112	-0.0148852	2.526708e-05	-4.346057e-05
	2.387776e-05	-4.177925e-05	0.03875441	-0.05932015	2.526707e-05	-4.346062e-05	0.02871507	-0.01498552
8e+07	0.07002648	0.03157064	0.0001054938	-9.288046e-06	0.0319136	0.02478158	0.0001036665	-7.843461e-06
	0.0001054938	-9.288084e-06	0.06982123	0.03161604	0.0001050734	-9.29842e-06	0.03197952	0.02480933
	0.03191465	0.02477874	0.0001050734	-9.299312e-06	0.0698374	0.03178882	0.0001051256	-9.322046e-06
	0.0001036665	-7.844352e-06	0.03198039	0.02480646	0.0001051256	-9.322041e-06	0.07003065	0.03175076
9e+07	0.1206441	-0.01691629	0.0001470969	-0.0001202353	0.1175516	0.0225154	0.0001450136	-0.0001177049
	0.0001470969	-0.0001202352	0.1204678	-0.01682179	0.000150658	-0.0001200772	0.1176601	0.02246256
	0.1175502	0.0225118	0.0001506583	-0.0001200777	0.1203433	-0.01670639	0.0001468699	-0.00011999
	0.0001450139	-0.0001177054	0.1176588	0.02245916	0.0001468699	-0.00011999	0.1206687	-0.01677283
1e+08	0.07857698	-0.07314639	5.890757e-05	-0.0002113128	0.1152144	-0.06587692	5.770642e-05	-0.000207477
	5.890759e-05	-0.0002113128	0.07842235	-0.07303864	6.344115e-05	-0.0002164747	0.1152636	-0.06598535
	0.1152115	-0.06587819	6.344123e-05	-0.0002164762	0.0781562	-0.07270092	5.891224e-05	-0.0002111634
	5.77065e-05	-0.0002074785	0.1152608	-0.06598676	5.891226e-05	-0.0002111634	0.07855016	-0.07298204
1.1e+08	0.025092	-0.03921383	-5.692092e-05	-0.0001856235	0.02911589	-0.06332918	-5.642661e-05	-0.0001813631
	-5.692103e-05	-0.000185624	0.02491481	-0.03909788	-5.823033e-05	-0.0001938943	0.02912022	-0.06341718
	0.02911496	-0.06332908	-5.823132e-05	-0.0001938952	0.02485919	-0.03847452	-5.70145e-05	-0.0001856951
	-5.642753e-05	-0.0001813641	0.02911946	-0.06341616	-5.701439e-05	-0.0001856948	0.02508197	-0.03895732
1.2e+08	0.06304051	0.004897506	-6.429878e-05	-0.0001097465	0.04093219	0.01670905	-6.242288e-05	-0.0001061497
	-6.429936e-05	-0.0001097464	0.0628165	0.005092772	-7.059364e-05	-0.000113176	0.04094871	0.01663391
	0.0409322	0.01670729	-7.059465e-05	-0.0001131762	0.06310616	0.005604684	-6.473003e-05	-0.0001096874
	-6.242385e-05	-0.0001061505	0.0409495	0.01663276	-6.472949e-05	-0.000109688	0.0630985	0.00516464
1.3e+08	0.1045197	-0.0417793	-3.71193e-05	-0.0001246492	0.1192963	-0.005634322	-3.472287e-05	-0.0001219226
	-3.711926e-05	-0.0001246486	0.104345	-0.04144323	-3.981939e-05	-0.0001227502	0.1192997	-0.0057468
	0.1192942	-0.005636809	-3.982e-05	-0.0001227502	0.1045775	-0.04123003	-3.745683e-05	-0.0001240997
	-3.472378e-05	-0.0001219231	0.1192983	-0.005748788	-3.745719e-05	-0.0001241008	0.1045699	-0.04152824
1.4e+08	0.06002374	-0.09061139	-7.415886e-05	-0.0001709094	0.09552295	-0.08757794	-7.167914e-05	-0.000168501
	-7.415846e-05	-0.0001709094	0.0600125	-0.09021751	-7.172098e-05	-0.000172632	0.09547848	-0.0876792
	0.09551991	-0.08757827	-7.172157e-05	-0.0001726323	0.0599471	-0.08989538	-7.397869e-05	-0.0001703236
	-7.168022e-05	-0.0001685018	0.09547649	-0.08767896	-7.39796e-05	-0.0001703241	0.06006731	-0.09028753
1.5e+08	0.008638053	-0.05756759	-0.0001810831	-0.0001742525	0.01441202	-0.06641212	-0.0001778221	-0.0001715152
	-0.0001810832	-0.0001742527	0.008733979	-0.05727399	-0.0001830376	-0.0001823163	0.01437848	-0.06650118
	0.0144107	-0.06641127	-0.0001830388	-0.0001823163	0.00881647	-0.05652128	-0.0001807634	-0.0001740782
	-0.000177824	-0.0001715154	0.01437861	-0.06650039	-0.0001807641	-0.0001740782	0.008792015	-0.05719784
1.6e+08	0.03647639	-0.01698041	-0.0002629246	-5.914203e-05	0.04013072	0.006209002	-0.0002576759	-5.724796e-05
	-0.0002629248	-5.914186e-05	0.03649821	-0.01672866	-0.0002737145	-6.326989e-05	0.0400657	0.006070899
	0.04013018	0.006208513	-0.0002737156	-6.326902e-05	0.03715539	-0.01603477	-0.0002629486	-5.912426e-05
	-0.0002576777	-5.724703e-05	0.0400662	0.006069686	-0.0002629491	-5.912432e-05	0.03669415	-0.01670082
1.7e+08	0.06592018	-0.05051164	-0.0002151266	5.73614e-05	0.1062381	-0.02952425	-0.0002091937	5.641738e-05
	-0.0002151265	5.736175e-05	0.06594812	-0.05010188	-0.000224225	6.368389e-05	0.106062	-0.02963869
	0.1062362	-0.02952503	-0.0002242252	6.368516e-05	0.06669942	-0.04998007	-0.000215345	5.782605e-05
	-0.0002091946	5.641891e-05	0.1060606	-0.02964023	-0.0002153457	5.782607e-05	0.06606294	-0.05026538
1.8e+08	0.02796673	-0.08185424	-0.0001271495	6.13143e-05	0.06544704	-0.09710573	-0.0001231132	5.833169e-05
	-0.0001271491	6.131433e-05	0.02824524	-0.08135393	-0.0001261264	6.816738e-05	0.06525003	-0.09707169
	0.06544487	-0.09710492	-0.000126126	6.816784e-05	0.0285263	-0.08139102	-0.0001267733	6.214783e-05
	-0.0001231133	5.833259e-05	0.06524823	-0.09707162	-0.000126774	6.214827e-05	0.02810293	-0.08148775
1.9e+08	-0.009111892	-0.05052759	-0.0001554991	-9.103291e-06	-0.002962513	-0.05810859	-0.0001531307	-1.128332e-05
	-0.0001554991	-9.103544e-06	-0.008595624	-0.0502474	-0.0001533874	-1.176816e-05	-0.003008751	-0.0580453
	-0.002963197	-0.05810719	-0.0001533879	-1.176797e-05	-0.00843276	-0.04982899	-0.000154518	-8.833876e-06
	-0.0001531314	-1.128274e-05	-0.003009322	-0.05804475	-0.0001545182	-8.833253e-06	-0.008788783	-0.05013626
2e+08	0.01148866	-0.0200999	-0.000281159	7.439714e-05	0.03560705	0.002456317	-0.0002773398	7.28213e-05
	-0.0002811592	7.439715e-05	0.01188838	-0.02006715	-0.0002895725	7.073895e-05	0.03554218	0.002353717
	0.03560698	0.002456612	-0.000289573	7.074019e-05	0.01262821	-0.01952764	-0.0002805244	7.394175e-05
	-0.0002773404	7.282297e-05	0.03554185	0.002353284	-0.0002805245	7.394224e-05	0.01187025	-0.01991425
2.1e+08	0.02634367	-0.03894001	-0.0002221441	0.0002831066	0.08585001	-0.04179888	-0.0002173156	0.0002784168
	-0.0002221441	0.0002831069	0.02660127	-0.03879942	-0.0002330733	0.0002917972	0.08555565	-0.04185099
	0.08584908	-0.04179885	-0.0002330726	0.0002917987	0.02761292	-0.03892133	-0.000222247	0.0002828329
	-0.0002173148	0.0002784188	0.08555432	-0.0418514	-0.000222247	0.0002828334	0.02654238	-0.03881564
2.2e+08	0.0003266161	-0.04609262	9.363924e-06	0.000312064	0.03454709	-0.08843823	1.075061e-05	0.0003044688
	9.364251e-06	0.000312064	0.000806925	-0.04581187	1.109031e-05	0.0003264744	0.03426521	-0.08818386
	0.03454608	-0.08843727	1.109165e-05	0.0003264746	0.001255142	-0.04640031	9.484765e-06	0.0003126255
	1.075235e-05	0.0003044694	0.03426383	-0.08818316	9.484943e-06	0.000312626	0.0004920285	-0.04578108
2.3e+08	-0.01004412	-0.01720414	7.533618e-05	0.0001221287	-0.01228031	-0.03496928	7.270148e-05	0.0001164853
	7.533626e-05	0.0001221285	-0.009258138	-0.0172081	8.523762e-05	0.0001255165	-0.01222927	-0.03467049
	-0.01228033	-0.03496815	8.523793e-05	0.0001255161	-0.009328765	-0.01741153	7.655787e-05	0.0001223982
	7.270215e-05	0.0001164849	-0.01222969	-0.0346695	7.655819e-05	0.0001223984	-0.00963825	-0.01687812
2.4e+08	0.01067436	-0.006757876	-9.816563e-05	0.000105821	0.03917446	0.007216091	-9.999315e-05	0.0001033703
	-9.816581e-05	0.0001058209	0.0112865	-0.007190115	-9.781941e-05	0.0001006416	0.03926779	0.007199264
	0.03917472	0.007216413	-9.781946e-05	0.0001006421	0.01155388	-0.006955599	-9.706708e-05	0.0001047195
	-9.99931e-05	0.0001033709	0.03926769	0.007199616	-9.706681e-05	0.0001047196	0.0111149	-0.006718526
2.5e+08	0.009258489	-0.01875576	-7.747767e-05	0.0003424202	0.07133768	-0.04396721	-7.71406e-05	0.0003383265
	-7.747767e-05	0.0003424204	0.009520985	-0.01915458	-8.587339e-05	0.0003470103	0.0710986	-0.04398017
	0.07133736	-0.04396709	-8.587233e-05	0.0003470111	0.01023329	-0.01935277	-7.786843e-05	0.0003410971
	-7.713933e-05	0.0003383275	0.07109804	-0.04397992	-7.78682e-05	0.0003410971	0.009423165	-0.01878833
2.6e+08	-0.005708225	-0.002422794	0.0002360464	0.0003757801	0.01561901	-0.06721738	0.0002333176	0.0003687394
	0.0002360465	0.0003757801	-0.005373725	-0.002598167	0.0002379842	0.000391209	0.01539114	-0.06681897
	0.01561867	-0.06721673	0.0002379858	0.0003912086	-0.005108362	-0.003442123	0.000235252	0.0003759787
	0.0002333194	0.0003687389	0.01539066	-0.06681819	0.0002352522	0.0003759787	-0.005612647	-0.002221214
2.7e+08	0.01556352	0.02219191	0.0003517512	6.828605e-05	-0.003503607	-0.005932882	0.0003442997	6.388591e-05
	0.0003517512	6.828587e-05	0.01617586	0.02179501	0.0003675499	7.47557e-05	-0.003259504	-0.005486721
	-0.003503366	-0.005932227	0.0003675503	7.475459e-05	0.01561132	0.0211937	0.0003525636	6.882854e-05
	0.0003443002	6.388457e-05	-0.003259349	-0.005485939	0.0003525637	6.882841e-05	0.01588445	0.02241046
2.8e+08	0.04154329	0.004709406	0.0001130601	-5.546653e-05	0.05879218	0.01130051	0.000106179	-5.477496e-05
	0.00011306	-5.546657e-05	0.04194466	0.003859997	0.0001230744	-6.416567e-05	0.05914346	0.0112997
	0.05879251	0.01130064	0.0001230742	-6.416596e-05	0.04136839	0.004025459	0.0001142838	-5.668889e-05
	0.0001061787	-5.477534e-05	0.05914376	0.01129994	0.0001142838	-5.6689e-05	0.04185218	0.004664683
2.9e+08	0.02260471	-0.01238088	4.394014e-05	0.0001687196	0.07107629	-0.04770886	4.076495e-05	0.0001698754
	4.394011e-05	0.0001687197	0.02252111	-0.01323175	3.93798e-05	0.0001633553	0.07102956	-0.04781048
	0.07107623	-0.0477088	3.938033e-05	0.0001633554	0.02253106	-0.01300399	4.320695e-05	0.0001666681
	4.07655e-05	0.0001698755	0.07102951	-0.04781034	4.320697e-05	0.000166668	0.02262857	-0.01245633
3e+08	0.01048871	0.01995757	0.0003414777	0.0002196415	0.01345163	-0.04978703	0.0003376191	0.0002180533
	0.0003414777	0.0002196415	0.01027924	0.0194231	0.0003398209	0.0002288209	0.01335005	-0.0494679
	0.01345161	-0.04978668	0.0003398218	0.0002288201	0.01024406	0.0190453	0.0003395413	0.0002197263
	0.0003376201	0.0002180524	0.01335006	-0.04946751	0.0003395413	0.0002197262	0.01043879	0.02011148
3.1e+08	0.05618822	0.03994296	0.0004492248	-0.0001253291	0.02154915	0.01225601	0.0004417987	-0.0001251622
	0.0004492248	-0.0001253292	0.05616935	0.03940042	0.0004637473	-0.0001186534	0.02193306	0.01263282
	0.02154948	0.01225622	0.0004637471	-0.0001186547	0.0553143	0.03901927	0.0004494566	-0.0001241307
	0.0004417984	-0.0001251636	0.0219334	0.01263305	0.0004494566	-0.0001241307	0.05627372	0.04012346
3.2e+08	0.08708997	-0.004835422	0.0001676802	-0.0002957072	0.0893915	0.001389311	0.0001607044	-0.0002908066
	0.0001676801	-0.0002957072	0.0869178	-0.005663237	0.0001825368	-0.0003065683	0.08990978	0.001282887
	0.08939174	0.001389218	0.0001825361	-0.0003065689	0.08574375	-0.005166156	0.0001688486	-0.0002965074
	0.0001607037	-0.0002908071	0.08991002	0.001282797	0.0001688486	-0.0002965074	0.08711266	-0.004763352
3.3e+08	0.05101816	-0.03539381	4.736973e-06	-0.0001025273	0.08018769	-0.06608778	1.947291e-06	-9.568099e-05
	4.736933e-06	-0.0001025273	0.05041832	-0.03619817	2.892936e-06	-0.0001180395	0.08030396	-0.0663916
	0.08018767	-0.06608784	2.892713e-06	-0.0001180395	0.04987512	-0.03510544	4.046298e-06	-0.0001046063
	1.947067e-06	-9.568099e-05	0.08030393	-0.06639166	4.046286e-06	-0.0001046063	0.05088604	-0.03525252
3.4e+08	0.02964873	0.003402953	0.000208841	6.106767e-06	0.01867583	-0.05138099	0.0002084771	1.056802e-05
	0.000208841	6.106789e-06	0.02881398	0.002944002	0.0001997136	5.362246e-06	0.01862403	-0.05133821
	0.01867588	-0.0513809	0.0001997138	5.361738e-06	0.02882288	0.003647677	0.0002062072	6.005809e-06
	0.0002084772	1.056753e-05	0.01862406	-0.05133811	0.0002062072	6.005822e-06	0.02951341	0.003690471
3.5e+08	0.08362853	0.0231064	0.0003012196	-0.0002692321	0.04715769	0.00823514	0.0002993064	-0.0002655613
	0.0003012196	-0.0002692321	0.082891	0.02290157	0.0003061222	-0.0002625585	0.04747593	0.008380235
	0.0471579	0.008235062	0.0003061217	-0.0002625593	0.08245138	0.02321336	0.0003007682	-0.0002672755
	0.0002993058	-0.0002655621	0.04747611	0.008380168	0.0003007683	-0.0002672755	0.08350912	0.02340296
3.6e+08	0.1155577	-0.03732497	3.762295e-05	-0.000415274	0.1138722	-0.02782007	3.561513e-05	-0.0004093278
	3.762294e-05	-0.0004152741	0.1148525	-0.03753696	5.063954e-05	-0.0004228794	0.1143087	-0.02806955
	0.1138722	-0.02782032	5.06386e-05	-0.0004228796	0.1138917	-0.03661216	3.876021e-05	-0.0004153228
	3.561422e-05	-0.000409328	0.1143086	-0.02806979	3.876022e-05	-0.0004153228	0.1153316	-0.03692342
3.7e+08	0.06694712	-0.08052427	-0.0001568541	-0.0002594434	0.08305295	-0.1010366	-0.0001562094	-0.0002515681
	-0.0001568542	-0.0002594434	0.06607997	-0.08068669	-0.0001571769	-0.0002786107	0.08315574	-0.1014912
	0.08305278	-0.1010367	-0.0001571775	-0.0002786104	0.06560505	-0.07886766	-0.0001572937	-0.0002609243
	-0.00015621	-0.0002515679	0.08315555	-0.1014912	-0.0001572937	-0.0002609243	0.06680818	-0.07991261
3.8e+08	0.02827627	-0.04294686	-7.406881e-05	-9.209123e-05	0.01459	-0.07355943	-6.938837e-05	-8.539274e-05
	-7.406884e-05	-9.20912e-05	0.02723561	-0.04286181	-9.004626e-05	-0.0001010123	0.01445714	-0.07378965
	0.01458995	-0.07355942	-9.004651e-05	-0.0001010122	0.02781357	-0.04113859	-7.649385e-05	-9.232263e-05
	-6.938861e-05	-8.539265e-05	0.01445709	-0.0737896	-7.649384e-05	-9.232264e-05	0.02831111	-0.04236463
3.9e+08	0.07350337	-0.01548906	3.216823e-05	-0.0002148364	0.05362829	-0.01428312	3.759868e-05	-0.0002117349
	3.216825e-05	-0.0002148364	0.07249468	-0.01502804	2.32823e-05	-0.000206699	0.05367383	-0.01435482
	0.0536283	-0.01428328	2.328182e-05	-0.0002066991	0.07319076	-0.01413923	3.098251e-05	-0.0002124708
	3.759822e-05	-0.000211735	0.05367385	-0.01435494	3.098253e-05	-0.0002124708	0.07343286	-0.01500178
4e+08	0.1038683	-0.07331136	-0.0001393117	-0.0003151742	0.114847	-0.06694457	-0.0001353205	-0.0003131759
	-0.0001393117	-0.0003151742	0.1031039	-0.07260696	-0.0001322079	-0.0003126252	0.1149761	-0.06722623
	0.1148468	-0.06694479	-0.0001322085	-0.000312625	0.1031514	-0.07170654	-0.0001381268	-0.0003140244
	-0.0001353212	-0.0003131757	0.1149759	-0.06722641	-0.0001381269	-0.0003140244	0.1036409	-0.07255235
4.1e+08	0.05193614	-0.120008	-0.0002939226	-0.0001991574	0.06489376	-0.1394976	-0.0002902822	-0.0001962919
	-0.0002939227	-0.0001991574	0.0513927	-0.1192788	-0.0002913941	-0.000212795	0.06480736	-0.1398871
	0.06489345	-0.1394976	-0.0002913945	-0.0002127945	0.05155051	-0.1175364	-0.0002936677	-0.0001997834
	-0.0002902828	-0.0001962915	0.06480708	-0.1398871	-0.0002936677	-0.0001997834	0.05203134	-0.1189108
4.2e+08	-0.00071925	-0.0875153	-0.0002930027	-3.031108e-05	-0.00934668	-0.1010854	-0.0002867387	-2.659785e-05
	-0.0002930027	-3.031105e-05	-0.001247377	-0.08679143	-0.0003093125	-4.218604e-05	-0.009595448	-0.1013564
	-0.009346826	-0.1010853	-0.0003093128	-4.21855e-05	4.927917e-05	-0.08487339	-0.0002943722	-3.035657e-05
	-0.0002867389	-2.659731e-05	-0.009595562	-0.1013563	-0.0002943722	-3.035656e-05	-0.0001992825	-0.08665554
4.3e+08	0.02524583	-0.04787184	-0.0001824758	1.104427e-05	0.03147028	-0.03906814	-0.0001731647	1.083361e-05
	-0.0001824757	1.10443e-05	0.02469851	-0.04690134	-0.0002016198	2.025117e-05	0.03122003	-0.03921166
	0.03147018	-0.0390682	-0.0002016198	2.02516e-05	0.02660111	-0.04604846	-0.0001836436	1.307272e-05
	-0.0001731647	1.083402e-05	0.03121996	-0.03921172	-0.0001836436	1.307272e-05	0.02555011	-0.04734789
4.4e+08	0.05434836	-0.08550556	-0.0001984877	-4.536249e-05	0.08639299	-0.09587353	-0.0001916304	-5.015542e-05
	-0.0001984877	-4.536248e-05	0.0541165	-0.08419762	-0.0001975277	-2.971496e-05	0.08615697	-0.09600112
	0.08639268	-0.09587359	-0.0001975277	-2.971454e-05	0.05533362	-0.08403648	-0.0001972715	-4.324002e-05
	-0.0001916305	-5.015501e-05	0.08615669	-0.09600118	-0.0001972715	-4.324002e-05	0.05437927	-0.08463706
4.5e+08	0.01154183	-0.1245461	-0.0002730781	1.853948e-06	0.02414682	-0.1604063	-0.0002702706	-3.037873e-06
	-0.0002730781	1.853945e-06	0.01184726	-0.1232618	-0.0002641579	9.955604e-08	0.02385765	-0.1604794
	0.02414649	-0.1604061	-0.0002641579	9.996543e-08	0.01261239	-0.1225837	-0.0002715175	1.997629e-06
	-0.0002702707	-3.037448e-06	0.02385735	-0.1604792	-0.0002715176	1.997633e-06	0.01202768	-0.1232632
4.6e+08	-0.04141	-0.0978783	-0.0002982661	0.0001136182	-0.04913608	-0.1110454	-0.0002960861	0.0001118894
	-0.0002982661	0.0001136182	-0.04087003	-0.09695409	-0.000305865	0.0001025422	-0.04938679	-0.1110621
	-0.04913621	-0.1110452	-0.0003058649	0.0001025427	-0.03938302	-0.09587208	-0.000298082	0.0001133115
	-0.0002960861	0.00011189	-0.04938689	-0.1110619	-0.000298082	0.0001133115	-0.04030632	-0.09698859
4.7e+08	-0.03376362	-0.05149248	-0.0002214612	0.0002379972	-0.009460374	-0.04738295	-0.0002149561	0.0002355619
	-0.0002214612	0.0002379972	-0.03335796	-0.05067107	-0.0002418205	0.0002443175	-0.009774548	-0.04743932
	-0.009460455	-0.04738286	-0.0002418201	0.000244318	-0.03109384	-0.05043815	-0.00022178	0.000238862
	-0.0002149558	0.0002355624	-0.009774615	-0.04743925	-0.00022178	0.000238862	-0.03293612	-0.05123674
4.8e+08	-0.006654171	-0.0603737	-9.112627e-05	0.0002425175	0.03897479	-0.09679468	-8.552229e-05	0.000233384
	-9.112624e-05	0.0002425175	-0.006095796	-0.05928161	-9.471162e-05	0.0002661396	0.03852604	-0.09668376
	0.03897455	-0.09679457	-9.471108e-05	0.0002661398	-0.004362399	-0.06017705	-9.011176e-05	0.0002442003
