!
!4 port subset of full cascaded channels using these ports:61 37 62 38
# Hz S RI R 50
0	0.02979878	0.0002743836	-1.685053e-06	7.466725e-10	0.003485593	9.207997e-05	-1.698227e-06	7.522096e-10
	-1.685052e-06	7.46675e-10	0.02976701	0.000274387	-1.59581e-06	7.341734e-10	0.003385663	9.211927e-05
	0.003489083	9.05164e-05	-1.595831e-06	7.318347e-10	0.02852649	0.000275	-1.60836e-06	7.371608e-10
	-1.698248e-06	7.498661e-10	0.00338979	9.055577e-05	-1.60836e-06	7.371657e-10	0.02864619	0.0002749351
1e+07	0.07769104	0.01873235	-1.618124e-05	-4.901099e-06	0.07793986	0.06362315	-1.648088e-05	-4.564723e-06
	-1.618123e-05	-4.9011e-06	0.07704628	0.01801492	-1.568074e-05	-4.77628e-06	0.07723756	0.06298641
	0.07794388	0.06361827	-1.568074e-05	-4.776371e-06	0.07770957	0.01873058	-1.599729e-05	-4.476823e-06
	-1.648089e-05	-4.564813e-06	0.07724158	0.06298151	-1.599729e-05	-4.476823e-06	0.0770609	0.01803922
2e+07	0.07561974	-0.0277258	-5.608789e-06	1.024544e-05	0.1317893	-0.01538125	-5.301581e-06	1.156665e-05
	-5.60885e-06	1.024524e-05	0.07489217	-0.02796204	-5.455974e-06	9.960249e-06	0.1312075	-0.01554052
	0.1318089	-0.01538666	-5.455811e-06	9.961022e-06	0.07563834	-0.02778552	-5.191166e-06	1.123245e-05
	-5.30139e-06	1.15674e-05	0.131233	-0.01554629	-5.191078e-06	1.123262e-05	0.07490695	-0.02792339
3e+07	0.0249431	-0.01417077	1.246481e-05	-2.085761e-05	0.05012725	-0.06060136	1.433478e-05	-1.998334e-05
	1.24648e-05	-2.085759e-05	0.02527564	-0.01531374	1.212213e-05	-2.022302e-05	0.05064804	-0.0619296
	0.05013105	-0.06060058	1.212184e-05	-2.022303e-05	0.02488825	-0.01418071	1.39343e-05	-1.941237e-05
	1.433449e-05	-1.998334e-05	0.0506514	-0.06192909	1.39343e-05	-1.941239e-05	0.02532203	-0.01521833
4e+07	0.04991782	0.04266424	-4.052782e-05	-4.762358e-05	0.01713378	0.02519732	-3.889721e-05	-4.852722e-05
	-4.052785e-05	-4.762358e-05	0.04875776	0.03906218	-3.942718e-05	-4.607996e-05	0.01591103	0.02145777
	0.01714009	0.02519078	-3.942681e-05	-4.607953e-05	0.04984232	0.04274932	-3.789449e-05	-4.707638e-05
	-3.889684e-05	-4.85268e-05	0.01591727	0.02145089	-3.789449e-05	-4.707639e-05	0.04883485	0.03916434
5e+07	0.1103556	0.01272725	-7.893697e-05	1.041311e-05	0.1068417	0.04911652	-7.904401e-05	9.871812e-06
	-7.893699e-05	1.041312e-05	0.1056839	0.009910692	-7.630743e-05	1.044219e-05	0.1024053	0.04657898
	0.1068411	0.04911058	-7.630719e-05	1.044157e-05	0.1103749	0.01285462	-7.659851e-05	9.819252e-06
	-7.904377e-05	9.871198e-06	0.1024046	0.04657305	-7.659853e-05	9.819272e-06	0.1057707	0.0100109
6e+07	0.0835011	-0.04568341	-3.384882e-05	5.715262e-05	0.1290744	-0.04179225	-3.326699e-05	5.870549e-05
	-3.384881e-05	5.715264e-05	0.07819539	-0.04495635	-3.229695e-05	5.529657e-05	0.1247976	-0.04116978
	0.1290733	-0.04179447	-3.229809e-05	5.529664e-05	0.08354574	-0.04566067	-3.195498e-05	5.685703e-05
	-3.326813e-05	5.870556e-05	0.1247963	-0.04117207	-3.195494e-05	5.685703e-05	0.07827922	-0.04483117
7e+07	0.03068984	-0.01686761	7.986164e-06	1.873407e-05	0.04000951	-0.05991454	1.169675e-05	1.963625e-05
	7.986156e-06	1.873407e-05	0.02858515	-0.01515203	7.840571e-06	1.75966e-05	0.0387545	-0.05931913
	0.04000945	-0.05991555	7.84077e-06	1.759711e-05	0.03056348	-0.01687019	1.134762e-05	1.858889e-05
	1.169692e-05	1.963678e-05	0.03875441	-0.05932015	1.134757e-05	1.858888e-05	0.02871507	-0.01498552
8e+07	0.07188969	0.03355811	-4.34133e-05	-9.542927e-06	0.03411819	0.02774321	-3.964747e-05	-1.268264e-05
	-4.341331e-05	-9.54284e-06	0.06982123	0.03161604	-4.261062e-05	-9.256904e-06	0.03197952	0.02480933
	0.03411943	0.0277402	-4.261064e-05	-9.256624e-06	0.0716882	0.03379616	-3.901039e-05	-1.23185e-05
	-3.964751e-05	-1.268232e-05	0.03198039	0.02480646	-3.90104e-05	-1.231853e-05	0.07003065	0.03175076
9e+07	0.1275359	-0.0148125	-7.31402e-05	5.457883e-05	0.1242502	0.02451829	-7.331444e-05	5.044388e-05
	-7.314005e-05	5.457902e-05	0.1204678	-0.01682179	-7.054982e-05	5.346458e-05	0.1176601	0.02246256
	0.1242491	0.02451404	-7.055012e-05	5.346481e-05	0.1275702	-0.01443843	-7.096593e-05	4.940548e-05
	-7.331465e-05	5.044435e-05	0.1176588	0.02245916	-7.096593e-05	4.940552e-05	0.1206687	-0.01677283
1e+08	0.08793974	-0.07699961	-1.873666e-05	0.0001080263	0.1228382	-0.06895307	-2.035782e-05	0.0001072141
	-1.873664e-05	0.0001080263	0.07842235	-0.07303864	-1.735514e-05	0.0001042258	0.1152636	-0.06598535
	0.1228355	-0.06895456	-1.735508e-05	0.0001042266	0.08812778	-0.07682478	-1.928176e-05	0.0001036438
	-2.035775e-05	0.000107215	0.1152608	-0.06598676	-1.928176e-05	0.0001036437	0.07855016	-0.07298204
1.1e+08	0.02895622	-0.0481462	5.172568e-05	8.036671e-05	0.03198023	-0.06938882	5.358222e-05	8.095888e-05
	5.172564e-05	8.036672e-05	0.02491481	-0.03909788	4.997858e-05	7.681738e-05	0.02912022	-0.06341718
	0.03197946	-0.0693879	4.997908e-05	7.681738e-05	0.02892468	-0.04811443	5.168805e-05	7.786091e-05
	5.358271e-05	8.095884e-05	0.02911946	-0.06341616	5.168802e-05	7.786089e-05	0.02508197	-0.03895732
1.2e+08	0.06168104	0.0003625331	4.033097e-05	2.315997e-05	0.04075568	0.01466005	4.388181e-05	1.929111e-05
	4.033099e-05	2.316003e-05	0.0628165	0.005092772	3.800806e-05	2.221038e-05	0.04094871	0.01663391
	0.04075649	0.01465885	3.800809e-05	2.221068e-05	0.06146176	0.000685518	4.169083e-05	1.865137e-05
	4.38818e-05	1.929139e-05	0.0409495	0.01663276	4.16908e-05	1.865134e-05	0.0630985	0.00516464
1.3e+08	0.1074974	-0.04232135	5.508955e-06	3.973329e-05	0.1228971	-0.005691883	4.233474e-06	3.29901e-05
	5.509007e-06	3.973327e-05	0.104345	-0.04144323	5.153253e-06	3.930012e-05	0.1192997	-0.0057468
	0.1228958	-0.005693934	5.153674e-06	3.930075e-05	0.1075827	-0.04172807	3.793854e-06	3.263432e-05
	4.233843e-06	3.299069e-05	0.1192983	-0.005748788	3.793803e-06	3.263429e-05	0.1045699	-0.04152824
1.4e+08	0.06796796	-0.09659783	2.89425e-05	8.160995e-05	0.1018547	-0.09198857	2.341201e-05	7.867108e-05
	2.894249e-05	8.160994e-05	0.0600125	-0.09021751	2.870995e-05	7.889152e-05	0.09547848	-0.0876792
	0.1018528	-0.09198846	2.871084e-05	7.889185e-05	0.06838342	-0.09623593	2.286856e-05	7.646115e-05
	2.341282e-05	7.867142e-05	0.09547649	-0.08767896	2.286848e-05	7.646114e-05	0.06006731	-0.09028753
1.5e+08	0.01095922	-0.07207433	0.000101695	7.518623e-05	0.0163052	-0.07642662	9.86817e-05	7.701242e-05
	0.000101695	7.518623e-05	0.008733979	-0.05727399	9.822876e-05	7.192728e-05	0.01437848	-0.06650118
	0.01630525	-0.07642594	9.822971e-05	7.192699e-05	0.01120043	-0.07205175	9.557139e-05	7.462491e-05
	9.868261e-05	7.701215e-05	0.01437861	-0.06650039	9.557132e-05	7.462492e-05	0.008792015	-0.05719784
1.6e+08	0.02792084	-0.02784676	0.000130442	-9.58084e-06	0.03443474	-0.0008784453	0.0001320499	-1.009677e-05
	0.000130442	-9.580832e-06	0.03649821	-0.01672866	0.0001251667	-9.386625e-06	0.0400657	0.006070899
	0.03443518	-0.0008796854	0.0001251672	-9.38718e-06	0.02781642	-0.02762252	0.0001276676	-9.872627e-06
	0.0001320503	-1.009732e-05	0.0400662	0.006069686	0.0001276675	-9.872605e-06	0.03669415	-0.01670082
1.7e+08	0.0586199	-0.05173303	7.044974e-05	-5.991013e-05	0.1013521	-0.02997702	6.928648e-05	-6.551008e-05
	7.044977e-05	-5.991012e-05	0.06594812	-0.05010188	6.768563e-05	-5.700073e-05	0.106062	-0.02963869
	0.1013507	-0.02997858	6.768587e-05	-5.700125e-05	0.05875476	-0.05111288	6.628791e-05	-6.322846e-05
	6.928666e-05	-6.551056e-05	0.1060606	-0.02964023	6.62878e-05	-6.322833e-05	0.06606294	-0.05026538
1.8e+08	0.02856847	-0.08406653	2.482151e-05	-2.417411e-05	0.0656969	-0.09774706	1.711268e-05	-2.763259e-05
	2.482153e-05	-2.417413e-05	0.02824524	-0.08135393	2.455583e-05	-2.289683e-05	0.06525003	-0.09707169
	0.06569509	-0.09774707	2.4556e-05	-2.289715e-05	0.02917095	-0.08363852	1.531403e-05	-2.512563e-05
	1.711281e-05	-2.763285e-05	0.06524823	-0.09707162	1.531411e-05	-2.512513e-05	0.02810293	-0.08148775
1.9e+08	-0.01048557	-0.06226777	7.344259e-05	1.572657e-05	-0.003504197	-0.06511323	6.593975e-05	1.993696e-05
	7.344258e-05	1.572655e-05	-0.008595624	-0.0502474	7.121126e-05	1.493669e-05	-0.003008751	-0.0580453
	-0.003504843	-0.06511276	7.121168e-05	1.493621e-05	-0.009975289	-0.06233504	6.104574e-05	2.258455e-05
	6.594014e-05	1.99365e-05	-0.003009322	-0.05804475	6.104409e-05	2.258556e-05	-0.008788783	-0.05013626
2e+08	-0.002995509	-0.03115535	0.0001360538	-6.284492e-05	0.02566075	-0.004791914	0.0001361047	-5.712705e-05
	0.0001360538	-6.284491e-05	0.01188838	-0.02006715	0.0001312661	-6.086666e-05	0.03554218	0.002353717
	0.02566032	-0.004792345	0.0001312661	-6.086757e-05	-0.002950785	-0.03118518	0.0001319759	-5.330322e-05
	0.0001361048	-5.712792e-05	0.03554185	0.002353284	0.0001319757	-5.330308e-05	0.01187025	-0.01991425
2.1e+08	0.008357444	-0.03628839	5.829659e-05	-0.0001661903	0.07205271	-0.03891148	6.023156e-05	-0.0001673926
	5.82966e-05	-0.0001661903	0.02660127	-0.03879942	5.60411e-05	-0.0001603514	0.08555565	-0.04185099
	0.07205133	-0.03891184	5.604049e-05	-0.0001603521	0.008449336	-0.03587435	5.955833e-05	-0.0001616546
	6.023099e-05	-0.0001673933	0.08555432	-0.0418514	5.955837e-05	-0.0001616545	0.02654238	-0.03881564
2.2e+08	-0.007137728	-0.03681055	-6.626443e-05	-0.0001222644	0.02831449	-0.07868107	-7.170554e-05	-0.0001254669
	-6.626441e-05	-0.0001222644	0.000806925	-0.04581187	-6.407083e-05	-0.0001175455	0.03426521	-0.08818386
	0.02831312	-0.07868036	-6.40715e-05	-0.0001175455	-0.006565103	-0.03644103	-6.901788e-05	-0.0001216897
	-7.17062e-05	-0.0001254668	0.03426383	-0.08818316	-6.901781e-05	-0.0001216897	0.0004920285	-0.04578108
2.3e+08	-0.01150822	-0.01630764	-4.175407e-05	-8.308471e-06	-0.01185789	-0.03085809	-5.054465e-05	-2.95049e-06
	-4.175408e-05	-8.308494e-06	-0.009258138	-0.0172081	-3.967819e-05	-7.409198e-06	-0.01222927	-0.03467049
	-0.01185834	-0.03085713	-3.967833e-05	-7.409096e-06	-0.01090597	-0.01646538	-4.85752e-05	-2.34223e-06
	-5.054476e-05	-2.950369e-06	-0.01222969	-0.0346695	-4.857516e-05	-2.342249e-06	-0.00963825	-0.01687812
2.4e+08	-0.001205278	-0.01088373	6.345211e-05	-5.206304e-05	0.0322482	0.005464285	6.334318e-05	-4.105188e-05
	6.34521e-05	-5.206305e-05	0.0112865	-0.007190115	6.234927e-05	-5.071067e-05	0.03926779	0.007199264
	0.03224803	0.005464648	6.234912e-05	-5.071102e-05	-0.001100726	-0.01117578	6.266297e-05	-3.964597e-05
	6.334308e-05	-4.105225e-05	0.03926769	0.007199616	6.266299e-05	-3.964599e-05	0.0111149	-0.006718526
2.5e+08	-0.0109742	-0.009915723	-3.553347e-06	-0.0001832354	0.05567113	-0.03591968	3.591209e-06	-0.0001795436
	-3.553348e-06	-0.0001832354	0.009520985	-0.01915458	-3.665434e-06	-0.0001781584	0.0710986	-0.04398017
	0.05567054	-0.03591935	-3.666181e-06	-0.0001781586	-0.01104796	-0.009805841	4.190466e-06	-0.0001749776
	3.590472e-06	-0.0001795438	0.07109804	-0.04397992	4.19048e-06	-0.0001749776	0.009423165	-0.01878833
2.6e+08	-0.014877	0.02042775	-0.0001757057	-0.0001285052	0.008444259	-0.04530193	-0.0001747342	-0.0001323586
	-0.0001757057	-0.0001285052	-0.005373725	-0.002598167	-0.0001709829	-0.0001236896	0.01539114	-0.06681897
	0.008443825	-0.0453011	-0.0001709836	-0.0001236891	-0.01460965	0.02068402	-0.0001697868	-0.0001284598
	-0.0001747349	-0.000132358	0.01539066	-0.06681819	-0.0001697868	-0.0001284598	-0.005612647	-0.002221214
2.7e+08	0.02205071	0.03889283	-0.000155775	5.220002e-05	0.004927098	0.01161824	-0.0001626191	5.469791e-05
	-0.000155775	5.22e-05	0.01617586	0.02179501	-0.0001497562	5.21104e-05	-0.003259504	-0.005486721
	0.004927285	0.011619	-0.0001497561	5.211099e-05	0.02245656	0.03879365	-0.0001568218	5.39532e-05
	-0.0001626191	5.469851e-05	-0.003259349	-0.005485939	-0.0001568218	5.395318e-05	0.01588445	0.02241046
2.8e+08	0.04393237	0.008573047	-6.611764e-07	4.589079e-05	0.06461495	0.0155595	-9.550765e-07	5.773503e-05
	-6.61197e-07	4.589079e-05	0.04194466	0.003859997	1.649164e-06	4.379447e-05	0.05914346	0.0112997
	0.06461522	0.01555974	1.64934e-06	4.37945e-05	0.04398244	0.008242926	1.258279e-06	5.528612e-05
	-9.548953e-07	5.773504e-05	0.05914376	0.01129994	1.258264e-06	5.52861e-05	0.04185218	0.004664683
2.9e+08	0.01251917	-0.002174799	-2.712568e-05	-9.971556e-05	0.06385927	-0.03869332	-1.596878e-05	-9.30443e-05
	-2.712569e-05	-9.971555e-05	0.02252111	-0.01323175	-2.634483e-05	-9.895372e-05	0.07102956	-0.04781048
	0.06385922	-0.03869313	-2.634517e-05	-9.895374e-05	0.01223328	-0.002249466	-1.51014e-05	-9.283924e-05
	-1.596912e-05	-9.304433e-05	0.07102951	-0.04781034	-1.510142e-05	-9.283924e-05	0.02262857	-0.01245633
3e+08	0.007934297	0.04781911	-0.0002016871	-5.391859e-05	0.0124098	-0.02304249	-0.0001934845	-5.959561e-05
	-0.0002016871	-5.391858e-05	0.01027924	0.0194231	-0.0001974171	-5.181343e-05	0.01335005	-0.0494679
	0.01240987	-0.02304206	-0.0001974175	-5.181287e-05	0.007758737	0.04805391	-0.0001894223	-5.83285e-05
	-0.0001934848	-5.959504e-05	0.01335006	-0.04946751	-0.0001894223	-5.832849e-05	0.01043879	0.02011148
3.1e+08	0.07540228	0.06442367	-0.0001729339	0.0001447356	0.04198173	0.03608717	-0.0001764908	0.0001407719
	-0.0001729339	0.0001447356	0.05616935	0.03940042	-0.0001662677	0.0001423747	0.02193306	0.01263282
	0.04198214	0.03608735	-0.0001662674	0.0001423752	0.0754154	0.06461812	-0.0001704847	0.0001377302
	-0.0001764905	0.0001407725	0.0219334	0.01263305	-0.0001704847	0.0001377302	0.05627372	0.04012346
3.2e+08	0.1090399	0.0005732683	7.259507e-06	0.0001561145	0.1120445	0.00606286	5.07864e-06	0.000163656
	7.25949e-06	0.0001561145	0.0869178	-0.005663237	1.000297e-05	0.000150087	0.08990978	0.001282887
	0.1120447	0.00606272	1.00034e-05	0.0001500871	0.1090102	0.0006027673	7.062115e-06	0.000157379
	5.079067e-06	0.000163656	0.08991002	0.001282797	7.062099e-06	0.000157379	0.08711266	-0.004763352
3.3e+08	0.05837268	-0.03431908	3.323522e-05	8.557436e-06	0.08744307	-0.06489926	4.386424e-05	1.583017e-05
	3.323521e-05	8.55745e-06	0.05041832	-0.03619817	3.222406e-05	4.646138e-06	0.08030396	-0.0663916
	0.08744303	-0.06489933	3.222408e-05	4.646034e-06	0.05806243	-0.03430722	4.234539e-05	1.184957e-05
	4.386426e-05	1.583006e-05	0.08030393	-0.06639166	4.234538e-05	1.184958e-05	0.05088604	-0.03525252
3.4e+08	0.03539459	0.02072804	-0.0001145077	8.479767e-06	0.02504789	-0.03299098	-0.0001018467	1.478652e-06
	-0.0001145077	8.479786e-06	0.02881398	0.002944002	-0.0001143782	7.619124e-06	0.01862403	-0.05133821
	0.02504797	-0.03299087	-0.0001143782	7.619404e-06	0.0348988	0.02108235	-0.000102168	3.460749e-07
	-0.0001018468	1.478929e-06	0.01862406	-0.05133811	-0.000102168	3.460859e-07	0.02951341	0.003690471
3.5e+08	0.1105945	0.0418565	-9.392336e-05	0.0001767666	0.07520505	0.02691956	-9.497187e-05	0.0001657764
	-9.392334e-05	0.0001767666	0.082891	0.02290157	-9.068782e-05	0.0001739817	0.04747593	0.008380235
	0.07520529	0.02691945	-9.068744e-05	0.000173982	0.1103011	0.04252756	-9.254867e-05	0.0001626946
	-9.497149e-05	0.0001657767	0.04747611	0.008380168	-9.254867e-05	0.0001626946	0.08350912	0.02340296
3.6e+08	0.1500166	-0.03885624	6.976002e-05	0.0001856343	0.1470531	-0.02971761	6.383354e-05	0.0001862471
	6.976001e-05	0.0001856343	0.1148525	-0.03753696	7.036242e-05	0.0001786914	0.1143087	-0.02806955
	0.1470531	-0.02971792	7.036285e-05	0.0001786913	0.1500338	-0.03819311	6.337761e-05	0.0001794694
	6.383397e-05	0.000186247	0.1143086	-0.02806979	6.33776e-05	0.0001794694	0.1153316	-0.03692342
3.7e+08	0.08815473	-0.09571503	0.0001253869	5.770027e-05	0.1018571	-0.1132093	0.0001300919	6.406912e-05
	0.0001253868	5.770028e-05	0.06607997	-0.08068669	0.0001211	5.222235e-05	0.08315574	-0.1014912
	0.1018569	-0.1132094	0.0001211002	5.22221e-05	0.08819565	-0.09534016	0.000125054	5.92447e-05
	0.000130092	6.406888e-05	0.08315555	-0.1014912	0.000125054	5.92447e-05	0.06680818	-0.07991261
3.8e+08	0.035915	-0.0487392	2.452542e-05	-3.573476e-06	0.0231468	-0.07421357	3.69668e-05	-8.665035e-06
	2.452543e-05	-3.573453e-06	0.02723561	-0.04286181	1.962847e-05	-4.842587e-06	0.01445714	-0.07378965
	0.02314674	-0.07421354	1.962847e-05	-4.842627e-06	0.03552159	-0.0483011	3.180633e-05	-9.376594e-06
	3.69668e-05	-8.665081e-06	0.01445709	-0.0737896	3.180632e-05	-9.376582e-06	0.02831111	-0.04236463
3.9e+08	0.09421903	-0.01123513	-7.845913e-07	0.000104308	0.0773869	-0.007842131	-1.019716e-07	8.937762e-05
	-7.845716e-07	0.000104308	0.07249468	-0.01502804	-2.510334e-06	0.0001044039	0.05367383	-0.01435482
	0.07738693	-0.007842289	-2.510116e-06	0.000104404	0.09387666	-0.01015327	-2.213728e-06	8.967815e-05
	-1.017611e-07	8.937766e-05	0.05367385	-0.01435494	-2.213723e-06	8.967816e-05	0.07343286	-0.01500178
4e+08	0.1357925	-0.08442416	0.0001152172	0.0001177835	0.1461737	-0.0773707	0.0001052455	0.0001122297
	0.0001152172	0.0001177835	0.1031039	-0.07260696	0.0001139238	0.0001146002	0.1149761	-0.06722623
	0.1461735	-0.07737095	0.000113924	0.0001146	0.1361062	-0.08318582	0.0001031687	0.0001095443
	0.0001052458	0.0001122295	0.1149759	-0.06722641	0.0001031687	0.0001095443	0.1036409	-0.07255235
4.1e+08	0.07444336	-0.1488554	0.0001674685	2.299955e-05	0.08502603	-0.1625601	0.0001636313	2.816572e-05
	0.0001674685	2.299955e-05	0.0513927	-0.1192788	0.0001619165	1.968585e-05	0.06480736	-0.1398871
	0.08502569	-0.1625602	0.0001619166	1.968556e-05	0.07512118	-0.1481188	0.000157561	2.599748e-05
	0.0001636314	2.816544e-05	0.06480708	-0.1398871	0.000157561	2.599748e-05	0.05203134	-0.1189108
4.2e+08	0.000721567	-0.1159986	0.0001169824	-6.472335e-05	-0.004627906	-0.1206109	0.0001246472	-6.42403e-05
	0.0001169824	-6.472334e-05	-0.001247377	-0.08679143	0.0001098137	-6.357421e-05	-0.009595448	-0.1013564
	-0.004628085	-0.1206109	0.0001098136	-6.357447e-05	0.0009322323	-0.1156733	0.0001177542	-6.192764e-05
	0.0001246472	-6.424056e-05	-0.009595562	-0.1013563	0.0001177542	-6.192763e-05	-0.0001992825	-0.08665554
4.3e+08	0.02517842	-0.05818808	4.037717e-05	-3.677506e-05	0.03870299	-0.04527389	4.330266e-05	-4.971271e-05
	4.037719e-05	-3.677505e-05	0.02469851	-0.04690134	3.624888e-05	-3.22509e-05	0.03122003	-0.03921166
	0.03870289	-0.04527395	3.624882e-05	-3.225102e-05	0.02499605	-0.05716986	3.966761e-05	-4.471806e-05
	4.330259e-05	-4.971282e-05	0.03121996	-0.03921172	3.966762e-05	-4.471804e-05	0.02555011	-0.04734789
4.4e+08	0.06903404	-0.0988413	8.031944e-05	4.112189e-06	0.1040192	-0.1085341	6.875009e-05	-5.231097e-06
	8.031946e-05	4.112175e-06	0.0541165	-0.08419762	7.97175e-05	7.003885e-06	0.08615697	-0.09600112
	0.1040189	-0.1085342	7.971748e-05	7.003746e-06	0.06971769	-0.09735303	6.805717e-05	-1.984664e-06
	6.875008e-05	-5.231232e-06	0.08615669	-0.09600118	6.805718e-05	-1.984664e-06	0.05437927	-0.08463706
4.5e+08	0.02350285	-0.1551229	0.0001213156	-4.235738e-05	0.03616141	-0.1849023	0.0001099051	-3.795124e-05
	0.0001213156	-4.235739e-05	0.01184726	-0.1232618	0.0001189515	-4.198822e-05	0.02385765	-0.1604794
	0.03616104	-0.1849021	0.0001189514	-4.198841e-05	0.02486154	-0.1543513	0.0001074709	-3.651791e-05
	0.0001099051	-3.795142e-05	0.02385735	-0.1604792	0.0001074709	-3.651791e-05	0.01202768	-0.1232632
4.6e+08	-0.05074985	-0.1344075	0.0001050876	-0.0001157155	-0.05175553	-0.1375879	0.0001061151	-0.0001082069
	0.0001050876	-0.0001157155	-0.04087003	-0.09695409	0.0001001148	-0.0001126372	-0.04938679	-0.1110621
	-0.05175572	-0.1375877	0.0001001147	-0.0001126375	-0.04984593	-0.1344514	0.0001019913	-0.0001039301
	0.0001061149	-0.0001082071	-0.04938689	-0.1110619	0.0001019913	-0.0001039301	-0.04030632	-0.09698859
4.7e+08	-0.05768007	-0.0685151	1.931638e-05	-0.000149954	-0.02125999	-0.06068243	2.49147e-05	-0.0001548547
	1.931639e-05	-0.000149954	-0.03335796	-0.05067107	1.682487e-05	-0.0001428044	-0.009774548	-0.04743932
	-0.02126011	-0.06068231	1.682459e-05	-0.0001428045	-0.05760981	-0.06812985	2.373756e-05	-0.0001474002
	2.491441e-05	-0.0001548548	-0.009774615	-0.04743925	2.373757e-05	-0.0001474002	-0.03293612	-0.05123674
4.8e+08	-0.01681432	-0.06329163	-3.290595e-05	-9.001303e-05	0.03613943	-0.1013356	-4.07703e-05	-0.0001002778
	-3.290593e-05	-9.001304e-05	-0.006095796	-0.05928161	-3.0391e-05	-8.34501e-05	0.03852604	-0.09668376
	0.03613917	-0.1013355	-3.039123e-05	-8.345005e-05	-0.01609465	-0.06203432	-3.76213e-05	-9.399919e-05
	-4.077052e-05	-0.0001002778	0.03852581	-0.09668367	-3.762128e-05	-9.399919e-05	-0.00631816	-0.05981423
