!
!4 port subset of full cascaded channels using these ports:1 37 2 38
# Hz S RI R 50
0	0.02810702	0.0002743599	-2.248272e-05	1.026207e-08	0.003735658	9.197272e-05	-2.033122e-05	9.682235e-09
	-2.248264e-05	1.026488e-08	0.02976701	0.000274387	-2.089589e-05	9.903134e-09	0.003385663	9.211927e-05
	0.003744055	9.041063e-05	-2.089624e-05	9.869241e-09	0.02961118	0.0002747323	-2.177372e-05	1.012869e-08
	-2.033149e-05	9.647139e-09	0.00338979	9.055577e-05	-2.177368e-05	1.012463e-08	0.02864619	0.0002749351
1e+07	0.07835503	0.01944179	-0.0002323584	-9.308572e-05	0.07833393	0.06273892	-0.0002315302	-9.274492e-05
	-0.0002323582	-9.308544e-05	0.07704628	0.01801492	-0.0002371303	-9.60474e-05	0.07723756	0.06298641
	0.07833691	0.06273539	-0.0002371304	-9.604876e-05	0.07836633	0.01948368	-0.0002201436	-8.420708e-05
	-0.0002315296	-9.274614e-05	0.07724158	0.06298151	-0.0002201431	-8.420725e-05	0.0770609	0.01803922
2e+07	0.07719718	-0.0278793	-0.0003797055	0.0001235562	0.1309378	-0.01798777	-0.0003714961	0.0001229412
	-0.00037971	0.0001235558	0.07489217	-0.02796204	-0.0003831251	0.000125562	0.1312075	-0.01554052
	0.1309454	-0.01798835	-0.0003831183	0.000125565	0.07723817	-0.02783685	-0.0003511187	0.0001175135
	-0.000371485	0.0001229427	0.131233	-0.01554629	-0.0003511094	0.0001175124	0.07490695	-0.02792339
3e+07	0.02535256	-0.01537022	-0.0003552567	0.0005873615	0.0467839	-0.06233621	-0.0003567494	0.0005722926
	-0.0003552571	0.0005873599	0.02527564	-0.01531374	-0.0003666783	0.0005880328	0.05064804	-0.0619296
	0.04678666	-0.06233592	-0.0003666767	0.0005880384	0.02529217	-0.01534099	-0.0003342159	0.0005503522
	-0.0003567477	0.0005722964	0.0506514	-0.06192909	-0.0003342155	0.0005503522	0.02532203	-0.01521833
4e+07	0.04922194	0.04243001	0.0004708722	0.0008983462	0.01457247	0.02570323	0.0004568333	0.0009040658
	0.0004708747	0.0008983465	0.04875776	0.03906218	0.0004652388	0.0009278516	0.01591103	0.02145777
	0.01457879	0.02569961	0.0004652346	0.0009278429	0.04918006	0.0426019	0.0004538048	0.0008461497
	0.0004568308	0.0009040569	0.01591727	0.02145089	0.000453804	0.0008461491	0.04883485	0.03916434
5e+07	0.1102954	0.0131562	0.001081203	4.835709e-05	0.1062449	0.04795259	0.00109415	5.088412e-05
	0.001081201	4.835758e-05	0.1056839	0.009910692	0.001121271	6.085036e-05	0.1024053	0.04657898
	0.1062443	0.04794789	0.001121264	6.085946e-05	0.1104177	0.01333753	0.001019701	1.962076e-05
	0.001094141	5.089455e-05	0.1024046	0.04657305	0.0010197	1.962189e-05	0.1057707	0.0100109
6e+07	0.08348533	-0.04644879	0.0007196742	-0.0006633957	0.1256457	-0.0459535	0.0007058053	-0.0006828174
	0.0007196789	-0.0006633939	0.07819539	-0.04495635	0.0007352827	-0.0006957653	0.1247976	-0.04116978
	0.1256458	-0.04595409	0.0007352882	-0.0006957624	0.08361974	-0.04643433	0.0006437178	-0.00063109
	0.00070582	-0.0006828099	0.1247963	-0.04117207	0.0006437232	-0.0006310866	0.07827922	-0.04483117
7e+07	0.0282556	-0.01801343	0.0002798651	-0.001128745	0.03161217	-0.06138869	0.0002594183	-0.001104322
	0.0002798665	-0.001128748	0.02858515	-0.01515203	0.0002742531	-0.001140708	0.0387545	-0.05931913
	0.0316131	-0.06138943	0.0002742531	-0.001140716	0.02819474	-0.01799252	0.0002518766	-0.001037421
	0.0002594233	-0.001104337	0.03875441	-0.05932015	0.0002518804	-0.001037425	0.02871507	-0.01498552
8e+07	0.06771481	0.03499008	-0.0009763683	-0.001267514	0.0267639	0.03203962	-0.0009561251	-0.001255603
	-0.0009763622	-0.001267513	0.06982123	0.03161604	-0.0009782743	-0.001297016	0.03197952	0.02480933
	0.0267657	0.03203742	-0.0009782919	-0.001297016	0.06765881	0.03525511	-0.0009221226	-0.001179139
	-0.0009561291	-0.001255602	0.03198039	0.02480646	-0.0009221152	-0.001179139	0.07003065	0.03175076
9e+07	0.1247028	-0.01104299	-0.001714341	0.0002198027	0.1215782	0.0289093	-0.001720589	0.0002198505
	-0.001714339	0.0002197949	0.1204678	-0.01682179	-0.001769998	0.0002101835	0.1176601	0.02246256
	0.1215775	0.02890589	-0.001770006	0.0002101992	0.1249163	-0.01074983	-0.001603894	0.0002453083
	-0.001720593	0.0002198483	0.1176588	0.02245916	-0.001603892	0.0002452978	0.1206687	-0.01677283
1e+08	0.0862911	-0.07423287	-0.0007416253	0.001302022	0.1194206	-0.06849089	-0.0007150371	0.001330616
	-0.0007416252	0.001302023	0.07842235	-0.07303864	-0.0007577536	0.001360196	0.1152636	-0.06598535
	0.1194183	-0.06849168	-0.0007577567	0.001360203	0.08657085	-0.07420489	-0.0006328754	0.001230542
	-0.0007150421	0.00133062	0.1152608	-0.06598676	-0.0006328773	0.00123054	0.07855016	-0.07298204
1.1e+08	0.0243475	-0.04582529	9.574541e-05	0.001318784	0.02301066	-0.06718122	0.0001423144	0.001275652
	9.574688e-05	0.001318782	0.02491481	-0.03909788	0.0001301938	0.001332449	0.02912022	-0.06341718
	0.02301001	-0.0671803	0.0001301978	0.001332459	0.0243635	-0.04589231	0.0001126893	0.001172248
	0.0001423151	0.001275663	0.02911946	-0.06341616	0.0001126855	0.00117225	0.02508197	-0.03895732
1.2e+08	0.05475832	0.007740474	0.00115475	0.001325546	0.0318936	0.02468212	0.001118403	0.001274677
	0.001154748	0.001325544	0.0628165	0.005092772	0.001158292	0.00132948	0.04094871	0.01663391
	0.03189392	0.02468137	0.00115831	0.001329475	0.05466362	0.007949929	0.001047115	0.001214463
	0.00111842	0.001274677	0.0409495	0.01663276	0.001047117	0.001214467	0.0630985	0.00516464
1.3e+08	0.1048709	-0.02989483	0.002145465	-0.0002354146	0.1214508	0.007579999	0.002109031	-0.0002317844
	0.002145464	-0.0002354136	0.104345	-0.04144323	0.002182505	-0.0002281325	0.1192997	-0.0057468
	0.1214495	0.007578998	0.002182504	-0.0002281502	0.1050556	-0.02955912	0.00198794	-0.0002335002
	0.002109031	-0.0002317983	0.1192983	-0.005748788	0.001987943	-0.0002334983	0.1045699	-0.04152824
1.4e+08	0.0703524	-0.08640971	0.0009643687	-0.001878754	0.1048993	-0.08347036	0.0009224562	-0.001873075
	0.0009643681	-0.001878754	0.0600125	-0.09021751	0.0009746905	-0.001926706	0.09547848	-0.0876792
	0.1048979	-0.08346964	0.0009746827	-0.001926708	0.07070026	-0.08633982	0.0008448592	-0.001757118
	0.0009224523	-0.001873077	0.09547649	-0.08767896	0.0008448628	-0.001757119	0.06006731	-0.09028753
1.5e+08	0.01026157	-0.06487423	-0.0005457357	-0.001671644	0.01537717	-0.0709179	-0.0005778806	-0.001594372
	-0.0005457357	-0.001671642	0.008733979	-0.05727399	-0.0005782369	-0.001672335	0.01437848	-0.06650118
	0.0153775	-0.07091715	-0.0005782401	-0.001672341	0.01036553	-0.06502479	-0.000533949	-0.001481168
	-0.0005778816	-0.001594381	0.01437861	-0.06650039	-0.0005339474	-0.001481171	0.008792015	-0.05719784
1.6e+08	0.02357961	-0.01388552	-0.001395423	-0.001249682	0.03048061	0.01115453	-0.001314649	-0.001187209
	-0.001395419	-0.001249682	0.03649821	-0.01672866	-0.001377671	-0.001248309	0.0400657	0.006070899
	0.03048096	0.01115374	-0.001377688	-0.001248309	0.02341758	-0.01382548	-0.001230653	-0.001130375
	-0.001314666	-0.001187211	0.0400662	0.006069686	-0.001230656	-0.001130377	0.03669415	-0.01670082
1.7e+08	0.06249329	-0.02981302	-0.002494633	0.0001654111	0.1055561	-0.01087761	-0.002422434	0.0001223533
	-0.002494632	0.0001654083	0.06594812	-0.05010188	-0.00251949	0.0001327305	0.106062	-0.02963869
	0.1055551	-0.0108784	-0.002519495	0.0001327492	0.06250089	-0.02948146	-0.002293435	0.0001198817
	-0.00242244	0.0001223704	0.1060606	-0.02964023	-0.002293438	0.0001198832	0.06606294	-0.05026538
1.8e+08	0.04334279	-0.06746666	-0.001451044	0.002438218	0.08121101	-0.08391432	-0.001426604	0.002382355
	-0.001451046	0.002438216	0.02824524	-0.08135393	-0.001481626	0.002466883	0.06525003	-0.09707169
	0.08120994	-0.08391398	-0.001481614	0.002466892	0.0436183	-0.06727757	-0.001341071	0.002255521
	-0.001426595	0.002382365	0.06524823	-0.09707162	-0.001341071	0.002255523	0.02810293	-0.08148775
1.9e+08	0.001203826	-0.05496101	0.0009952256	0.002500615	0.01077945	-0.06250562	0.0009776453	0.00240721
	0.000995224	0.002500615	-0.008595624	-0.0502474	0.00100219	0.002504813	-0.003008751	-0.0580453
	0.01077924	-0.06250522	0.001002199	0.002504813	0.00135695	-0.05507803	0.0009327025	0.002281999
	0.0009776529	0.002407214	-0.003009322	-0.05804475	0.0009327031	0.002282001	-0.008788783	-0.05013626
2e+08	0.001149287	-0.01780669	0.002255738	0.001200476	0.03075929	-0.0005298458	0.002124443	0.001171907
	0.002255737	0.001200476	0.01188838	-0.02006715	0.002215761	0.001227656	0.03554218	0.002353717
	0.03075898	-0.0005300654	0.002215774	0.001227653	0.00093319	-0.01786001	0.002039859	0.001096349
	0.002124457	0.001171905	0.03554185	0.002353284	0.002039861	0.001096349	0.01187025	-0.01991425
2.1e+08	0.02279859	-0.01184373	0.002977233	-0.0006715315	0.08216826	-0.02335392	0.002912772	-0.0005553919
	0.002977232	-0.0006715287	0.02660127	-0.03879942	0.003027417	-0.0005902525	0.08555565	-0.04185099
	0.08216733	-0.02335388	0.003027422	-0.0005902716	0.02254935	-0.01151319	0.002746237	-0.0005778015
	0.002912778	-0.0005554094	0.08555432	-0.0418514	0.002746238	-0.0005778027	0.02654238	-0.03881564
2.2e+08	0.02456523	-0.02147306	0.001574835	-0.003273448	0.05585363	-0.067506	0.001624084	-0.003197924
	0.001574837	-0.003273446	0.000806925	-0.04581187	0.001669771	-0.003316053	0.03426521	-0.08818386
	0.05585292	-0.06750528	0.001669754	-0.003316065	0.02465498	-0.02104396	0.001484896	-0.00302778
	0.00162407	-0.003197936	0.03426383	-0.08818316	0.001484896	-0.00302778	0.0004920285	-0.04578108
2.3e+08	0.01614292	-0.01970753	-0.001753513	-0.003320156	0.01703704	-0.04026249	-0.001696952	-0.003275367
	-0.001753512	-0.003320157	-0.009258138	-0.0172081	-0.001756049	-0.003383878	-0.01222927	-0.03467049
	0.01703698	-0.04026181	-0.001756064	-0.003383873	0.01634005	-0.01959538	-0.001622822	-0.003081958
	-0.001696965	-0.003275364	-0.01222969	-0.0346695	-0.001622822	-0.003081959	-0.00963825	-0.01687812
2.4e+08	0.01109095	-0.01113071	-0.003548148	-0.0009762901	0.04320599	-0.008937471	-0.003420224	-0.0009925559
	-0.003548148	-0.0009762912	0.0112865	-0.007190115	-0.003538717	-0.001029048	0.03926779	0.007199264
	0.04320595	-0.008937186	-0.003538725	-0.001029038	0.01092822	-0.01115616	-0.003281991	-0.0009138613
	-0.003420232	-0.0009925474	0.03926769	0.007199616	-0.003281992	-0.0009138619	0.0111149	-0.006718526
2.5e+08	0.00928	0.00497965	-0.003556417	0.001976704	0.0642354	-0.03422889	-0.003528661	0.001812682
	-0.003556418	0.001976702	0.009520985	-0.01915458	-0.003649118	0.001879454	0.0710986	-0.04398017
	0.06423514	-0.03422848	-0.003649117	0.001879472	0.00887546	0.005341396	-0.003320716	0.001827523
	-0.003528662	0.001812698	0.07109804	-0.04397992	-0.003320718	0.001827523	0.009423165	-0.01878833
2.6e+08	0.02698125	0.02485603	-0.0007488522	0.004556216	0.03779441	-0.04399808	-0.0008863717	0.004499456
	-0.0007488553	0.004556216	-0.005373725	-0.002598167	-0.0009092111	0.00464655	0.01539114	-0.06681897
	0.03779442	-0.04399742	-0.0009091914	0.004646558	0.02689669	0.02556204	-0.0006895776	0.004261619
	-0.0008863564	0.004499465	0.01539066	-0.06681819	-0.0006895787	0.00426162	-0.005612647	-0.002221214
2.7e+08	0.05829957	0.01605252	0.003239106	0.003313061	0.03790703	-0.01405069	0.003181616	0.003371322
	0.003239104	0.003313063	0.01617586	0.02179501	0.00327962	0.003476135	-0.003259504	-0.005486721
	0.0379074	-0.01405028	0.003279634	0.003476123	0.05857804	0.01653864	0.003039336	0.003061268
	0.003181629	0.003371314	-0.003259349	-0.005485939	0.003039337	0.003061269	0.01588445	0.02241046
2.8e+08	0.05498862	-0.01462256	0.004404699	-3.686446e-05	0.07117955	-0.02097597	0.004361196	-4.194033e-06
	0.0044047	-3.686248e-05	0.04194466	0.003859997	0.004496651	1.425439e-06	0.05914346	0.0112997
	0.0711798	-0.0209759	0.004496652	1.411195e-06	0.05506763	-0.01448993	0.004082143	-4.392921e-05
	0.004361198	-4.20544e-06	0.05914376	0.01129994	0.004082145	-4.392851e-05	0.04185218	0.004664683
2.9e+08	0.02430729	-0.00478827	0.003567004	-0.003383894	0.05813792	-0.05389116	0.003564776	-0.003257949
	0.003567007	-0.003383895	0.02252111	-0.01323175	0.003676944	-0.003354197	0.07102956	-0.04781048
	0.05813799	-0.05389101	0.003676935	-0.003354209	0.02397432	-0.004421275	0.00334638	-0.003159781
	0.003564772	-0.003257962	0.07102951	-0.04781034	0.003346382	-0.003159782	0.02262857	-0.01245633
3e+08	0.04251597	0.03926289	-0.0006848481	-0.005742754	0.02787993	-0.03045151	-0.0005266035	-0.005713074
	-0.0006848459	-0.005742755	0.01027924	0.0194231	-0.0005324637	-0.005878323	0.01335005	-0.0494679
	0.02788016	-0.03045126	-0.0005324828	-0.005878325	0.04237646	0.04013178	-0.0006866509	-0.005416221
	-0.0005266197	-0.005713079	0.01335006	-0.04946751	-0.0006866505	-0.005416223	0.01043879	0.02011148
3.1e+08	0.1048166	0.02595619	-0.005211192	-0.002406484	0.06452684	0.001590891	-0.005177182	-0.00253873
	-0.005211193	-0.002406487	0.05616935	0.03940042	-0.005310415	-0.002628474	0.02193306	0.01263282
	0.0645272	0.001590911	-0.005310425	-0.002628458	0.1051918	0.02677618	-0.004950956	-0.002165117
	-0.005177193	-0.002538718	0.0219334	0.01263305	-0.004950956	-0.002165117	0.05627372	0.04012346
3.2e+08	0.1069733	-0.04110923	-0.004377575	0.002071058	0.1048025	-0.04290823	-0.004437685	0.002056034
	-0.004377577	0.002071056	0.0869178	-0.005663237	-0.004577947	0.002086086	0.08990978	0.001282887
	0.1048026	-0.04290844	-0.004577941	0.002086099	0.1074197	-0.04075086	-0.00400788	0.002023751
	-0.004437683	0.002056046	0.08991002	0.001282797	-0.004007881	0.002023751	0.08711266	-0.004763352
3.3e+08	0.04730857	-0.05067917	-0.002267641	0.004140037	0.05886353	-0.08911274	-0.002257142	0.004115067
	-0.002267644	0.004140038	0.05041832	-0.03619817	-0.002349668	0.004231163	0.08030396	-0.0663916
	0.05886348	-0.0891128	-0.002349657	0.004231168	0.04729808	-0.05040746	-0.00206557	0.003827145
	-0.002257136	0.004115075	0.08030393	-0.06639166	-0.002065571	0.003827146	0.05088604	-0.03525252
3.4e+08	0.04550605	0.009911747	0.001818783	0.005785226	0.01605049	-0.03800925	0.001731769	0.005760143
	0.001818782	0.005785228	0.02881398	0.002944002	0.001760834	0.005931211	0.01862403	-0.05133821
	0.01605057	-0.03800917	0.001760848	0.005931209	0.04541532	0.01070551	0.001729871	0.00543111
	0.001731784	0.005760144	0.01862406	-0.05133811	0.001729872	0.005431112	0.02951341	0.003690471
3.5e+08	0.1214369	0.006148304	0.006595629	0.001391946	0.07982312	0.0005385499	0.006579465	0.001499267
	0.006595632	0.001391949	0.082891	0.02290157	0.006739769	0.001574346	0.04747593	0.008380235
	0.07982329	0.0005384399	0.006739773	0.001574329	0.1218749	0.007105204	0.006273598	0.001201199
	0.006579474	0.001499254	0.04747611	0.008380168	0.006273599	0.0012012	0.08350912	0.02340296
3.6e+08	0.131676	-0.08018913	0.003997604	-0.004268109	0.1262384	-0.07231106	0.004082803	-0.004283377
	0.003997608	-0.004268111	0.1148525	-0.03753696	0.00422454	-0.00434733	0.1143087	-0.02806955
	0.1262384	-0.07231128	0.00422453	-0.004347339	0.1324263	-0.0796512	0.003616909	-0.004158573
	0.004082797	-0.004283389	0.1143086	-0.02806979	0.003616911	-0.004158573	0.1153316	-0.03692342
3.7e+08	0.0533806	-0.1119779	-3.80028e-05	-0.00450034	0.05539966	-0.1327952	-8.741493e-05	-0.004539458
	-3.800219e-05	-0.004500341	0.06607997	-0.08068669	-1.948976e-05	-0.004670104	0.08315574	-0.1014912
	0.05539945	-0.1327952	-1.949956e-05	-0.004670105	0.05383514	-0.1118516	-0.0002168719	-0.004119024
	-8.74234e-05	-0.004539459	0.08315555	-0.1014912	-0.0002168713	-0.004119024	0.06680818	-0.07991261
3.8e+08	0.0171609	-0.04524542	-0.00247973	-0.00421725	-0.008041044	-0.06440592	-0.00247562	-0.004155792
	-0.002479729	-0.004217251	0.02723561	-0.04286181	-0.002520444	-0.00432403	0.01445714	-0.07378965
	-0.008041093	-0.06440581	-0.002520454	-0.004324026	0.01717376	-0.04483802	-0.002292999	-0.003830008
	-0.002475629	-0.004155791	0.01445709	-0.0737896	-0.002293	-0.003830009	0.02831111	-0.04236463
3.9e+08	0.08845593	-0.0206539	-0.006429612	-0.0008374795	0.06924867	-0.009661008	-0.00639525	-0.0008619183
	-0.006429614	-0.0008374812	0.07249468	-0.01502804	-0.006575458	-0.0009307	0.05367383	-0.01435482
	0.06924872	-0.009661052	-0.006575461	-0.0009306858	0.08879538	-0.01979401	-0.006032255	-0.0007262979
	-0.006395255	-0.0008619065	0.05367385	-0.01435494	-0.006032256	-0.0007262983	0.07343286	-0.01500178
4e+08	0.1133504	-0.1034572	-0.003863181	0.005353281	0.1237388	-0.0972953	-0.003881062	0.005379155
	-0.003863183	0.005353283	0.1031039	-0.07260696	-0.004032141	0.00547282	0.1149761	-0.06722623
	0.1237387	-0.09729542	-0.00403213	0.005472829	0.114193	-0.1028508	-0.003506118	0.005156821
	-0.003881054	0.005379164	0.1149759	-0.06722641	-0.003506118	0.00515682	0.1036409	-0.07255235
4.1e+08	0.03388286	-0.1508893	0.001858073	0.005071628	0.03891921	-0.1671887	0.001950704	0.005072713
	0.001858073	0.005071629	0.0513927	-0.1192788	0.001906508	0.005225456	0.06480736	-0.1398871
	0.03891898	-0.1671886	0.001906517	0.005225453	0.03467863	-0.1508675	0.00198093	0.004655741
	0.001950713	0.005072713	0.06480708	-0.1398871	0.001980929	0.004655743	0.05203134	-0.1189108
4.2e+08	-0.03271906	-0.09010254	0.003457813	0.002165716	-0.04264903	-0.09349945	0.00345196	0.002033122
	0.003457813	0.002165717	-0.001247377	-0.08679143	0.003516639	0.002195844	-0.009595448	-0.1013564
	-0.04264913	-0.09349927	0.003516644	0.002195838	-0.03256512	-0.09023099	0.003202328	0.001765853
	0.003451966	0.002033119	-0.009595562	-0.1013563	0.003202329	0.001765854	-0.0001992825	-0.08665554
4.3e+08	0.01739178	-0.02806124	0.004919224	0.000219445	0.03064195	-0.01711926	0.004805406	0.0002129841
	0.004919225	0.0002194454	0.02469851	-0.04690134	0.005003863	0.0002788814	0.03122003	-0.03921166
	0.03064198	-0.01711918	0.005003865	0.0002788715	0.01734988	-0.02751958	0.00443973	0.0001785503
	0.00480541	0.0002129748	0.03121996	-0.03921172	0.004439732	0.00017855	0.02555011	-0.04734789
4.4e+08	0.06685544	-0.08438851	0.003866415	-0.004912475	0.09848493	-0.1008643	0.003825765	-0.004884006
	0.003866417	-0.004912476	0.0541165	-0.08419762	0.003995195	-0.005008061	0.08615697	-0.09600112
	0.09848485	-0.1008643	0.003995185	-0.005008069	0.06747344	-0.08368657	0.003541267	-0.004603744
	0.003825759	-0.004884015	0.08615669	-0.09600118	0.003541269	-0.004603744	0.05437927	-0.08463706
4.5e+08	0.006695965	-0.1415595	-0.002184457	-0.00576972	0.01320081	-0.1758127	-0.002274044	-0.005691206
	-0.002184458	-0.005769722	0.01184726	-0.1232618	-0.002252531	-0.005880697	0.02385765	-0.1604794
	0.01320065	-0.1758126	-0.002252541	-0.005880693	0.007570934	-0.1415089	-0.002210856	-0.005328478
	-0.002274054	-0.005691205	0.02385735	-0.1604792	-0.002210856	-0.00532848	0.01202768	-0.1232632
4.6e+08	-0.07234384	-0.09635137	-0.004829613	-0.001434326	-0.07542015	-0.1046024	-0.00473996	-0.001243592
	-0.004829614	-0.001434326	-0.04087003	-0.09695409	-0.004844184	-0.001403746	-0.04938679	-0.1110621
	-0.07542022	-0.1046022	-0.004844187	-0.00140374	-0.07211763	-0.0968092	-0.004514779	-0.001074025
	-0.004739965	-0.001243587	-0.04938689	-0.1110619	-0.00451478	-0.001074027	-0.04030632	-0.09698859
4.7e+08	-0.05030002	-0.009859923	-0.003921902	0.001188688	-0.01768029	-0.01525396	-0.003695336	0.001129443
	-0.003921903	0.001188687	-0.03335796	-0.05067107	-0.003915396	0.001081025	-0.009774548	-0.04743932
	-0.01768022	-0.01525376	-0.003915395	0.001081033	-0.05082049	-0.009697199	-0.003399498	0.001179538
	-0.003695338	0.00112945	-0.009774615	-0.04743925	-0.0033995	0.001179538	-0.03293612	-0.05123674
4.8e+08	0.02300007	-0.02334104	-0.003261618	0.004034284	0.06155397	-0.07470538	-0.003255101	0.003868133
	-0.003261619	0.004034285	-0.006095796	-0.05928161	-0.00344121	0.004031892	0.03852604	-0.09668376
	0.06155402	-0.07470529	-0.003441203	0.004031899	0.0230627	-0.02237878	-0.002947852	0.003616515
	-0.003255095	0.003868143	0.03852581	-0.09668367	-0.002947852	0.003616517	-0.00631816	-0.05981423
4.9e+08	0.00396968	-0.08687961	0.001552355	0.00611426	-0.003870148	-0.150934	0.001531842	0.00602789
	0.001552355	0.006114262	-0.02693739	-0.08218045	0.001544379	0.006263416	-0.02395614	-0.146227
	-0.003870164	-0.1509339	0.001544391	0.006263412	0.004781383	-0.08647376	0.00145973	0.005630293
	0.001531853	0.006027891	-0.02395634	-0.1462267	0.00145973	0.005630295	-0.02733351	-0.08220144
5e+08	-0.06936367	-0.06960785	0.005955422	0.002148096	-0.08789651	-0.09250835	0.005810023	0.001993617
