!
!4 port subset of full cascaded channels using these ports:3 37 4 38
# Hz S RI R 50
0	0.02810522	0.0002713352	-2.03147e-05	9.715459e-09	0.003706545	8.976801e-05	-2.16816e-05	1.021779e-08
	-2.031449e-05	9.742162e-09	0.02976701	0.000274387	-2.161794e-05	1.009526e-08	0.003385663	9.211927e-05
	0.003716472	9.064043e-05	-2.161821e-05	1.008696e-08	0.02961247	0.0002734353	-2.122329e-05	1.011308e-08
	-2.168197e-05	1.021089e-08	0.00338979	9.055577e-05	-2.122283e-05	1.008667e-08	0.02864619	0.0002749351
1e+07	0.0783606	0.01940823	-0.0001060187	-3.250484e-05	0.07833375	0.06270726	-0.0001231529	-4.271919e-05
	-0.0001060179	-3.250448e-05	0.07704628	0.01801492	-0.0001014971	-2.93182e-05	0.07723756	0.06298641
	0.07833672	0.06270373	-0.0001014976	-2.93188e-05	0.07834287	0.01941357	-0.0001169069	-4.024767e-05
	-0.0001231531	-4.271972e-05	0.07724158	0.06298151	-0.0001169073	-4.024785e-05	0.0770609	0.01803922
2e+07	0.07716343	-0.02796473	-0.0001682992	6.243083e-05	0.1308977	-0.01807393	-0.0002053879	7.223375e-05
	-0.0001682997	6.243036e-05	0.07489217	-0.02796204	-0.0001601536	6.081852e-05	0.1312075	-0.01554052
	0.1309094	-0.01807143	-0.0001601512	6.081914e-05	0.07714995	-0.02793948	-0.0001930856	6.736402e-05
	-0.0002053835	7.223377e-05	0.131233	-0.01554629	-0.0001930827	6.736326e-05	0.07490695	-0.02792339
3e+07	0.02522265	-0.01548558	-0.0001387634	0.000276951	0.0466835	-0.06243047	-0.0001643524	0.0003270301
	-0.0001387635	0.0002769481	0.02527564	-0.01531374	-0.0001297473	0.0002656719	0.05064804	-0.0619296
	0.04668616	-0.06243052	-0.0001297468	0.0002656746	0.02516362	-0.01548969	-0.000159735	0.0003073074
	-0.000164352	0.0003270319	0.0506514	-0.06192909	-0.000159735	0.0003073089	0.02532203	-0.01521833
4e+07	0.04906565	0.04241421	0.000236535	0.0003622961	0.01444282	0.02565987	0.0002635825	0.000429889
	0.0002365334	0.000362295	0.04875776	0.03906218	0.0002286833	0.0003416785	0.01591103	0.02145777
	0.01444927	0.02565604	0.0002286812	0.0003416763	0.04897488	0.04243273	0.0002470458	0.0004140269
	0.0002635812	0.0004298867	0.01591727	0.02145089	0.0002470481	0.0004140281	0.04883485	0.03916434
5e+07	0.1102406	0.01314052	0.0004362338	2.686836e-06	0.10615	0.04790744	0.0005181165	3.160672e-05
	0.0004362319	2.688263e-06	0.1056839	0.009910692	0.0004124667	-5.071672e-07	0.1024053	0.04657898
	0.1061493	0.04790276	0.0004124657	-5.037994e-07	0.1101156	0.01318286	0.0004979808	3.221623e-05
	0.0005181146	3.161067e-05	0.1024046	0.04657305	0.0004979822	3.221489e-05	0.1057707	0.0100109
6e+07	0.08339688	-0.04662107	0.0003324109	-0.0002652884	0.1254986	-0.04606767	0.0004189443	-0.0003103868
	0.0003324117	-0.0002652857	0.07819539	-0.04495635	0.0003152957	-0.0002521308	0.1247976	-0.04116978
	0.1254987	-0.04606828	0.0003152972	-0.000252131	0.0832177	-0.04651864	0.0003983079	-0.0002980967
	0.0004189501	-0.0003103841	0.1247963	-0.04117207	0.0003983105	-0.0002980969	0.07827922	-0.04483117
7e+07	0.02792325	-0.01817121	0.000110366	-0.0005604914	0.03132538	-0.0614547	0.000146714	-0.000664977
	0.0001103681	-0.0005604893	0.02858515	-0.01515203	0.0001024228	-0.0005347281	0.0387545	-0.05931913
	0.0313264	-0.06145554	0.000102421	-0.0005347317	0.02775336	-0.01796074	0.000141138	-0.0006303712
	0.0001467147	-0.0006649844	0.03875441	-0.05932015	0.0001411383	-0.0006303757	0.02871507	-0.01498552
8e+07	0.06732099	0.03512274	-0.0005135709	-0.0004893941	0.02645487	0.03214485	-0.0005741295	-0.0006118086
	-0.0005135629	-0.0004893938	0.06982123	0.03161604	-0.0004916219	-0.0004612306	0.03197952	0.02480933
	0.02645631	0.03214253	-0.0004916296	-0.0004612298	0.06721197	0.03536601	-0.0005432631	-0.0005883491
	-0.0005741306	-0.0006118077	0.03198039	0.02480646	-0.0005432629	-0.0005883489	0.07003065	0.03175076
9e+07	0.1245765	-0.01078764	-0.0006574213	0.000146867	0.1213991	0.02908631	-0.0008157097	0.0001152133
	-0.0006574189	0.0001468598	0.1204678	-0.01682179	-0.0006218025	0.0001423141	0.1176601	0.02246256
	0.1213983	0.02908346	-0.0006218073	0.000142321	0.124439	-0.01055211	-0.0007854338	0.0001071641
	-0.0008157125	0.0001152125	0.1176588	0.02245916	-0.0007854331	0.0001071624	0.1206687	-0.01677283
1e+08	0.08628103	-0.07422049	-0.0003581776	0.0004903833	0.1192748	-0.0683999	-0.0004822141	0.0006002489
	-0.0003581782	0.0004903808	0.07842235	-0.07303864	-0.0003400661	0.0004655366	0.1152636	-0.06598535
	0.1192724	-0.06840067	-0.0003400676	0.000465543	0.08606611	-0.07385722	-0.0004600116	0.000580058
	-0.0004822162	0.0006002541	0.1152608	-0.06598676	-0.0004600114	0.0005800583	0.07855016	-0.07298204
1.1e+08	0.02404068	-0.04589907	2.328729e-05	0.0007226775	0.02273809	-0.06705648	9.705491e-06	0.0008802948
	2.328247e-05	0.000722676	0.02491481	-0.03909788	2.290492e-05	0.0006897554	0.02912022	-0.06341718
	0.02273719	-0.06705655	2.291088e-05	0.0006897605	0.02394528	-0.04533034	1.340261e-05	0.0008381411
	9.709461e-06	0.0008803033	0.02911946	-0.06341616	1.340525e-05	0.0008381441	0.02508197	-0.03895732
1.2e+08	0.05431635	0.008055778	0.0007130538	0.0005073912	0.03162358	0.02501672	0.0008156389	0.0006633781
	0.0007130492	0.0005073964	0.0628165	0.005092772	0.0006837935	0.0004829406	0.04094871	0.01663391
	0.03162288	0.02501546	0.0006838011	0.0004829378	0.05444555	0.008601022	0.0007776274	0.0006345727
	0.0008156497	0.0006633801	0.0409495	0.01663276	0.0007776329	0.0006345712	0.0630985	0.00516464
1.3e+08	0.1048319	-0.02931604	0.0008178004	-0.0002718198	0.1213974	0.008035129	0.001053889	-0.0002484146
	0.0008178045	-0.0002718135	0.104345	-0.04144323	0.0007819985	-0.0002656837	0.1192997	-0.0057468
	0.1213954	0.008033938	0.0007819982	-0.0002656919	0.1049593	-0.02889912	0.001013391	-0.0002399995
	0.001053899	-0.0002484212	0.1192983	-0.005748788	0.001013394	-0.0002400025	0.1045699	-0.04152824
1.4e+08	0.07066819	-0.08614637	0.0003816627	-0.0007182881	0.1050302	-0.08313555	0.0005417836	-0.0009171771
	0.000381667	-0.0007182896	0.0600125	-0.09021751	0.0003571944	-0.0006912966	0.09547848	-0.0876792
	0.105028	-0.08313522	0.0003571905	-0.0006912996	0.07070015	-0.0856182	0.0005099365	-0.0008869087
	0.0005417854	-0.0009171895	0.09547649	-0.08767896	0.0005099378	-0.0008869143	0.06006731	-0.09028753
1.5e+08	0.01032598	-0.06494594	-0.000210077	-0.0008832073	0.01545195	-0.07069719	-0.0002590198	-0.001111364
	-0.0002100749	-0.0008832088	0.008733979	-0.05727399	-0.0002074003	-0.0008394672	0.01437848	-0.06650118
	0.01545092	-0.07069641	-0.0002074063	-0.000839468	0.01055513	-0.0641994	-0.0002576424	-0.001051962
	-0.0002590288	-0.001111374	0.01437861	-0.06650039	-0.0002576461	-0.001051968	0.008792015	-0.05719784
1.6e+08	0.02334307	-0.01364921	-0.0009181223	-0.0004687848	0.03051377	0.01149955	-0.001096772	-0.0006161054
	-0.0009181212	-0.0004687884	0.03649821	-0.01672866	-0.000881736	-0.0004454444	0.0400657	0.006070899
	0.030513	0.01149961	-0.0008817404	-0.0004454396	0.02392281	-0.01303204	-0.001042233	-0.0005845836
	-0.001096786	-0.0006161043	0.0400662	0.006069686	-0.00104224	-0.0005845836	0.03669415	-0.01670082
1.7e+08	0.06264754	-0.02918023	-0.000968442	0.0004075028	0.1058084	-0.01040524	-0.00125322	0.0004313873
	-0.0009684454	0.0004075	0.06594812	-0.05010188	-0.0009322961	0.0004051261	0.106062	-0.02963869
	0.105807	-0.01040499	-0.000932295	0.0004051323	0.06322069	-0.02888443	-0.001202911	0.0004167463
	-0.001253228	0.0004313987	0.1060606	-0.02964023	-0.001202915	0.0004167514	0.06606294	-0.05026538
1.8e+08	0.04407463	-0.06717031	-0.000407871	0.0009944488	0.08176317	-0.08361245	-0.0005759158	0.001274894
	-0.0004078742	0.0009944505	0.02824524	-0.08135393	-0.0003668825	0.0009681243	0.06525003	-0.09707169
	0.08176208	-0.08361129	-0.0003668772	0.0009681278	0.04445267	-0.0668609	-0.0005335295	0.001233224
	-0.0005759116	0.001274907	0.06524823	-0.09707162	-0.000533529	0.00123323	0.02810293	-0.08148775
1.9e+08	0.001769578	-0.05531083	0.0004755239	0.001092598	0.01132156	-0.06254236	0.0006001681	0.001390828
	0.0004755238	0.0010926	-0.008595624	-0.0502474	0.0004780563	0.001024196	-0.003008751	-0.0580453
	0.01132145	-0.06254128	0.0004780623	0.001024194	0.002290476	-0.05482237	0.0005930216	0.001303684
	0.0006001808	0.001390833	-0.003009322	-0.05804475	0.0005930262	0.001303688	-0.008788783	-0.05013626
2e+08	0.001163172	-0.01807776	0.001237768	0.000367457	0.03109234	-0.0006149469	0.00152763	0.0004782456
	0.001237768	0.0003674587	0.01188838	-0.02006715	0.001179064	0.000332384	0.03554218	0.002353717
	0.03109228	-0.0006145442	0.001179066	0.0003323786	0.002003408	-0.01778361	0.001435988	0.0004420437
	0.001527641	0.0004782388	0.03554185	0.002353284	0.001435994	0.000442042	0.01187025	-0.01991425
2.1e+08	0.02296701	-0.01161438	0.001121752	-0.0007058083	0.08256846	-0.02329662	0.001423629	-0.0008391097
	0.001121755	-0.0007058068	0.02660127	-0.03879942	0.001068342	-0.0006949009	0.08555565	-0.04185099
	0.08256798	-0.02329612	0.001068339	-0.000694907	0.02373894	-0.01174694	0.001357921	-0.000791705
	0.001423631	-0.0008391223	0.08555432	-0.0418514	0.001357923	-0.0007917102	0.02654238	-0.03881564
2.2e+08	0.02537983	-0.02145437	0.0002667187	-0.001364426	0.0565448	-0.0676011	0.0003724651	-0.00170344
	0.0002667212	-0.001364428	0.000806925	-0.04581187	0.0002145188	-0.001321032	0.03426521	-0.08818386
	0.05654462	-0.06760019	0.0002145119	-0.001321033	0.0258087	-0.02166375	0.0003452059	-0.001641551
	0.0003724559	-0.001703449	0.03426383	-0.08818316	0.0003452034	-0.001641555	0.0004920285	-0.04578108
2.3e+08	0.01689709	-0.02051325	-0.0008959165	-0.001191484	0.01770812	-0.04082635	-0.001086914	-0.001503987
	-0.0008959168	-0.001191486	-0.009258138	-0.0172081	-0.0008911939	-0.001094539	-0.01222927	-0.03467049
	0.0177085	-0.04082572	-0.000891199	-0.001094535	0.01728232	-0.02054186	-0.001065577	-0.001406587
	-0.001086926	-0.001503985	-0.01222969	-0.0346695	-0.001065581	-0.001406588	-0.00963825	-0.01687812
2.4e+08	0.0110615	-0.01211928	-0.001572771	-0.0001187996	0.04346003	-0.009695975	-0.001952431	-0.0001914157
	-0.001572771	-0.0001188004	0.0112865	-0.007190115	-0.001478062	-7.232545e-05	0.03926779	0.007199264
	0.04346026	-0.009695832	-0.001478063	-7.231993e-05	0.01162448	-0.01225552	-0.001826164	-0.0001530258
	-0.001952436	-0.0001914064	0.03926769	0.007199616	-0.001826167	-0.0001530231	0.0111149	-0.006718526
2.5e+08	0.009003148	0.004578863	-0.001202991	0.001177922	0.06427654	-0.03477298	-0.001516005	0.001441721
	-0.001202993	0.00117792	0.009520985	-0.01915458	-0.001117445	0.001137087	0.0710986	-0.04398017
	0.06427646	-0.0347727	-0.001117442	0.001137093	0.009439468	0.004097614	-0.00142785	0.001345844
	-0.001516001	0.001441731	0.07109804	-0.04397992	-0.00142785	0.001345848	0.009423165	-0.01878833
2.6e+08	0.02724129	0.0245817	0.0001745369	0.00178109	0.03801377	-0.04449575	0.0001875854	0.00217682
	0.0001745347	0.001781091	-0.005373725	-0.002598167	0.0002148512	0.001692714	0.01539114	-0.06681897
	0.03801393	-0.04449524	0.0002148585	0.001692714	0.02725882	0.02403915	0.0001688608	0.002077615
	0.0001875954	0.002176823	0.01539066	-0.06681819	0.0001688636	0.002077617	-0.005612647	-0.002221214
2.7e+08	0.05868591	0.01507989	0.001481359	0.0009564991	0.03813798	-0.01492146	0.001746163	0.001208228
	0.001481357	0.0009565005	0.01617586	0.02179501	0.001435191	0.0008483291	-0.003259504	-0.005486721
	0.03813841	-0.01492123	0.001435194	0.0008483239	0.0584831	0.01477982	0.001686733	0.001138832
	0.00174617	0.001208222	-0.003259349	-0.005485939	0.001686736	0.00113883	0.01588445	0.02241046
2.8e+08	0.05458841	-0.01599271	0.001656323	-0.0003704438	0.07092048	-0.02209341	0.002052265	-0.000349442
	0.001656323	-0.0003704419	0.04194466	0.003859997	0.001531277	-0.0003981161	0.05914346	0.0112997
	0.0709207	-0.02209349	0.001531276	-0.0003981215	0.05442192	-0.01615531	0.001926804	-0.0003665379
	0.002052265	-0.0003494491	0.05914376	0.01129994	0.001926805	-0.00036654	0.04185218	0.004664683
2.9e+08	0.02324592	-0.005558795	0.001051254	-0.001571719	0.05740984	-0.054696	0.001366263	-0.001912206
	0.001051256	-0.001571717	0.02252111	-0.01323175	0.000949293	-0.001492442	0.07102956	-0.04781048
	0.05740984	-0.05469591	0.0009492885	-0.001492446	0.02303652	-0.00581606	0.001270196	-0.001790431
	0.001366258	-0.001912212	0.07102951	-0.04781034	0.001270195	-0.001790433	0.02262857	-0.01245633
3e+08	0.04179383	0.03911197	-0.0007505419	-0.002057844	0.02721758	-0.03085797	-0.0008586127	-0.002516278
	-0.0007505389	-0.002057844	0.01027924	0.0194231	-0.0007586712	-0.001919812	0.01335005	-0.0494679
	0.02721778	-0.03085774	-0.0007586785	-0.001919811	0.04127245	0.03886782	-0.0007976389	-0.002379309
	-0.0008586204	-0.002516278	0.01335006	-0.04946751	-0.0007976406	-0.00237931	0.01043879	0.02011148
3.1e+08	0.1045436	0.02549972	-0.002072957	-0.0004270345	0.06407659	0.001096888	-0.002439424	-0.0006108649
	-0.002072957	-0.0004270372	0.05616935	0.03940042	-0.001960539	-0.000331484	0.02193306	0.01263282
	0.06407693	0.001096889	-0.001960541	-0.0003314772	0.1037954	0.02555353	-0.002324417	-0.0005838744
	-0.002439427	-0.0006108586	0.0219334	0.01263305	-0.002324418	-0.0005838735	0.05627372	0.04012346
3.2e+08	0.1062664	-0.04211557	-0.001391385	0.001048477	0.1040496	-0.04368559	-0.001769363	0.001126289
	-0.001391386	0.001048474	0.0869178	-0.005663237	-0.001253962	0.001017154	0.08990978	0.001282887
	0.1040497	-0.0436858	-0.001253959	0.001017159	0.105506	-0.04171713	-0.001672188	0.001089579
	-0.001769361	0.001126294	0.08991002	0.001282797	-0.001672189	0.001089581	0.08711266	-0.004763352
3.3e+08	0.0456965	-0.05130046	-0.0005714119	0.001639859	0.05752261	-0.08957201	-0.0008371324	0.002001774
	-0.0005714147	0.001639857	0.05041832	-0.03619817	-0.0004980719	0.001529429	0.08030396	-0.0663916
	0.05752256	-0.08957207	-0.0004980673	0.001529431	0.04511586	-0.05069005	-0.0007724908	0.001888422
	-0.0008371299	0.002001777	0.08030393	-0.06639166	-0.0007724909	0.001888423	0.05088604	-0.03525252
3.4e+08	0.04397702	0.01036666	0.00111339	0.002010675	0.01474134	-0.03774956	0.001250309	0.002497967
	0.001113386	0.002010676	0.02881398	0.002944002	0.001084266	0.001858249	0.01862403	-0.05133821
	0.01474144	-0.03774949	0.001084272	0.001858247	0.04342739	0.01096254	0.001179812	0.002356849
	0.001250314	0.002497967	0.01862406	-0.05133811	0.001179813	0.00235685	0.02951341	0.003690471
3.5e+08	0.1207814	0.006771605	0.00244268	-7.902643e-05	0.07903952	0.0009970742	0.002908004	0.0001029533
	0.00244268	-7.902315e-05	0.082891	0.02290157	0.002280306	-0.0001469378	0.04747593	0.008380235
	0.07903971	0.0009969462	0.002280306	-0.0001469449	0.1200981	0.007571306	0.002756683	9.464077e-05
	0.002908007	0.0001029479	0.04747611	0.008380168	0.002756685	9.464042e-05	0.08350912	0.02340296
3.6e+08	0.1311752	-0.08025014	0.001011416	-0.001675079	0.1255488	-0.07221847	0.001431713	-0.001882446
	0.001011418	-0.001675077	0.1148525	-0.03753696	0.0008761803	-0.001577933	0.1143087	-0.02806955
	0.1255487	-0.07221871	0.0008761758	-0.001577936	0.1305352	-0.07907134	0.001348558	-0.001791651
	0.001431711	-0.00188245	0.1143086	-0.02806979	0.001348558	-0.001791653	0.1153316	-0.03692342
3.7e+08	0.05201636	-0.1121317	-0.0001098192	-0.001507537	0.05416102	-0.1326064	4.629759e-05	-0.001937571
	-0.0001098168	-0.001507536	0.06607997	-0.08068669	-0.0001221818	-0.001371678	0.08315574	-0.1014912
	0.05416083	-0.1326065	-0.0001221856	-0.001371678	0.05174807	-0.1105948	3.680636e-05	-0.001827681
	4.629482e-05	-0.001937572	0.08315555	-0.1014912	3.680594e-05	-0.001827682	0.06680818	-0.07991261
3.8e+08	0.01550652	-0.04420545	-0.001163998	-0.001586498	-0.009290624	-0.06337482	-0.001344984	-0.002029802
	-0.001163996	-0.001586499	0.02723561	-0.04286181	-0.001096049	-0.001469606	0.01445714	-0.07378965
	-0.009290677	-0.06337476	-0.001096054	-0.001469603	0.0157053	-0.04280222	-0.001273317	-0.001926185
	-0.001344989	-0.002029802	0.01445709	-0.0737896	-0.001273319	-0.001926186	0.02831111	-0.04236463
3.9e+08	0.08798429	-0.01898455	-0.002484407	0.0002878709	0.0687931	-0.008289905	-0.002992601	8.206221e-05
	-0.002484407	0.0002878676	0.07249468	-0.01502804	-0.002320836	0.0003195762	0.05367383	-0.01435482
	0.06879313	-0.00828998	-0.002320836	0.0003195824	0.08811588	-0.01774873	-0.002849131	9.053391e-05
	-0.002992603	8.206759e-05	0.05367385	-0.01435494	-0.002849133	9.05352e-05	0.07343286	-0.01500178
4e+08	0.1136605	-0.102615	-0.0007808511	0.002055279	0.1237632	-0.09639674	-0.001306267	0.002363823
	-0.0007808532	0.002055277	0.1031039	-0.07260696	-0.0006625756	0.001929381	0.1149761	-0.06722623
	0.1237631	-0.09639688	-0.000662571	0.001929384	0.1138033	-0.1010845	-0.001214355	0.002257919
	-0.001306263	0.002363827	0.1149759	-0.06722641	-0.001214355	0.00225792	0.1036409	-0.07255235
4.1e+08	0.03355826	-0.1507472	0.0006634686	0.001449742	0.03858045	-0.1665976	0.0006117917	0.002050324
	0.0006634663	0.001449742	0.0513927	-0.1192788	0.0006340679	0.001297736	0.06480736	-0.1398871
	0.0385802	-0.1665976	0.0006340712	0.001297735	0.03417437	-0.1489391	0.0005950443	0.001914906
	0.0006117951	0.002050325	0.06480708	-0.1398871	0.0005950453	0.001914907	0.05203134	-0.1189108
4.2e+08	-0.03376594	-0.08913168	0.001231246	0.001026332	-0.04318998	-0.09227719	0.001590397	0.001401675
	0.001231243	0.001026334	-0.001247377	-0.08679143	0.001119032	0.0009540772	-0.009595448	-0.1013564
	-0.04319011	-0.09227702	0.001119035	0.0009540747	-0.03249298	-0.08762145	0.001481747	0.001328369
	0.001590401	0.001401674	-0.009595562	-0.1013563	0.001481749	0.001328369	-0.0001992825	-0.08665554
4.3e+08	0.01737884	-0.02607249	0.002217178	-0.0003114532	0.03093807	-0.01548557	0.002716051	-0.0002010481
	0.002217178	-0.0003114501	0.02469851	-0.04690134	0.002089081	-0.0002944362	0.03122003	-0.03921166
	0.03093806	-0.01548549	0.002089081	-0.0002944413	0.01861449	-0.02518151	0.002598585	-0.0001808487
	0.002716052	-0.0002010536	0.03121996	-0.03921172	0.002598586	-0.000180851	0.02555011	-0.04734789
4.4e+08	0.06814895	-0.08321051	0.0007921241	-0.002175235	0.09948012	-0.09980794	0.001358293	-0.002533977
	0.0007921268	-0.002175233	0.0541165	-0.08419762	0.0007078093	-0.00206667	0.08615697	-0.09600112
	0.09948001	-0.09980793	0.0007078044	-0.002066672	0.0691123	-0.0822081	0.001273758	-0.002444594
	0.00135829	-0.00253398	0.08615669	-0.09600118	0.001273757	-0.002444596	0.05437927	-0.08463706
4.5e+08	0.007631655	-0.1416871	-0.0009658534	-0.001569047	0.01403207	-0.1754538	-0.0009739043	-0.002341744
	-0.0009658508	-0.001569048	0.01184726	-0.1232618	-0.0009412841	-0.001423986	0.02385765	-0.1604794
	0.01403189	-0.1754536	-0.000941288	-0.001423984	0.009016556	-0.1404803	-0.0009732213	-0.002186223
	-0.0009739082	-0.002341743	0.02385735	-0.1604792	-0.0009732222	-0.002186224	0.01202768	-0.1232632
4.6e+08	-0.07255198	-0.09628482	-0.001496895	-0.0007057985	-0.07507192	-0.1041176	-0.002119104	-0.001067138
	-0.001496893	-0.0007058005	-0.04087003	-0.09695409	-0.001358224	-0.0006344963	-0.04938679	-0.1110621
	-0.07507199	-0.1041173	-0.001358226	-0.0006344933	-0.07062028	-0.09557592	-0.001960388	-0.000970821
	-0.002119107	-0.001067136	-0.04938689	-0.1110619	-0.00196039	-0.0009708211	-0.04030632	-0.09698859
4.7e+08	-0.05014293	-0.008587566	-0.001991165	0.0005372309	-0.01689899	-0.01428707	-0.002527669	0.000696037
	-0.001991165	0.0005372273	-0.03335796	-0.05067107	-0.001873052	0.0004704954	-0.009774548	-0.04743932
	-0.01689894	-0.01428686	-0.001873051	0.0004705005	-0.04839708	-0.008672526	-0.002387757	0.0006081784
	-0.00252767	0.0006960416	-0.009774615	-0.04743925	-0.002387758	0.0006081803	-0.03293612	-0.05123674
4.8e+08	0.02467632	-0.02245846	-0.0008014264	0.002187927	0.06309659	-0.07424225	-0.00120823	0.0026131
	-0.0008014292	0.002187926	-0.006095796	-0.05928161	-0.0007637619	0.002099709	0.03852604	-0.09668376
	0.06309664	-0.07424214	-0.0007637572	0.002099711	0.0258242	-0.02260873	-0.001180531	0.002512259
	-0.001208226	0.002613104	0.03852581	-0.09668367	-0.001180529	0.002512261	-0.00631816	-0.05981423
4.9e+08	0.005660793	-0.08769942	0.001149045	0.001819665	-0.002406387	-0.1514135	0.001218054	0.002603572
	0.001149042	0.001819666	-0.02693739	-0.08218045	0.001151879	0.001701498	-0.02395614	-0.146227
	-0.002406387	-0.1514133	0.001151883	0.001701496	0.006932663	-0.08756999	0.001225133	0.002474902
