!
!4 port subset of full cascaded channels using these ports:57 37 58 38
# Hz S RI R 50
0	0.02971673	0.0002744301	-2.473116e-06	1.168704e-09	0.003405111	9.20975e-05	-2.418294e-06	1.160193e-09
	-2.473116e-06	1.168724e-09	0.02976701	0.000274387	-2.391891e-06	1.150913e-09	0.003385663	9.211927e-05
	0.003409167	9.053385e-05	-2.39192e-06	1.147108e-09	0.02845408	0.0002750364	-2.344996e-06	1.140418e-09
	-2.418325e-06	1.156387e-09	0.00338979	9.055577e-05	-2.344994e-06	1.14044e-09	0.02864619	0.0002749351
1e+07	0.07669216	0.01823404	-2.63996e-05	-1.07045e-05	0.07691674	0.06318826	-2.608871e-05	-1.027961e-05
	-2.639959e-05	-1.07045e-05	0.07704628	0.01801492	-2.580362e-05	-1.071633e-05	0.07723756	0.06298641
	0.07692078	0.06318337	-2.580361e-05	-1.07165e-05	0.07673047	0.01825125	-2.55232e-05	-1.034078e-05
	-2.60887e-05	-1.027979e-05	0.07724158	0.06298151	-2.55232e-05	-1.034078e-05	0.0770609	0.01803922
2e+07	0.0751441	-0.0273912	-1.223841e-05	1.215739e-05	0.1313696	-0.01464742	-1.171044e-05	1.269135e-05
	-1.223858e-05	1.215701e-05	0.07489217	-0.02796204	-1.222445e-05	1.126673e-05	0.1312075	-0.01554052
	0.131388	-0.01465196	-1.222424e-05	1.126807e-05	0.07515403	-0.02744502	-1.175243e-05	1.173534e-05
	-1.171018e-05	1.269268e-05	0.131233	-0.01554629	-1.17522e-05	1.173571e-05	0.07490695	-0.02792339
3e+07	0.0257976	-0.01571066	1.548322e-05	-3.728555e-05	0.05154838	-0.06181719	1.628419e-05	-3.636273e-05
	1.548319e-05	-3.72855e-05	0.02527564	-0.01531374	1.422891e-05	-3.709169e-05	0.05064804	-0.0619296
	0.05155221	-0.06181639	1.422832e-05	-3.709171e-05	0.02573234	-0.0157054	1.495664e-05	-3.627337e-05
	1.628361e-05	-3.636275e-05	0.0506514	-0.06192909	1.495664e-05	-3.627341e-05	0.02532203	-0.01521833
4e+07	0.04778562	0.03859022	-7.085662e-05	-8.272033e-05	0.0154224	0.020944	-6.908894e-05	-8.16908e-05
	-7.085666e-05	-8.272031e-05	0.04875776	0.03906218	-7.0617e-05	-8.076447e-05	0.01591103	0.02145777
	0.01542881	0.02093761	-7.061643e-05	-8.07637e-05	0.04772261	0.03876467	-6.899919e-05	-7.989267e-05
	-6.908838e-05	-8.169002e-05	0.01591727	0.02145089	-6.899917e-05	-7.989269e-05	0.04883485	0.03916434
5e+07	0.104725	0.01133245	-0.0001389629	9.896051e-06	0.1011902	0.04801627	-0.0001363746	1.005747e-05
	-0.0001389629	9.896055e-06	0.1056839	0.009910692	-0.000136471	1.01889e-05	0.1024053	0.04657898
	0.1011897	0.04801025	-0.0001364706	1.018794e-05	0.1048751	0.01154314	-0.0001341698	1.022472e-05
	-0.0001363743	1.005651e-05	0.1024046	0.04657305	-0.0001341698	1.022473e-05	0.1057707	0.0100109
6e+07	0.07923764	-0.04349919	-7.218876e-05	9.05409e-05	0.1257523	-0.03877405	-6.972501e-05	8.967879e-05
	-7.218876e-05	9.054091e-05	0.07819539	-0.04495635	-7.126221e-05	8.819378e-05	0.1247976	-0.04116978
	0.1257511	-0.03877634	-7.126412e-05	8.819382e-05	0.07944476	-0.04352627	-6.914759e-05	8.734252e-05
	-6.972693e-05	8.967883e-05	0.1247963	-0.04117207	-6.914758e-05	8.734252e-05	0.07827922	-0.04483117
7e+07	0.02944672	-0.01577465	-4.255912e-06	3.714121e-05	0.04051585	-0.05930109	-2.101371e-06	3.596433e-05
	-4.255927e-06	3.714121e-05	0.02858515	-0.01515203	-6.249468e-06	3.625757e-05	0.0387545	-0.05931913
	0.04051575	-0.05930211	-6.249379e-06	3.625855e-05	0.02935612	-0.01587804	-4.385524e-06	3.518033e-05
	-2.101282e-06	3.596531e-05	0.03875441	-0.05932015	-4.385543e-06	3.518033e-05	0.02871507	-0.01498552
8e+07	0.06833189	0.0317584	-8.184551e-05	-6.98117e-06	0.03086842	0.02452854	-7.947412e-05	-8.563048e-06
	-8.184548e-05	-6.981114e-06	0.06982123	0.03161604	-8.232254e-05	-4.658949e-06	0.03197952	0.02480933
	0.03086953	0.02452571	-8.232257e-05	-4.658306e-06	0.06812355	0.03203056	-8.022783e-05	-6.177503e-06
	-7.947415e-05	-8.562406e-06	0.03198039	0.02480646	-8.022784e-05	-6.177524e-06	0.07003065	0.03175076
9e+07	0.1200875	-0.0139917	-0.000132199	9.492136e-05	0.116417	0.02557539	-0.0001297741	9.232606e-05
	-0.000132199	9.492131e-05	0.1204678	-0.01682179	-0.0001290373	9.575819e-05	0.1176601	0.02246256
	0.1164157	0.02557176	-0.0001290377	9.57586e-05	0.1202926	-0.01353638	-0.0001270372	9.32586e-05
	-0.0001297745	9.232647e-05	0.1176588	0.02245916	-0.0001270372	9.325866e-05	0.1206687	-0.01677283
1e+08	0.08093085	-0.07115523	-4.986568e-05	0.0001874178	0.1176649	-0.06250782	-4.823397e-05	0.0001835791
	-4.986568e-05	0.0001874178	0.07842235	-0.07303864	-4.779143e-05	0.0001840889	0.1152636	-0.06598535
	0.1176621	-0.06250933	-4.779144e-05	0.0001840903	0.08139249	-0.0711147	-4.665555e-05	0.0001806099
	-4.823399e-05	0.0001835805	0.1152608	-0.06598676	-4.665556e-05	0.0001806099	0.07855016	-0.07298204
1.1e+08	0.02643745	-0.04008475	6.649706e-05	0.0001570041	0.03169988	-0.06366761	6.661603e-05	0.0001527335
	6.649703e-05	0.0001570041	0.02491481	-0.03909788	6.406591e-05	0.0001541397	0.02912022	-0.06341718
	0.03169906	-0.06366662	6.406669e-05	0.00015414	0.02646397	-0.04036558	6.391032e-05	0.0001504626
	6.661681e-05	0.0001527338	0.02911946	-0.06341616	6.391032e-05	0.0001504626	0.02508197	-0.03895732
1.2e+08	0.06161187	0.005729201	6.509919e-05	7.099928e-05	0.03958947	0.01700277	6.407966e-05	6.714295e-05
	6.509921e-05	7.099934e-05	0.0628165	0.005092772	6.266133e-05	7.262596e-05	0.04094871	0.01663391
	0.0395903	0.01700168	6.266156e-05	7.262666e-05	0.06125514	0.005907065	6.162128e-05	6.928069e-05
	6.407986e-05	6.71436e-05	0.0409495	0.01663276	6.162127e-05	6.928063e-05	0.0630985	0.00516464
1.3e+08	0.1053876	-0.03804232	1.949092e-05	8.676973e-05	0.1190679	-0.001054254	1.805277e-05	8.334957e-05
	1.949098e-05	8.67697e-05	0.104345	-0.04144323	2.149581e-05	8.870225e-05	0.1192997	-0.0057468
	0.1190666	-0.001056296	2.14966e-05	8.87033e-05	0.1054846	-0.037421	1.996079e-05	8.566038e-05
	1.805349e-05	8.335055e-05	0.1192983	-0.005748788	1.996073e-05	8.566031e-05	0.1045699	-0.04152824
1.4e+08	0.06412444	-0.0890506	4.986619e-05	0.0001474298	0.0999112	-0.08399994	4.79521e-05	0.0001436402
	4.986618e-05	0.0001474298	0.0600125	-0.09021751	5.262071e-05	0.0001446432	0.09547848	-0.0876792
	0.0999092	-0.08399981	5.262212e-05	0.0001446438	0.06474051	-0.08883924	5.050041e-05	0.0001414713
	4.795343e-05	0.0001436408	0.09547649	-0.08767896	5.050032e-05	0.0001414713	0.06006731	-0.09028753
1.5e+08	0.01076936	-0.05922907	0.0001626467	0.0001516785	0.01766734	-0.06751594	0.0001589892	0.0001478136
	0.0001626467	0.0001516785	0.008733979	-0.05727399	0.0001602765	0.0001473966	0.01437848	-0.06650118
	0.01766739	-0.06751514	0.0001602782	0.0001473964	0.01102065	-0.05962441	0.0001567462	0.0001444493
	0.0001589908	0.0001478135	0.01437861	-0.06650039	0.0001567462	0.0001444493	0.008792015	-0.05719784
1.6e+08	0.03591572	-0.01621236	0.0002326942	2.811961e-05	0.03882084	0.007049222	0.0002273955	2.594375e-05
	0.0002326942	2.811961e-05	0.03649821	-0.01672866	0.0002280462	2.893708e-05	0.0400657	0.006070899
	0.03882141	0.007048054	0.0002280475	2.893632e-05	0.03548936	-0.01627687	0.0002233594	2.748338e-05
	0.0002273966	2.594298e-05	0.0400662	0.006069686	0.0002233594	2.748338e-05	0.03669415	-0.01670082
1.7e+08	0.06852277	-0.04744634	0.0001631684	-7.48484e-05	0.1076068	-0.02407094	0.0001581035	-7.484538e-05
	0.0001631684	-7.484841e-05	0.06594812	-0.05010188	0.000163094	-7.118754e-05	0.106062	-0.02963869
	0.1076056	-0.02407256	0.0001630947	-7.118854e-05	0.06837358	-0.04679841	0.0001586271	-7.088742e-05
	0.0001581042	-7.484635e-05	0.1060606	-0.02964023	0.000158627	-7.088741e-05	0.06606294	-0.05026538
1.8e+08	0.03309311	-0.08222087	7.722565e-05	-5.011892e-05	0.07169775	-0.09450604	7.327539e-05	-4.963557e-05
	7.722566e-05	-5.011894e-05	0.02824524	-0.08135393	8.043574e-05	-5.063155e-05	0.06525003	-0.09707169
	0.07169593	-0.09450609	8.043608e-05	-5.063224e-05	0.03368494	-0.08176963	7.682973e-05	-4.978943e-05
	7.327567e-05	-4.963619e-05	0.06524823	-0.09707162	7.682968e-05	-4.978937e-05	0.02810293	-0.08148775
1.9e+08	-0.007270285	-0.0535759	0.0001268404	2.518817e-05	0.00025475	-0.06041935	0.0001222767	2.533496e-05
	0.0001268404	2.518816e-05	-0.008595624	-0.0502474	0.0001258031	2.081101e-05	-0.003008751	-0.0580453
	0.0002541365	-0.06041881	0.0001258038	2.081024e-05	-0.006791539	-0.05391784	0.0001218457	2.161379e-05
	0.0001222774	2.533427e-05	-0.003009322	-0.05804475	0.0001218457	2.161388e-05	-0.008788783	-0.05013626
2e+08	0.01131048	-0.01984793	0.0002481215	-7.215534e-05	0.03430028	0.003813462	0.000242158	-7.016588e-05
	0.0002481215	-7.215535e-05	0.01188838	-0.02006715	0.0002424912	-7.223338e-05	0.03554218	0.002353717
	0.03429998	0.003813019	0.0002424915	-7.223489e-05	0.01094846	-0.02016501	0.0002376908	-6.986352e-05
	0.0002421583	-7.016735e-05	0.03554185	0.002353284	0.0002376908	-6.986348e-05	0.01187025	-0.01991425
2.1e+08	0.02991572	-0.03762676	0.0001673163	-0.0002638319	0.08892552	-0.03626619	0.0001625907	-0.0002588143
	0.0001673163	-0.000263832	0.02660127	-0.03879942	0.0001653886	-0.0002587083	0.08555565	-0.04185099
	0.08892422	-0.03626669	0.0001653879	-0.0002587098	0.02947042	-0.03711066	0.0001618019	-0.0002539811
	0.00016259	-0.0002588157	0.08555432	-0.0418514	0.0001618019	-0.0002539811	0.02654238	-0.03881564
2.2e+08	0.00464583	-0.04918146	-4.97385e-05	-0.0002556676	0.04175989	-0.08776251	-5.14273e-05	-0.000250198
	-4.973852e-05	-0.0002556676	0.000806925	-0.04581187	-4.61314e-05	-0.0002532881	0.03426521	-0.08818386
	0.04175845	-0.0877619	-4.613265e-05	-0.0002532885	0.004984013	-0.04847547	-4.715769e-05	-0.0002482669
	-5.142854e-05	-0.0002501984	0.03426383	-0.08818316	-4.715768e-05	-0.0002482669	0.0004920285	-0.04578108
2.3e+08	-0.0104725	-0.0211463	-7.614e-05	-6.631298e-05	-0.01033351	-0.03831854	-7.70061e-05	-6.249289e-05
	-7.614002e-05	-6.631299e-05	-0.009258138	-0.0172081	-7.471558e-05	-6.966429e-05	-0.01222927	-0.03467049
	-0.010334	-0.03831756	-7.471603e-05	-6.966418e-05	-0.009864931	-0.02119021	-7.494251e-05	-6.600531e-05
	-7.70065e-05	-6.249275e-05	-0.01222969	-0.0346695	-7.494248e-05	-6.600529e-05	-0.00963825	-0.01687812
2.4e+08	0.009785853	-0.00613254	0.0001007524	-7.804743e-05	0.03755354	0.00957616	9.863319e-05	-7.369992e-05
	0.0001007524	-7.804744e-05	0.0112865	-0.007190115	9.614445e-05	-7.936203e-05	0.03926779	0.007199264
	0.03755343	0.009576512	9.614425e-05	-7.93626e-05	0.009655809	-0.006528947	9.508996e-05	-7.535456e-05
	9.863304e-05	-7.37005e-05	0.03926769	0.007199616	9.509e-05	-7.535456e-05	0.0111149	-0.006718526
2.5e+08	0.01278498	-0.01872153	5.69467e-05	-0.0003053284	0.0758253	-0.03860952	5.616589e-05	-0.0002982413
	5.694669e-05	-0.0003053284	0.009520985	-0.01915458	5.387342e-05	-0.0003001917	0.0710986	-0.04398017
	0.07582473	-0.03860931	5.387226e-05	-0.0003001923	0.01218262	-0.0184336	5.409179e-05	-0.0002941356
	5.616475e-05	-0.000298242	0.07109804	-0.04397992	5.409181e-05	-0.0002941356	0.009423165	-0.01878833
2.6e+08	-0.003790311	-0.007367812	-0.0002366804	-0.0003036953	0.0225816	-0.06845854	-0.0002333852	-0.0002967288
	-0.0002366805	-0.0003036953	-0.005373725	-0.002598167	-0.0002330167	-0.0002989588	0.01539114	-0.06681897
	0.02258105	-0.0684578	-0.0002330181	-0.0002989583	-0.00383042	-0.006495237	-0.0002293723	-0.0002932961
	-0.0002333866	-0.0002967283	0.01539066	-0.06681819	-0.0002293723	-0.0002932961	-0.005612647	-0.002221214
2.7e+08	0.01161059	0.01927317	-0.000305029	-7.635836e-06	-0.003792023	-0.009140305	-0.0003002076	-4.050512e-06
	-0.000305029	-7.635831e-06	0.01617586	0.02179501	-0.0003007333	-9.556487e-06	-0.003259504	-0.005486721
	-0.003791935	-0.009139503	-0.0003007336	-9.555419e-06	0.01220321	0.01971825	-0.0002959411	-6.954364e-06
	-0.0003002079	-4.049447e-06	-0.003259349	-0.005485939	-0.0002959411	-6.954372e-06	0.01588445	0.02241046
2.8e+08	0.03961274	0.007829073	-6.191014e-05	7.3159e-05	0.05691551	0.01581428	-5.892756e-05	7.540918e-05
	-6.191015e-05	7.315901e-05	0.04194466	0.003859997	-6.392291e-05	7.023171e-05	0.05914346	0.0112997
	0.05691579	0.01581456	-6.392268e-05	7.023195e-05	0.03987288	0.007620454	-6.079566e-05	7.163689e-05
	-5.892733e-05	7.54094e-05	0.05914376	0.01129994	-6.079566e-05	7.163688e-05	0.04185218	0.004664683
2.9e+08	0.02616772	-0.01167066	-2.267947e-05	-0.0001544191	0.07700461	-0.04197333	-1.955295e-05	-0.0001502616
	-2.267948e-05	-0.0001544191	0.02252111	-0.01323175	-2.600587e-05	-0.0001512856	0.07102956	-0.04781048
	0.07700456	-0.04197321	-2.600638e-05	-0.0001512857	0.02571084	-0.01163831	-2.274629e-05	-0.0001483776
	-1.955347e-05	-0.0001502617	0.07102951	-0.04781034	-2.27463e-05	-0.0001483776	0.02262857	-0.01245633
3e+08	0.01038422	0.01525623	-0.0003064839	-0.0001776446	0.01974689	-0.05197819	-0.0002998476	-0.0001738418
	-0.0003064839	-0.0001776446	0.01027924	0.0194231	-0.0003037103	-0.0001721661	0.01335005	-0.0494679
	0.01974686	-0.05197781	-0.0003037111	-0.0001721653	0.01001563	0.01608036	-0.0002975407	-0.0001698578
	-0.0002998484	-0.000173841	0.01335006	-0.04946751	-0.0002975407	-0.0001698578	0.01043879	0.02011148
3.1e+08	0.04980631	0.04014629	-0.0003767261	0.0001481215	0.01933211	0.01082768	-0.0003687369	0.0001477866
	-0.0003767261	0.0001481215	0.05616935	0.03940042	-0.0003702695	0.0001474911	0.02193306	0.01263282
	0.01933243	0.01082795	-0.0003702692	0.0001474923	0.05022653	0.04107881	-0.00036333	0.0001460273
	-0.0003687366	0.0001477878	0.0219334	0.01263305	-0.00036333	0.0001460273	0.05627372	0.04012346
3.2e+08	0.08554881	0.002470351	-9.662129e-05	0.0002757287	0.08833271	0.009190755	-9.137743e-05	0.0002727246
	-9.662129e-05	0.0002757287	0.0869178	-0.005663237	-9.574602e-05	0.0002708289	0.08990978	0.001282887
	0.08833297	0.009190693	-9.574532e-05	0.0002708293	0.08624289	0.002688152	-9.159274e-05	0.0002672165
	-9.137673e-05	0.0002727249	0.08991002	0.001282797	-9.159275e-05	0.0002672165	0.08711266	-0.004763352
3.3e+08	0.05638501	-0.03220051	3.20416e-05	6.784069e-05	0.08852821	-0.05923764	3.545128e-05	6.618743e-05
	3.204161e-05	6.784069e-05	0.05041832	-0.03619817	2.878504e-05	6.757961e-05	0.08030396	-0.0663916
	0.08852819	-0.05923771	2.878518e-05	6.757952e-05	0.05641397	-0.03237863	3.129184e-05	6.540525e-05
	3.545142e-05	6.618734e-05	0.08030393	-0.06639166	3.129184e-05	6.540526e-05	0.05088604	-0.03525252
3.4e+08	0.03031965	0.0004327434	-0.0001769216	-1.719894e-05	0.02536696	-0.05358839	-0.0001716429	-1.848808e-05
	-0.0001769216	-1.719893e-05	0.02881398	0.002944002	-0.0001762851	-1.306735e-05	0.01862403	-0.05133821
	0.02536697	-0.0535883	-0.0001762853	-1.306693e-05	0.02981089	0.0009193283	-0.0001721118	-1.502895e-05
	-0.0001716431	-1.848766e-05	0.01862406	-0.05133811	-0.0001721118	-1.502894e-05	0.02951341	0.003690471
3.5e+08	0.07813592	0.0266184	-0.0002472547	0.0002428402	0.04477224	0.009402585	-0.0002411694	0.0002384298
	-0.0002472547	0.0002428402	0.082891	0.02290157	-0.0002410375	0.0002433182	0.04747593	0.008380235
	0.04477243	0.009402546	-0.000241037	0.0002433188	0.07824704	0.02782213	-0.0002365768	0.0002384965
	-0.0002411689	0.0002384305	0.04747611	0.008380168	-0.0002365768	0.0002384965	0.08350912	0.02340296
3.6e+08	0.1170073	-0.02659707	5.051457e-06	0.0003616907	0.1156196	-0.01674324	8.34681e-06	0.000354482
	5.05146e-06	0.0003616907	0.1148525	-0.03753696	7.922085e-06	0.0003555761	0.1143087	-0.02806955
	0.1156196	-0.01674347	7.922881e-06	0.0003555761	0.1179943	-0.02585877	9.449382e-06	0.0003486942
	8.347606e-06	0.0003544821	0.1143086	-0.02806979	9.449381e-06	0.0003486942	0.1153316	-0.03692342
3.7e+08	0.07637197	-0.07520483	0.0001739641	0.0001930738	0.09542648	-0.093307	0.0001737358	0.0001868515
	0.0001739641	0.0001930738	0.06607997	-0.08068669	0.0001703002	0.0001893585	0.08315574	-0.1014912
	0.0954263	-0.09330709	0.0001703007	0.0001893582	0.07708722	-0.07544929	0.000168753	0.0001839884
	0.0001737363	0.0001868512	0.08315555	-0.1014912	0.000168753	0.0001839884	0.06680818	-0.07991261
3.8e+08	0.03315486	-0.04487903	6.72559e-05	4.027513e-05	0.02369353	-0.07602964	6.711067e-05	3.612834e-05
	6.72559e-05	4.027513e-05	0.02723561	-0.04286181	6.483744e-05	4.236808e-05	0.01445714	-0.07378965
	0.02369346	-0.0760296	6.483756e-05	4.236799e-05	0.03278079	-0.04498206	6.379933e-05	3.899373e-05
	6.711078e-05	3.612825e-05	0.01445709	-0.0737896	6.379934e-05	3.899373e-05	0.02831111	-0.04236463
3.9e+08	0.07234119	-0.01140364	-3.107337e-05	0.0001686992	0.05334984	-0.01156982	-3.041118e-05	0.0001636342
	-3.107336e-05	0.0001686992	0.07249468	-0.01502804	-2.779402e-05	0.0001704081	0.05367383	-0.01435482
	0.05334987	-0.01156993	-2.779366e-05	0.0001704083	0.07203374	-0.01028912	-2.822422e-05	0.00016598
	-3.041082e-05	0.0001636343	0.05367385	-0.01435494	-2.822422e-05	0.00016598	0.07343286	-0.01500178
4e+08	0.1100465	-0.06289753	0.0001281974	0.0002597165	0.1212832	-0.0544437	0.00012732	0.0002527996
	0.0001281974	0.0002597165	0.1031039	-0.07260696	0.00013157	0.0002549488	0.1149761	-0.06722623
	0.121283	-0.05444391	0.0001315705	0.0002549486	0.1110383	-0.06170614	0.0001293463	0.0002492707
	0.0001273205	0.0002527994	0.1149759	-0.06722641	0.0001293463	0.0002492707	0.1036409	-0.07255235
4.1e+08	0.06592802	-0.115635	0.000271067	0.0001454849	0.08240043	-0.1329008	0.0002665282	0.0001389014
	0.000271067	0.0001454849	0.0513927	-0.1192788	0.0002674714	0.0001398682	0.06480736	-0.1398871
	0.08240014	-0.1329008	0.0002674718	0.0001398677	0.06725933	-0.1157519	0.0002621885	0.0001352732
	0.0002665286	0.000138901	0.06480708	-0.1398871	0.0002621885	0.0001352732	0.05203134	-0.1189108
4.2e+08	0.009473155	-0.09100919	0.0002501714	-2.196516e-05	0.003455526	-0.1055537	0.000244092	-2.500064e-05
	0.0002501714	-2.196516e-05	-0.001247377	-0.08679143	0.0002446973	-2.112357e-05	-0.009595448	-0.1013564
	0.00345539	-0.1055536	0.0002446975	-2.112403e-05	0.009498057	-0.0917398	0.0002388558	-2.228023e-05
	0.0002440921	-2.50011e-05	-0.009595562	-0.1013563	0.0002388558	-2.228023e-05	-0.0001992825	-0.08665554
4.3e+08	0.02951853	-0.0475138	0.0001268445	-4.038433e-05	0.03466155	-0.03764059	0.0001225175	-4.166702e-05
	0.0001268446	-4.038433e-05	0.02469851	-0.04690134	0.0001266283	-3.68988e-05	0.03122003	-0.03921166
	0.03466149	-0.03764065	0.0001266283	-3.689909e-05	0.02876481	-0.04689039	0.000122739	-3.701384e-05
	0.0001225175	-4.166732e-05	0.03121996	-0.03921172	0.000122739	-3.701384e-05	0.02555011	-0.04734789
4.4e+08	0.06421478	-0.08046713	0.0001449746	2.904611e-05	0.09774524	-0.08539569	0.0001413075	2.679506e-05
	0.0001449746	2.90461e-05	0.0541165	-0.08419762	0.0001479395	2.795022e-05	0.08615697	-0.09600112
	0.09774498	-0.08539578	0.0001479395	2.794993e-05	0.0648364	-0.07897885	0.000144226	2.694398e-05
	0.0001413075	2.679477e-05	0.08615669	-0.09600118	0.000144226	2.694398e-05	0.05437927	-0.08463706
4.5e+08	0.02728767	-0.1251305	0.0002237219	-7.767485e-06	0.04588318	-0.1581822	0.0002178	-1.066364e-05
	0.0002237218	-7.767491e-06	0.01184726	-0.1232618	0.0002219705	-1.268318e-05	0.02385765	-0.1604794
	0.04588286	-0.1581821	0.0002219705	-1.268352e-05	0.0289488	-0.1249299	0.0002164118	-1.354948e-05
	0.0002178	-1.066397e-05	0.02385735	-0.1604792	0.0002164118	-1.354948e-05	0.01202768	-0.1232632
4.6e+08	-0.02890581	-0.1053735	0.0002482958	-0.0001241337	-0.0338678	-0.1198865	0.0002398664	-0.0001237277
	0.0002482957	-0.0001241337	-0.04087003	-0.09695409	0.0002417243	-0.0001243032	-0.04938679	-0.1110621
	-0.03386794	-0.1198863	0.0002417242	-0.0001243037	-0.02838625	-0.1064948	0.0002349144	-0.0001220267
	0.0002398663	-0.0001237282	-0.04938689	-0.1110619	0.0002349144	-0.0001220267	-0.04030632	-0.09698859
4.7e+08	-0.02640449	-0.05751146	0.0001476786	-0.0002352109	-0.003615129	-0.05012614	0.0001415753	-0.0002306771
	0.0001476786	-0.0002352109	-0.03335796	-0.05067107	0.00014511	-0.0002298243	-0.009774548	-0.04743932
	-0.003615198	-0.05012607	0.0001451096	-0.0002298247	-0.02744668	-0.05760304	0.0001410433	-0.0002246442
	0.0001415749	-0.0002306775	-0.009774615	-0.04743925	0.0001410433	-0.0002246442	-0.03293612	-0.05123674
4.8e+08	0.003077139	-0.06398391	2.430344e-05	-0.0002000537	0.05290023	-0.09187609	2.175632e-05	-0.0001961478
	2.430344e-05	-0.0002000537	-0.006095796	-0.05928161	2.729878e-05	-0.0001973398	0.03852604	-0.09668376
	0.05289999	-0.09187603	2.729833e-05	-0.0001973399	0.0029975	-0.06242618	2.600384e-05	-0.0001933442
	2.175587e-05	-0.0001961479	0.03852581	-0.09668367	2.600384e-05	-0.0001933443	-0.00631816	-0.05981423
