!
!4 port subset of full cascaded channels using these ports:13 37 14 38
# Hz S RI R 50
0	0.02798293	0.0002744059	-6.712183e-06	2.967897e-09	0.003778244	9.198322e-05	-8.860357e-06	3.808284e-09
	-6.712512e-06	2.97242e-09	0.02976701	0.000274387	-3.814011e-06	1.967638e-09	0.003385663	9.211927e-05
	0.003786918	9.04207e-05	-3.814224e-06	1.95731e-09	0.02943102	0.000274772	-6.73671e-06	3.009531e-09
	-8.860307e-06	3.797729e-09	0.00338979	9.055577e-05	-6.736772e-06	3.013009e-09	0.02864619	0.0002749351
1e+07	0.07820895	0.01974544	-4.210906e-05	-1.957805e-05	0.0782026	0.06302517	-5.61271e-05	-2.596013e-05
	-4.210876e-05	-1.957782e-05	0.07704628	0.01801492	-1.60425e-05	-5.042741e-06	0.07723756	0.06298641
	0.07820558	0.06302165	-1.604262e-05	-5.042921e-06	0.07821163	0.0197694	-3.070105e-05	-1.165308e-05
	-5.612719e-05	-2.596036e-05	0.07724158	0.06298151	-3.070112e-05	-1.165302e-05	0.0770609	0.01803922
2e+07	0.07755399	-0.02748195	-7.825658e-05	1.716095e-05	0.1312088	-0.01722607	-0.0001056095	2.50074e-05
	-7.825742e-05	1.716069e-05	0.07489217	-0.02796204	-2.420639e-05	3.895131e-06	0.1312075	-0.01554052
	0.1312168	-0.01722663	-2.420593e-05	3.895301e-06	0.0775894	-0.02745977	-5.271628e-05	1.217487e-05
	-0.000105608	2.500746e-05	0.131233	-0.01554629	-5.271563e-05	1.217486e-05	0.07490695	-0.02792339
3e+07	0.02560131	-0.01562701	-7.857081e-05	0.000108296	0.04751246	-0.06205631	-9.838575e-05	0.0001487816
	-7.857089e-05	0.0001082947	0.02527564	-0.01531374	-3.628316e-05	3.481059e-05	0.05064804	-0.0619296
	0.04751513	-0.06205603	-3.628312e-05	3.481137e-05	0.02553699	-0.01563502	-5.706966e-05	7.696774e-05
	-9.838568e-05	0.0001487824	0.0506514	-0.06192909	-5.706975e-05	7.696787e-05	0.02532203	-0.01521833
4e+07	0.0485201	0.04275698	5.85068e-05	0.0001789577	0.0144508	0.02587005	8.595278e-05	0.0002296674
	5.850658e-05	0.0001789578	0.04875776	0.03906218	1.952585e-05	7.374919e-05	0.01591103	0.02145777
	0.01445717	0.02586636	1.952516e-05	7.374825e-05	0.04845339	0.04285603	4.802041e-05	0.0001270537
	8.595265e-05	0.0002296667	0.01591727	0.02145089	4.802144e-05	0.0001270544	0.04883485	0.03916434
5e+07	0.1105355	0.01485118	0.0001943931	7.018623e-05	0.106154	0.04953007	0.0002539956	8.404495e-05
	0.0001943926	7.018603e-05	0.1056839	0.009910692	7.162872e-05	2.389179e-05	0.1024053	0.04657898
	0.1061535	0.04952539	7.162791e-05	2.389292e-05	0.1105802	0.01496386	0.0001342076	3.848354e-05
	0.0002539946	8.404606e-05	0.1024046	0.04657305	0.0001342084	3.848256e-05	0.1057707	0.0100109
6e+07	0.08548198	-0.04574612	0.0002043879	-7.861777e-05	0.1274589	-0.04424419	0.0002671734	-0.000110524
	0.0002043875	-7.861674e-05	0.07819539	-0.04495635	6.875568e-05	-1.636159e-05	0.1247976	-0.04116978
	0.1274589	-0.04424482	6.875617e-05	-1.636135e-05	0.08552917	-0.04575204	0.0001343762	-4.954085e-05
	0.0002671755	-0.0001105224	0.1247963	-0.04117207	0.0001343763	-4.954114e-05	0.07827922	-0.04483117
7e+07	0.0291137	-0.01928782	0.0001340527	-0.0002453369	0.03353437	-0.06191284	0.00015829	-0.00033296
	0.0001340538	-0.0002453353	0.02858515	-0.01515203	7.304506e-05	-7.994099e-05	0.0387545	-0.05931913
	0.03353531	-0.06191357	7.304498e-05	-7.994237e-05	0.02900728	-0.019284	9.924232e-05	-0.0001714504
	0.000158291	-0.000332963	0.03875441	-0.05932015	9.924269e-05	-0.0001714506	0.02871507	-0.01498552
8e+07	0.06655043	0.03543517	-0.0001371067	-0.0003244816	0.02623813	0.0318484	-0.0002018929	-0.0004029741
	-0.0001371035	-0.000324481	0.06982123	0.03161604	-3.926758e-05	-0.0001414634	0.03197952	0.02480933
	0.02623983	0.03184605	-3.927031e-05	-0.0001414641	0.06643753	0.03563117	-0.0001068699	-0.0002248917
	-0.0002018938	-0.0004029739	0.03198039	0.02480646	-0.000106869	-0.0002248913	0.07003065	0.03175076
9e+07	0.1258244	-0.008378433	-0.0003628012	-9.252922e-05	0.1217505	0.0314743	-0.0004598089	-9.549699e-05
	-0.0003627989	-9.253133e-05	0.1204678	-0.01682179	-0.0001380022	-4.463619e-05	0.1176601	0.02246256
	0.12175	0.03147066	-0.000138005	-4.463448e-05	0.1259041	-0.008144473	-0.0002406479	-4.79519e-05
	-0.00045981	-9.549682e-05	0.1176588	0.02245916	-0.0002406462	-4.795263e-05	0.1206687	-0.01677283
1e+08	0.09026788	-0.07393148	-0.0003178801	0.0001933825	0.1229662	-0.06663648	-0.0003995229	0.0002550779
	-0.0003178796	0.0001933805	0.07842235	-0.07303864	-0.0001213495	5.177491e-05	0.1152636	-0.06598535
	0.1229639	-0.06663741	-0.0001213511	5.177704e-05	0.09039872	-0.07387073	-0.0002071992	0.0001166524
	-0.0003995245	0.00025508	0.1152608	-0.06598676	-0.0002071983	0.000116651	0.07855016	-0.07298204
1.1e+08	0.02603619	-0.04902738	-0.0001276732	0.0003894245	0.02579892	-0.06939061	-0.0001434513	0.0005147408
	-0.0001276754	0.0003894225	0.02491481	-0.03909788	-8.454706e-05	0.0001334139	0.02912022	-0.06341718
	0.02579817	-0.06938969	-8.454481e-05	0.0001334163	0.02598131	-0.04901362	-0.0001018124	0.0002652317
	-0.0001434492	0.000514743	0.02911946	-0.06341616	-0.0001018141	0.0002652313	0.02508197	-0.03895732
1.2e+08	0.05296523	0.007032602	0.0002332803	0.0004346477	0.03034567	0.02358503	0.0003345948	0.0005296994
	0.0002332773	0.000434649	0.0628165	0.005092772	5.885577e-05	0.0001956633	0.04094871	0.01663391
	0.03034602	0.02358436	5.885912e-05	0.000195662	0.05284258	0.007258852	0.0001656084	0.000296755
	0.0003345983	0.0005296985	0.0409495	0.01663276	0.0001656077	0.0002967562	0.0630985	0.00516464
1.3e+08	0.1059933	-0.02747951	0.0005394054	0.0001011874	0.1213172	0.01072676	0.0006701469	8.826569e-05
	0.0005394052	0.0001011902	0.104345	-0.04144323	0.000207302	7.760475e-05	0.1192997	-0.0057468
	0.121316	0.01072571	0.0002073026	7.760159e-05	0.1060807	-0.02715408	0.0003459665	6.378087e-05
	0.0006701478	8.826254e-05	0.1192983	-0.005748788	0.0003459666	6.37821e-05	0.1045699	-0.04152824
1.4e+08	0.07492908	-0.08707808	0.0004408598	-0.0003519235	0.1092541	-0.08183327	0.0005361316	-0.0004481645
	0.0004408612	-0.000351922	0.0600125	-0.09021751	0.0002010732	-9.960667e-05	0.09547848	-0.0876792
	0.1092527	-0.08183267	0.0002010717	-9.960882e-05	0.07514719	-0.08692278	0.0003014371	-0.0002017198
	0.0005361302	-0.0004481667	0.09547649	-0.08767896	0.0003014383	-0.0002017187	0.06006731	-0.09028753
1.5e+08	0.01193962	-0.06985461	6.328619e-05	-0.0005738404	0.01806489	-0.07446633	6.142289e-05	-0.0007360058
	6.328842e-05	-0.0005738396	0.008733979	-0.05727399	8.215469e-05	-0.000224133	0.01437848	-0.06650118
	0.01806515	-0.0744656	8.215209e-05	-0.0002241338	0.01202707	-0.06984829	7.96247e-05	-0.0003955234
	6.142066e-05	-0.0007360067	0.01437861	-0.06650039	7.962638e-05	-0.0003955239	0.008792015	-0.05719784
1.6e+08	0.02074534	-0.01624712	-0.0003835426	-0.0005021099	0.02754147	0.009505746	-0.000526055	-0.0006069454
	-0.0003835402	-0.0005021114	0.03649821	-0.01672866	-0.0001073924	-0.0002437237	0.0400657	0.006070899
	0.02754183	0.00950501	-0.0001073948	-0.0002437224	0.02067424	-0.01612135	-0.0002586367	-0.0003537408
	-0.0005260576	-0.0006069444	0.0400662	0.006069686	-0.0002586366	-0.0003537421	0.03669415	-0.01670082
1.7e+08	0.06214802	-0.02842096	-0.0007140271	-6.867994e-05	0.1045431	-0.007193229	-0.0008793675	-3.24318e-05
	-0.0007140272	-6.868289e-05	0.06594812	-0.05010188	-0.0002862092	-0.0001064632	0.106062	-0.02963869
	0.1045422	-0.007194048	-0.0002862098	-0.0001064603	0.06219667	-0.0281226	-0.0004602364	-6.703253e-05
	-0.0008793685	-3.242877e-05	0.1060606	-0.02964023	-0.0004602368	-6.703325e-05	0.06606294	-0.05026538
1.8e+08	0.04622829	-0.06870166	-0.0005599775	0.0005463073	0.08508202	-0.08218211	-0.0006642016	0.0006861037
	-0.0005599795	0.0005463057	0.02824524	-0.08135393	-0.000308075	0.0001643532	0.06525003	-0.09707169
	0.08508095	-0.08218184	-0.0003080732	0.0001643556	0.04647696	-0.06850109	-0.0004171982	0.000312079
	-0.0006641998	0.0006861061	0.06524823	-0.09707162	-0.0004171991	0.0003120784	0.02810293	-0.08148775
1.9e+08	0.001354629	-0.05980742	4.682149e-05	0.0008090965	0.01232954	-0.06571769	7.866388e-05	0.001011269
	4.681924e-05	0.0008090968	-0.008595624	-0.0502474	-7.535187e-05	0.0003734241	-0.003008751	-0.0580453
	0.01232929	-0.06571733	-7.534907e-05	0.0003734243	0.001559426	-0.05983577	-4.041855e-05	0.0005867973
	7.866627e-05	0.00101127	-0.003009322	-0.05804475	-4.041976e-05	0.0005867979	-0.008788783	-0.05013626
2e+08	-0.002676934	-0.02042726	0.000634344	0.0005458204	0.02701817	-0.001163131	0.0008310313	0.0006527422
	0.0006343425	0.0005458221	0.01188838	-0.02006715	0.0002334925	0.0003138974	0.03554218	0.002353717
	0.02701785	-0.001163348	0.0002334947	0.000313896	-0.002706635	-0.02047602	0.0004421319	0.00042433
	0.0008310337	0.0006527411	0.03554185	0.002353284	0.0004421318	0.0004243309	0.01187025	-0.01991425
2.1e+08	0.02025324	-0.01121821	0.0009117307	-7.844792e-05	0.08064168	-0.01889021	0.001114959	-0.0001579975
	0.0009117309	-7.844521e-05	0.02660127	-0.03879942	0.0004179465	6.730697e-05	0.08555565	-0.04185099
	0.08064076	-0.0188902	0.0004179473	6.730401e-05	0.02016419	-0.01105213	0.0006297267	-1.847324e-05
	0.00111496	-0.0001580005	0.08555432	-0.0418514	0.0006297269	-1.84726e-05	0.02654238	-0.03881564
2.2e+08	0.02385976	-0.02178091	0.0005941579	-0.0008155315	0.05844588	-0.0648867	0.000687812	-0.001014345
	0.0005941604	-0.0008155302	0.000806925	-0.04581187	0.0003824828	-0.0003043709	0.03426521	-0.08818386
	0.05844514	-0.06488602	0.0003824804	-0.0003043736	0.02397556	-0.02154658	0.0004793554	-0.0005124445
	0.0006878097	-0.001014347	0.03426383	-0.08818316	0.0004793561	-0.0005124439	0.0004920285	-0.04578108
2.3e+08	0.01403503	-0.02108266	-0.0002519123	-0.001024295	0.01734471	-0.04078607	-0.0003359877	-0.00125609
	-0.0002519101	-0.001024296	-0.009258138	-0.0172081	1.548975e-06	-0.0005385161	-0.01222927	-0.03467049
	0.0173446	-0.0407854	1.545615e-06	-0.0005385158	0.01424293	-0.02107506	-8.745628e-05	-0.0007817182
	-0.0003359909	-0.00125609	-0.01222969	-0.0346695	-8.745519e-05	-0.0007817186	-0.00963825	-0.01687812
2.4e+08	0.007781227	-0.01110576	-0.0009495401	-0.0005272243	0.04057396	-0.006553981	-0.001205503	-0.0006176525
	-0.000949539	-0.000527226	0.0112865	-0.007190115	-0.0004268575	-0.000364951	0.03926779	0.007199264
	0.04057389	-0.006553689	-0.0004268596	-0.0003649488	0.00774868	-0.0112623	-0.0006965574	-0.0004578579
	-0.001205505	-0.0006176505	0.03926769	0.007199616	-0.0006965572	-0.0004578589	0.0111149	-0.006718526
2.5e+08	0.006132439	0.005941022	-0.001122523	0.0003624831	0.06414929	-0.02890682	-0.001359006	0.0005069863
	-0.001122523	0.0003624808	0.009520985	-0.01915458	-0.0006011995	7.660908e-05	0.0710986	-0.04398017
	0.06414901	-0.02890641	-0.0006011995	7.661257e-05	0.005861303	0.005981087	-0.0008469156	0.0002298002
	-0.001359006	0.0005069898	0.07109804	-0.04397992	-0.0008469161	0.0002297992	0.009423165	-0.01878833
2.6e+08	0.02308259	0.02686319	-0.0004634917	0.001188544	0.03960737	-0.04029902	-0.0005143974	0.001460398
	-0.0004634944	0.001188543	-0.005373725	-0.002598167	-0.0003466806	0.0005637713	0.01539114	-0.06681897
	0.03960735	-0.04029836	-0.0003466773	0.0005637736	0.02293701	0.02715266	-0.000398688	0.0008471431
	-0.0005143946	0.001460401	0.01539066	-0.06681819	-0.0003986892	0.0008471428	-0.005612647	-0.002221214
2.7e+08	0.05519445	0.02085895	0.0006269629	0.00110481	0.03806827	-0.01038933	0.0007927313	0.001334994
	0.0006269609	0.001104812	0.01617586	0.02179501	0.0002279582	0.000624614	-0.003259504	-0.005486721
	0.03806862	-0.0103889	0.0002279616	0.0006246125	0.05527723	0.02104588	0.0004012146	0.0008651197
	0.0007927347	0.001334994	-0.003259349	-0.005485939	0.0004012137	0.0008651205	0.01588445	0.02241046
2.8e+08	0.05533638	-0.009707208	0.001209574	0.0003305861	0.07237336	-0.01463409	0.001506537	0.0003698396
	0.001209574	0.0003305882	0.04194466	0.003859997	0.0006007098	0.0002751306	0.05914346	0.0112997
	0.07237361	-0.014634	0.0006007109	0.0002751276	0.05529701	-0.009788288	0.0009115279	0.0003157578
	0.001506539	0.0003698371	0.05914376	0.01129994	0.0009115279	0.0003157589	0.04185218	0.004664683
2.9e+08	0.02436454	-0.00305644	0.00121867	-0.0006895677	0.06233457	-0.04855887	0.001462199	-0.0009010923
	0.001218672	-0.000689566	0.02252111	-0.01323175	0.0007120913	-0.0002679004	0.07102956	-0.04781048
	0.06233462	-0.04855872	0.0007120901	-0.0002679036	0.02396791	-0.003042377	0.000966345	-0.0004890532
	0.001462199	-0.0009010958	0.07102951	-0.04781034	0.0009663459	-0.0004890523	0.02262857	-0.01245633
3e+08	0.03840155	0.04293169	0.0002073012	-0.001563997	0.03047753	-0.02707127	0.0001932595	-0.001902202
	0.0002073038	-0.001563997	0.01027924	0.0194231	0.0002101128	-0.0008523855	0.01335005	-0.0494679
	0.03047775	-0.02707099	0.0002101087	-0.0008523868	0.03800051	0.04332141	0.000196191	-0.001205993
	0.000193256	-0.001902204	0.01335006	-0.04946751	0.0001961923	-0.001205993	0.01043879	0.02011148
3.1e+08	0.1032243	0.03628619	-0.001129769	-0.001029428	0.06582953	0.008564787	-0.001394	-0.001224757
	-0.001129768	-0.00102943	0.05616935	0.03940042	-0.0005830343	-0.0005953735	0.02193306	0.01263282
	0.06582989	0.008564834	-0.0005830372	-0.0005953707	0.1031179	0.03676513	-0.0008594637	-0.0008006989
	-0.001394003	-0.001224755	0.0219334	0.01263305	-0.000859463	-0.0008006997	0.05627372	0.04012346
3.2e+08	0.1137417	-0.03178984	-0.001347432	9.319137e-05	0.1115308	-0.03345952	-0.00165381	0.0001421095
	-0.001347432	9.318926e-05	0.0869178	-0.005663237	-0.0006917483	1.06649e-05	0.08990978	0.001282887
	0.111531	-0.03345973	-0.0006917482	1.066798e-05	0.1137362	-0.031559	-0.001012516	6.144453e-05
	-0.001653811	0.0001421125	0.08991002	0.001282797	-0.001012517	6.144365e-05	0.08711266	-0.004763352
3.3e+08	0.05443401	-0.04955706	-0.001051898	0.000954261	0.06953108	-0.08552081	-0.001257433	0.001212002
	-0.0010519	0.0009542598	0.05041832	-0.03619817	-0.0006061601	0.00042275	0.08030396	-0.0663916
	0.06953103	-0.08552089	-0.0006061583	0.0004227524	0.05411155	-0.04943895	-0.0008224706	0.0006911199
	-0.001257432	0.001212005	0.08030393	-0.06639166	-0.0008224714	0.0006911193	0.05088604	-0.03525252
3.4e+08	0.0445265	0.01170236	4.642759e-05	0.001744166	0.02066368	-0.03785441	0.0001214013	0.002113209
	4.642536e-05	0.001744166	0.02881398	0.002944002	-6.705866e-05	0.0009846728	0.01862403	-0.05133821
	0.02066375	-0.03785432	-6.705506e-05	0.0009846733	0.04400948	0.01220431	8.345031e-06	0.001372713
	0.000121405	0.00211321	0.01862406	-0.05133811	8.344151e-06	0.001372714	0.02951341	0.003690471
3.5e+08	0.1228155	0.01757337	0.001571209	0.0009008951	0.08237733	0.008011457	0.001918985	0.001048745
	0.001571208	0.0009008976	0.082891	0.02290157	0.0008902494	0.0005169551	0.04747593	0.008380235
	0.08237752	0.008011359	0.0008902514	0.0005169516	0.1225973	0.01836059	0.001255883	0.0006757248
	0.001918988	0.001048742	0.04747611	0.008380168	0.001255883	0.000675726	0.08350912	0.02340296
3.6e+08	0.1446091	-0.06999121	0.001427831	-0.0005990674	0.1378086	-0.06196034	0.001724405	-0.0007467196
	0.001427832	-0.0005990657	0.1148525	-0.03753696	0.0007331044	-0.0003608569	0.1143087	-0.02806955
	0.1378086	-0.06196058	0.000733103	-0.0003608597	0.1446991	-0.06934048	0.001046908	-0.0005156384
	0.001724405	-0.0007467229	0.1143086	-0.02806979	0.001046909	-0.0005156378	0.1153316	-0.03692342
3.7e+08	0.06830322	-0.1137303	0.0006596382	-0.001199418	0.0724984	-0.132301	0.0007909441	-0.001485536
	0.0006596397	-0.001199418	0.06607997	-0.08068669	0.0003162622	-0.0005629291	0.08315574	-0.1014912
	0.07249819	-0.1323011	0.0003162603	-0.0005629305	0.06831584	-0.1133845	0.0004557132	-0.0008637185
	0.0007909421	-0.001485538	0.08315555	-0.1014912	0.0004557138	-0.0008637181	0.06680818	-0.07991261
3.8e+08	0.0207138	-0.05011863	-0.0002783343	-0.001616513	-0.001131397	-0.07047778	-0.0003979833	-0.001968061
	-0.0002783322	-0.001616514	0.02723561	-0.04286181	-5.786294e-05	-0.0008553755	0.01445714	-0.07378965
	-0.001131468	-0.07047767	-5.786608e-05	-0.0008553754	0.02034549	-0.0496388	-0.0001813877	-0.001226959
	-0.0003979867	-0.001968062	0.01445709	-0.0737896	-0.0001813869	-0.001226959	0.02831111	-0.04236463
3.9e+08	0.09105378	-0.01396809	-0.001773533	-0.0008067592	0.07129194	-0.004782156	-0.002165834	-0.0009164555
	-0.001773532	-0.0008067614	0.07249468	-0.01502804	-0.0009871559	-0.0004655588	0.05367383	-0.01435482
	0.071292	-0.004782196	-0.0009871576	-0.0004655554	0.09083297	-0.01300939	-0.001401343	-0.0005853587
	-0.002165836	-0.0009164526	0.05367385	-0.01435494	-0.001401343	-0.0005853597	0.07343286	-0.01500178
4e+08	0.1284033	-0.09661472	-0.001523254	0.000981745	0.1375156	-0.08812824	-0.001809732	0.001205982
	-0.001523256	0.0009817434	0.1031039	-0.07260696	-0.0007731106	0.00059008	0.1149761	-0.06722623
	0.1375155	-0.08812839	-0.0007731088	0.0005900827	0.1286573	-0.09565595	-0.001079938	0.0008263574
	-0.001809731	0.001205985	0.1149759	-0.06722641	-0.001079938	0.0008263566	0.1036409	-0.07255235
4.1e+08	0.05241674	-0.15695	-0.0002843393	0.001494966	0.05965815	-0.170143	-0.0003435656	0.001808338
	-0.0002843408	0.001494966	0.0513927	-0.1192788	-6.403395e-05	0.0007224022	0.06480736	-0.1398871
	0.0596579	-0.170143	-6.403169e-05	0.0007224027	0.05285734	-0.1563909	-0.0001279077	0.001057214
	-0.0003435632	0.00180834	0.06480708	-0.1398871	-0.0001279084	0.001057214	0.05203134	-0.1189108
4.2e+08	-0.0261949	-0.1034484	0.0006269121	0.001353809	-0.03402491	-0.1063242	0.0007922118	0.001665546
	0.0006269102	0.001353809	-0.001247377	-0.08679143	0.0002594469	0.0006250496	-0.009595448	-0.1013564
	-0.03402504	-0.106324	0.0002594492	0.000625049	-0.02614251	-0.1031651	0.0004367741	0.0009560877
	0.0007922146	0.001665545	-0.009595562	-0.1013563	0.0004367736	0.0009560883	-0.0001992825	-0.08665554
4.3e+08	0.01688332	-0.03031037	0.001722931	0.0006483999	0.02964641	-0.01728387	0.002123865	0.0007256262
	0.00172293	0.0006484021	0.02469851	-0.04690134	0.0008605077	0.0003800562	0.03122003	-0.03921166
	0.02964642	-0.01728378	0.0008605091	0.0003800532	0.01665859	-0.02952952	0.001285336	0.000461319
	0.002123867	0.0007256231	0.03121996	-0.03921172	0.001285336	0.0004613198	0.02555011	-0.04734789
4.4e+08	0.07718782	-0.08235338	0.001618214	-0.001151278	0.1105849	-0.09340192	0.001902845	-0.001420707
	0.001618216	-0.001151276	0.0541165	-0.08419762	0.0008185764	-0.0006164261	0.08615697	-0.09600112
	0.1105848	-0.09340194	0.0008185742	-0.0006164288	0.07751794	-0.08127666	0.001122436	-0.000901346
	0.001902843	-0.00142071	0.08615669	-0.09600118	0.001122437	-0.0009013453	0.05437927	-0.08463706
4.5e+08	0.02189631	-0.1503977	7.715586e-05	-0.001809329	0.03358661	-0.1811511	8.945301e-05	-0.002156847
	7.715769e-05	-0.001809329	0.01184726	-0.1232618	-1.545177e-05	-0.0008732754	0.02385765	-0.1604794
	0.03358642	-0.1811511	-1.545459e-05	-0.0008732755	0.0226503	-0.1497762	-1.279379e-06	-0.001246945
	8.945019e-05	-0.002156848	0.02385735	-0.1604792	-1.278292e-06	-0.001246945	0.01202768	-0.1232632
4.6e+08	-0.06706826	-0.1141341	-0.001073293	-0.001245054	-0.06703787	-0.1211582	-0.001295235	-0.001535883
	-0.001073292	-0.001245055	-0.04087003	-0.09695409	-0.0004952273	-0.0005576592	-0.04938679	-0.1110621
	-0.06703798	-0.1211579	-0.0004952293	-0.000557658	-0.06662168	-0.1140967	-0.0007382241	-0.0008674284
	-0.001295237	-0.001535882	-0.04938689	-0.1110619	-0.0007382237	-0.0008674292	-0.04030632	-0.09698859
4.7e+08	-0.05664108	-0.02007533	-0.001715308	-0.0002867224	-0.02226845	-0.02056673	-0.002130176	-0.000317408
	-0.001715308	-0.0002867248	-0.03335796	-0.05067107	-0.0007836688	-0.0001719602	-0.009774548	-0.04743932
	-0.02226841	-0.02056652	-0.0007836695	-0.0001719573	-0.05688873	-0.01978247	-0.001224832	-0.0001968435
	-0.002130178	-0.0003174052	-0.009774615	-0.04743925	-0.001224833	-0.0001968445	-0.03293612	-0.05123674
4.8e+08	0.02224173	-0.02367349	-0.001564761	0.001234519	0.06793492	-0.06815552	-0.001842409	0.00154259
	-0.001564762	0.001234517	-0.006095796	-0.05928161	-0.0007792644	0.0005508291	0.03852604	-0.09668376
	0.06793496	-0.06815542	-0.0007792625	0.0005508315	0.02231391	-0.0226484	-0.001069447	0.0008784957
	-0.001842407	0.001542593	0.03852581	-0.09668367	-0.001069448	0.0008784954	-0.00631816	-0.05981423
4.9e+08	0.01047005	-0.09229169	1.333878e-05	0.002064898	0.01285108	-0.1549761	3.583551e-05	0.002451761
