!
!4 port subset of full cascaded channels using these ports:53 37 54 38
# Hz S RI R 50
0	0.02977259	0.0002743836	3.125977e-06	-1.466395e-09	0.003373787	9.211814e-05	3.030983e-06	-1.45073e-09
	3.125977e-06	-1.466451e-09	0.02976701	0.000274387	3.030907e-06	-1.436727e-09	0.003385663	9.211927e-05
	0.003377913	9.055463e-05	3.030948e-06	-1.432016e-09	0.02864925	0.000274937	2.933357e-06	-1.414625e-09
	3.031023e-06	-1.446011e-09	0.00338979	9.055577e-05	2.933358e-06	-1.41468e-09	0.02864619	0.0002749351
1e+07	0.07701175	0.01806367	2.959524e-05	1.109283e-05	0.07721652	0.06301613	2.917042e-05	1.087874e-05
	2.959524e-05	1.109283e-05	0.07704628	0.01801492	2.912783e-05	1.094709e-05	0.07723756	0.06298641
	0.07722054	0.06301123	2.912782e-05	1.094727e-05	0.07704322	0.0180641	2.860677e-05	1.064438e-05
	2.917041e-05	1.087892e-05	0.07724158	0.06298151	2.860677e-05	1.064438e-05	0.0770609	0.01803922
2e+07	0.07492491	-0.02777887	1.287562e-05	-1.518794e-05	0.1312269	-0.01542823	1.252387e-05	-1.511723e-05
	1.287561e-05	-1.518794e-05	0.07489217	-0.02796204	1.270553e-05	-1.49393e-05	0.1312075	-0.01554052
	0.1312524	-0.01543399	1.270507e-05	-1.494114e-05	0.07492345	-0.02782898	1.224981e-05	-1.4891e-05
	1.252341e-05	-1.511907e-05	0.131233	-0.01554629	1.22498e-05	-1.4891e-05	0.07490695	-0.02792339
3e+07	0.02550848	-0.01515846	-1.984441e-05	4.007219e-05	0.05079042	-0.0618333	-1.990356e-05	3.960113e-05
	-1.984441e-05	4.007219e-05	0.02527564	-0.01531374	-1.948993e-05	3.94555e-05	0.05064804	-0.0619296
	0.05079378	-0.0618328	-1.948933e-05	3.945557e-05	0.02544129	-0.01513832	-1.952829e-05	3.883996e-05
	-1.990295e-05	3.96012e-05	0.0506514	-0.06192909	-1.952828e-05	3.883996e-05	0.02532203	-0.01521833
4e+07	0.04898867	0.03901165	7.519581e-05	9.279776e-05	0.01605301	0.02142763	7.411261e-05	9.171036e-05
	7.519581e-05	9.279776e-05	0.04875776	0.03906218	7.421905e-05	9.126824e-05	0.01591103	0.02145777
	0.01605926	0.02142075	7.42184e-05	9.126741e-05	0.04895307	0.03913962	7.296447e-05	8.973127e-05
	7.411196e-05	9.170953e-05	0.01591727	0.02145089	7.296447e-05	8.973127e-05	0.04883485	0.03916434
5e+07	0.1057118	0.009900101	0.0001525107	-8.539888e-06	0.1024221	0.04657202	0.0001502092	-8.573162e-06
	0.0001525107	-8.539891e-06	0.1056839	0.009910692	0.0001501636	-8.707192e-06	0.1024053	0.04657898
	0.1024214	0.04656609	0.0001501632	-8.706127e-06	0.1057845	0.01000547	0.0001471896	-9.091748e-06
	0.0001502087	-8.572098e-06	0.1024046	0.04657305	0.0001471896	-9.091752e-06	0.1057707	0.0100109
6e+07	0.07831194	-0.04468186	7.91926e-05	-9.963501e-05	0.1248647	-0.0409995	7.738823e-05	-9.806028e-05
	7.91926e-05	-9.963501e-05	0.07819539	-0.04495635	7.792973e-05	-9.826709e-05	0.1247976	-0.04116978
	0.1248635	-0.0410018	7.793187e-05	-9.826707e-05	0.07833535	-0.04468726	7.53645e-05	-9.64995e-05
	7.739037e-05	-9.806026e-05	0.1247963	-0.04117207	7.53645e-05	-9.64995e-05	0.07827922	-0.04483117
7e+07	0.02914255	-0.01491958	3.783194e-07	-4.01032e-05	0.03909565	-0.05916759	-6.076905e-08	-3.847835e-05
	3.783186e-07	-4.010321e-05	0.02858515	-0.01515203	4.450411e-07	-3.981746e-05	0.0387545	-0.05931913
	0.03909556	-0.0591686	4.449211e-07	-3.981853e-05	0.0290004	-0.01485786	-2.984967e-07	-3.782556e-05
	-6.088876e-08	-3.847943e-05	0.03875441	-0.05932015	-2.98494e-07	-3.782556e-05	0.02871507	-0.01498552
8e+07	0.07048192	0.0313248	8.624614e-05	1.510235e-05	0.03239198	0.02463778	8.576654e-05	1.584657e-05
	8.624613e-05	1.510234e-05	0.06982123	0.03161604	8.478884e-05	1.415153e-05	0.03197952	0.02480933
	0.03239285	0.0246349	8.478892e-05	1.415091e-05	0.07037686	0.03161055	8.411216e-05	1.478234e-05
	8.576662e-05	1.584594e-05	0.03198039	0.02480646	8.411215e-05	1.478233e-05	0.07003065	0.03175076
9e+07	0.1206727	-0.01732853	0.0001491118	-9.509631e-05	0.1177943	0.02215159	0.000147617	-9.387322e-05
	0.0001491118	-9.50963e-05	0.1204678	-0.01682179	0.0001459148	-9.425433e-05	0.1176601	0.02246256
	0.117793	0.0221482	0.0001459153	-9.42548e-05	0.120784	-0.01703292	0.0001435001	-9.325755e-05
	0.0001476175	-9.387369e-05	0.1176588	0.02245916	0.0001435001	-9.325754e-05	0.1206687	-0.01677283
1e+08	0.07842013	-0.07316144	6.305801e-05	-0.0002024958	0.1152626	-0.06606216	6.186989e-05	-0.0001994464
	6.305801e-05	-0.0002024958	0.07842235	-0.07303864	6.12335e-05	-0.0001991931	0.1152636	-0.06598535
	0.1152597	-0.06606357	6.123358e-05	-0.0001991947	0.07855001	-0.07304519	5.873475e-05	-0.000195429
	6.186997e-05	-0.0001994479	0.1152608	-0.06598676	5.873475e-05	-0.000195429	0.07855016	-0.07298204
1.1e+08	0.02538975	-0.03903421	-6.870513e-05	-0.0001736926	0.02941445	-0.06336659	-6.761391e-05	-0.0001698695
	-6.870513e-05	-0.0001736926	0.02491481	-0.03909788	-6.795918e-05	-0.0001710754	0.02912022	-0.06341718
	0.0294137	-0.06336557	-6.796006e-05	-0.0001710757	0.0253303	-0.03891305	-6.732612e-05	-0.0001657725
	-6.761479e-05	-0.0001698697	0.02911946	-0.06341616	-6.732615e-05	-0.0001657724	0.02508197	-0.03895732
1.2e+08	0.0636121	0.004517467	-6.995169e-05	-7.424808e-05	0.04145735	0.01628891	-6.705241e-05	-7.208228e-05
	-6.99517e-05	-7.424811e-05	0.0628165	0.005092772	-6.979454e-05	-7.364364e-05	0.04094871	0.01663391
	0.04145814	0.01628775	-6.979469e-05	-7.364435e-05	0.06353001	0.004879323	-6.645822e-05	-7.061184e-05
	-6.705253e-05	-7.208293e-05	0.0409495	0.01663276	-6.64582e-05	-7.061173e-05	0.0630985	0.00516464
1.3e+08	0.1045311	-0.04258217	-1.224282e-05	-8.883743e-05	0.1194369	-0.006456524	-1.002988e-05	-8.848002e-05
	-1.224284e-05	-8.883741e-05	0.104345	-0.04144323	-1.39622e-05	-8.724172e-05	0.1192997	-0.0057468
	0.1194356	-0.006458512	-1.396293e-05	-8.724295e-05	0.1046929	-0.04212693	-1.192346e-05	-8.681645e-05
	-1.003054e-05	-8.848115e-05	0.1192983	-0.005748788	-1.192337e-05	-8.681636e-05	0.1045699	-0.04152824
1.4e+08	0.05950737	-0.09097771	-3.901316e-05	-0.0001630975	0.09517503	-0.08816642	-3.805899e-05	-0.0001621262
	-3.901316e-05	-0.0001630976	0.0600125	-0.09021751	-3.976864e-05	-0.0001588106	0.09547848	-0.0876792
	0.09517303	-0.08816617	-3.977016e-05	-0.0001588115	0.05981383	-0.09069973	-3.988505e-05	-0.0001568965
	-3.80604e-05	-0.0001621271	0.09547649	-0.08767896	-3.988494e-05	-0.0001568964	0.06006731	-0.09028753
1.5e+08	0.008470407	-0.05740159	-0.0001662981	-0.000178531	0.01421297	-0.06658457	-0.0001639668	-0.0001760146
	-0.0001662981	-0.000178531	0.008733979	-0.05727399	-0.0001635769	-0.000174324	0.01437848	-0.06650118
	0.01421309	-0.06658378	-0.0001635787	-0.0001743239	0.008656247	-0.05726819	-0.0001613484	-0.0001695034
	-0.0001639686	-0.0001760145	0.01437861	-0.06650039	-0.0001613483	-0.0001695034	0.008792015	-0.05719784
1.6e+08	0.03684861	-0.01720778	-0.0002539915	-4.383938e-05	0.04029743	0.005777633	-0.000248746	-4.288569e-05
	-0.0002539915	-4.383936e-05	0.03649821	-0.01672866	-0.0002504656	-4.277708e-05	0.0400657	0.006070899
	0.04029794	0.005776415	-0.000250467	-4.27763e-05	0.03689545	-0.01694792	-0.0002435477	-4.015694e-05
	-0.0002487472	-4.28849e-05	0.0400662	0.006069686	-0.0002435476	-4.015692e-05	0.03669415	-0.01670082
1.7e+08	0.0658555	-0.05140551	-0.0001786018	7.694015e-05	0.1060292	-0.03046494	-0.0001737533	7.393062e-05
	-0.0001786018	7.694015e-05	0.06594812	-0.05010188	-0.0001773302	7.719194e-05	0.106062	-0.02963869
	0.1060278	-0.03046648	-0.000177331	7.719296e-05	0.06604296	-0.05096908	-0.000171059	7.4117e-05
	-0.000173754	7.393159e-05	0.1060606	-0.02964023	-0.0001710589	7.411699e-05	0.06606294	-0.05026538
1.8e+08	0.0270587	-0.08243857	-7.659321e-05	4.809473e-05	0.06451853	-0.09778215	-7.53712e-05	4.406792e-05
	-7.659322e-05	4.809473e-05	0.02824524	-0.08135393	-7.574216e-05	5.065578e-05	0.06525003	-0.09707169
	0.06451673	-0.09778208	-7.574257e-05	5.065645e-05	0.02748564	-0.08209366	-7.460781e-05	4.682978e-05
	-7.537154e-05	4.40685e-05	0.06524823	-0.09707162	-7.460771e-05	4.68297e-05	0.02810293	-0.08148775
1.9e+08	-0.009942083	-0.05022137	-0.000131638	-4.716301e-05	-0.003867459	-0.05805346	-0.000131611	-4.839191e-05
	-0.000131638	-4.7163e-05	-0.008595624	-0.0502474	-0.0001274422	-4.375008e-05	-0.003008751	-0.0580453
	-0.00386803	-0.05805291	-0.0001274431	-4.374931e-05	-0.009510716	-0.05014694	-0.0001269933	-4.308799e-05
	-0.0001316119	-4.839124e-05	-0.003009322	-0.05804475	-0.0001269933	-4.30881e-05	-0.008788783	-0.05013626
2e+08	0.01145841	-0.01975331	-0.0002816108	5.316114e-05	0.03526219	0.002550893	-0.00027849	5.241792e-05
	-0.0002816108	5.316115e-05	0.01188838	-0.02006715	-0.0002752468	5.282499e-05	0.03554218	0.002353717
	0.03526186	0.002550459	-0.0002752473	5.282664e-05	0.01163668	-0.01975388	-0.0002694892	5.359274e-05
	-0.0002784904	5.241951e-05	0.03554185	0.002353284	-0.0002694892	5.359267e-05	0.01187025	-0.01991425
2.1e+08	0.0263195	-0.03936763	-0.000206279	0.0002786587	0.08538962	-0.04221601	-0.0002024867	0.0002734703
	-0.0002062789	0.0002786587	0.02660127	-0.03879942	-0.0002026447	0.0002752879	0.08555565	-0.04185099
	0.08538828	-0.04221641	-0.0002026439	0.0002752895	0.02640428	-0.03913447	-0.0001959982	0.0002691975
	-0.000202486	0.0002734719	0.08555432	-0.0418514	-0.0001959982	0.0002691975	0.02654238	-0.03881564
2.2e+08	-0.0006106798	-0.04655479	4.244982e-05	0.0002832788	0.03337452	-0.0886828	4.114662e-05	0.0002757718
	4.244984e-05	0.0002832788	0.000806925	-0.04581187	4.33678e-05	0.0002816128	0.03426521	-0.08818386
	0.03337314	-0.08868209	4.336913e-05	0.0002816133	-0.0002662603	-0.04621215	4.288159e-05	0.0002725426
	4.114793e-05	0.0002757722	0.03426383	-0.08818316	4.288159e-05	0.0002725425	0.0004920285	-0.04578108
2.3e+08	-0.01125559	-0.01663722	8.185724e-05	6.480162e-05	-0.01351711	-0.03433876	7.674582e-05	6.142347e-05
	8.185725e-05	6.48016e-05	-0.009258138	-0.0172081	8.491634e-05	6.542327e-05	-0.01222927	-0.03467049
	-0.01351753	-0.03433777	8.491679e-05	6.542317e-05	-0.01073111	-0.01660359	8.008229e-05	6.218821e-05
	7.674621e-05	6.142332e-05	-0.01222969	-0.0346695	8.008225e-05	6.218815e-05	-0.00963825	-0.01687812
2.4e+08	0.01038415	-0.005628715	-0.000128594	6.474267e-05	0.03866365	0.008190475	-0.0001308135	6.505709e-05
	-0.000128594	6.474267e-05	0.0112865	-0.007190115	-0.0001224203	6.222153e-05	0.03926779	0.007199264
	0.03866355	0.00819083	-0.0001224202	6.22222e-05	0.01059834	-0.005885993	-0.0001224062	6.301048e-05
	-0.0001308134	6.505777e-05	0.03926769	0.007199616	-0.0001224062	6.301046e-05	0.0111149	-0.006718526
2.5e+08	0.009617976	-0.01832835	-0.0001028159	0.0003338617	0.07115503	-0.04344365	-0.0001021467	0.000331067
	-0.0001028159	0.0003338617	0.009520985	-0.01915458	-9.939059e-05	0.0003266359	0.0710986	-0.04398017
	0.07115447	-0.0434434	-9.938937e-05	0.0003266368	0.009466696	-0.01834164	-9.577812e-05	0.0003219612
	-0.0001021455	0.0003310678	0.07109804	-0.04397992	-9.577816e-05	0.0003219612	0.009423165	-0.01878833
2.6e+08	-0.005987054	-0.002582338	0.0002346755	0.0003609988	0.01500391	-0.06681896	0.0002310688	0.0003548854
	0.0002346755	0.0003609988	-0.005373725	-0.002598167	0.0002328057	0.0003548588	0.01539114	-0.06681897
	0.01500344	-0.06681817	0.0002328073	0.0003548583	-0.005951966	-0.002229358	0.0002300123	0.000345403
	0.0002310704	0.0003548849	0.01539066	-0.06681819	0.0002300123	0.000345403	-0.005612647	-0.002221214
2.7e+08	0.0146159	0.02276722	0.0003364743	2.791039e-05	-0.004271593	-0.004886724	0.0003278723	2.604245e-05
	0.0003364743	2.791038e-05	0.01617586	0.02179501	0.0003349042	2.626829e-05	-0.003259504	-0.005486721
	-0.004271436	-0.004885938	0.0003349046	2.626714e-05	0.01501357	0.02291677	0.0003253641	2.24603e-05
	0.0003278727	2.604131e-05	-0.003259349	-0.005485939	0.0003253641	2.246029e-05	0.01588445	0.02241046
2.8e+08	0.0413034	0.006263698	6.167321e-05	-8.421694e-05	0.05869977	0.01283716	5.549686e-05	-8.010124e-05
	6.16732e-05	-8.421696e-05	0.04194466	0.003859997	6.414981e-05	-8.703417e-05	0.05914346	0.0112997
	0.05870007	0.01283741	6.414955e-05	-8.703442e-05	0.04146378	0.005971971	5.808628e-05	-8.344895e-05
	5.549659e-05	-8.010146e-05	0.05914376	0.01129994	5.808627e-05	-8.344894e-05	0.04185218	0.004664683
2.9e+08	0.02359644	-0.01124573	-9.835857e-06	0.0001804467	0.07170449	-0.04651604	-1.075092e-05	0.0001837126
	-9.835871e-06	0.0001804467	0.02252111	-0.01323175	-9.167153e-06	0.0001724	0.07102956	-0.04781048
	0.07170445	-0.0465159	-9.16659e-06	0.0001724002	0.02319631	-0.01135669	-8.715815e-06	0.0001737906
	-1.075035e-05	0.0001837128	0.07102951	-0.04781034	-8.715824e-06	0.0001737906	0.02262857	-0.01245633
3e+08	0.01137473	0.01989639	0.0003196773	0.0002432951	0.01405941	-0.04915657	0.0003175572	0.0002423438
	0.0003196773	0.0002432951	0.01027924	0.0194231	0.0003135878	0.00023579	0.01335005	-0.0494679
	0.01405942	-0.04915619	0.0003135888	0.0002357892	0.01102735	0.02037271	0.0003113636	0.0002311395
	0.0003175582	0.000242343	0.01335006	-0.04946751	0.0003113636	0.0002311395	0.01043879	0.02011148
3.1e+08	0.05600845	0.03991137	0.000435131	-0.0001238663	0.02182816	0.0129507	0.0004284414	-0.0001226681
	0.000435131	-0.0001238663	0.05616935	0.03940042	0.0004276556	-0.0001247697	0.02193306	0.01263282
	0.0218285	0.01295093	0.0004276553	-0.000124771	0.05616674	0.04040116	0.0004183801	-0.000126495
	0.0004284412	-0.0001226694	0.0219334	0.01263305	0.0004183801	-0.000126495	0.05627372	0.04012346
3.2e+08	0.08697525	-0.003696765	0.0001292226	-0.0002961104	0.08992464	0.002540899	0.0001237782	-0.0002890655
	0.0001292226	-0.0002961104	0.0869178	-0.005663237	0.0001269645	-0.000295319	0.08990978	0.001282887
	0.08992488	0.00254081	0.0001269638	-0.0002953194	0.08711461	-0.003676039	0.0001187688	-0.0002888367
	0.0001237774	-0.0002890659	0.08991002	0.001282797	0.0001187688	-0.0002888367	0.08711266	-0.004763352
3.3e+08	0.05236396	-0.0341316	-4.25732e-05	-6.958104e-05	0.08153637	-0.06504329	-4.200796e-05	-6.130707e-05
	-4.257322e-05	-6.958104e-05	0.05041832	-0.03619817	-4.427704e-05	-7.381972e-05	0.08030396	-0.0663916
	0.08153634	-0.06504336	-4.427718e-05	-7.381959e-05	0.05193774	-0.03409492	-4.471395e-05	-6.57151e-05
	-4.200811e-05	-6.130695e-05	0.08030393	-0.06639166	-4.471396e-05	-6.571511e-05	0.05088604	-0.03525252
3.4e+08	0.03154409	0.003097982	0.0001945208	6.239503e-05	0.02038607	-0.05122234	0.0001976797	6.61597e-05
	0.0001945208	6.239504e-05	0.02881398	0.002944002	0.0001862897	5.780786e-05	0.01862403	-0.05133821
	0.02038611	-0.05122225	0.00018629	5.780742e-05	0.03100371	0.003791397	0.0001885129	5.971555e-05
	0.00019768	6.615927e-05	0.01862406	-0.05133811	0.0001885128	5.971556e-05	0.02951341	0.003690471
3.5e+08	0.08416685	0.02195158	0.0003149994	-0.0002332143	0.04830284	0.007767433	0.0003150232	-0.0002312109
	0.0003149994	-0.0002332143	0.082891	0.02290157	0.000304612	-0.0002305086	0.04747593	0.008380235
	0.04830302	0.007767363	0.0003046115	-0.0002305094	0.08420167	0.02289839	0.0003013844	-0.0002306228
	0.0003150227	-0.0002312117	0.04747611	0.008380168	0.0003013844	-0.0002306228	0.08350912	0.02340296
3.6e+08	0.1152473	-0.03734188	4.095648e-05	-0.0004002329	0.1145536	-0.02795145	3.995934e-05	-0.0003948562
	4.095648e-05	-0.0004002329	0.1148525	-0.03753696	3.644192e-05	-0.0003935083	0.1143087	-0.02806955
	0.1145535	-0.02795169	3.644105e-05	-0.0003935085	0.1155394	-0.03679751	3.089895e-05	-0.0003876607
	3.995847e-05	-0.0003948563	0.1143086	-0.02806979	3.089895e-05	-0.0003876607	0.1153316	-0.03692342
3.7e+08	0.06783809	-0.07968488	-0.0001706826	-0.0002302293	0.08426593	-0.1008351	-0.0001675696	-0.000222353
	-0.0001706826	-0.0002302293	0.06607997	-0.08068669	-0.0001713567	-0.0002277145	0.08315574	-0.1014912
	0.08426574	-0.1008351	-0.0001713572	-0.0002277142	0.06777159	-0.07933685	-0.0001708901	-0.0002171913
	-0.0001675701	-0.0002223527	0.08315555	-0.1014912	-0.0001708901	-0.0002171913	0.06680818	-0.07991261
3.8e+08	0.03035498	-0.04348299	-6.731153e-05	-3.620795e-05	0.01646624	-0.07416351	-5.924609e-05	-3.155982e-05
	-6.731154e-05	-3.620793e-05	0.02723561	-0.04286181	-7.274095e-05	-3.623498e-05	0.01445714	-0.07378965
	0.01646619	-0.07416346	-7.274104e-05	-3.623489e-05	0.030028	-0.04268171	-6.520818e-05	-3.003595e-05
	-5.924618e-05	-3.155973e-05	0.01445709	-0.0737896	-6.520819e-05	-3.003593e-05	0.02831111	-0.04236463
3.9e+08	0.0742997	-0.01765787	7.727079e-05	-0.0001737383	0.05484839	-0.01604097	8.434747e-05	-0.0001745758
	7.72708e-05	-0.0001737383	0.07249468	-0.01502804	6.921685e-05	-0.0001675227	0.05367383	-0.01435482
	0.05484841	-0.01604109	6.92165e-05	-0.0001675229	0.07443798	-0.01642306	7.45715e-05	-0.0001685705
	8.434712e-05	-0.000174576	0.05367385	-0.01435494	7.457151e-05	-0.0001685704	0.07343286	-0.01500178
4e+08	0.1029121	-0.07458696	-9.393272e-05	-0.0003110331	0.1148551	-0.06850301	-9.076597e-05	-0.0003122387
	-9.393271e-05	-0.0003110331	0.1031039	-0.07260696	-9.638289e-05	-0.0003001643	0.1149761	-0.06722623
	0.1148549	-0.06850319	-9.638349e-05	-0.0003001642	0.1035486	-0.07362637	-9.716923e-05	-0.0002998622
	-9.076657e-05	-0.0003122386	0.1149759	-0.06722641	-9.716922e-05	-0.0002998622	0.1036409	-0.07255235
4.1e+08	0.05157242	-0.1196873	-0.0002750866	-0.0002022393	0.06491089	-0.1401467	-0.0002719279	-0.0002003469
	-0.0002750866	-0.0002022393	0.0513927	-0.1192788	-0.0002715085	-0.0001943771	0.06480736	-0.1398871
	0.0649106	-0.1401467	-0.000271509	-0.0001943767	0.05214331	-0.1191175	-0.0002708832	-0.0001876403
	-0.0002719284	-0.0002003465	0.06480708	-0.1398871	-0.0002708831	-0.0001876403	0.05203134	-0.1189108
4.2e+08	0.0005464732	-0.08779253	-0.000276229	-9.449485e-06	-0.008443347	-0.1019721	-0.0002684209	-7.631643e-06
	-0.000276229	-9.44948e-06	-0.001247377	-0.08679143	-0.0002742569	-6.764822e-06	-0.009595448	-0.1013564
	-0.008443462	-0.101972	-0.0002742571	-6.764329e-06	0.000806008	-0.08718666	-0.000265153	-3.326058e-07
	-0.000268421	-7.631145e-06	-0.009595562	-0.1013563	-0.000265153	-3.32594e-07	-0.0001992825	-0.08665554
4.3e+08	0.02589065	-0.05016642	-0.0001315862	3.122503e-05	0.03201382	-0.04130047	-0.0001219961	2.658899e-05
	-0.0001315861	3.122504e-05	0.02469851	-0.04690134	-0.0001334889	3.691026e-05	0.03122003	-0.03921166
	0.03201375	-0.04130053	-0.0001334889	3.691056e-05	0.02624269	-0.04913134	-0.0001220649	3.354923e-05
	-0.0001219961	2.658928e-05	0.03121996	-0.03921172	-0.0001220649	3.354924e-05	0.02555011	-0.04734789
4.4e+08	0.05268208	-0.08748149	-0.0001380954	-6.6105e-05	0.08524719	-0.09812093	-0.0001342003	-7.49977e-05
	-0.0001380954	-6.6105e-05	0.0541165	-0.08419762	-0.0001358873	-5.605002e-05	0.08615697	-0.09600112
	0.0852469	-0.09812099	-0.0001358874	-5.604974e-05	0.0536162	-0.0864554	-0.0001331379	-6.390001e-05
	-0.0001342004	-7.499742e-05	0.08615669	-0.09600118	-0.0001331379	-6.39e-05	0.05437927	-0.08463706
4.5e+08	0.009687948	-0.1243753	-0.0002452612	-4.227646e-05	0.02247132	-0.1612017	-0.0002463949	-4.794612e-05
	-0.0002452612	-4.227647e-05	0.01184726	-0.1232618	-0.0002368998	-3.43562e-05	0.02385765	-0.1604794
	0.02247101	-0.1612015	-0.0002368999	-3.435584e-05	0.0108565	-0.1238756	-0.0002391135	-3.535499e-05
	-0.000246395	-4.794576e-05	0.02385735	-0.1604792	-0.0002391135	-3.5355e-05	0.01202768	-0.1232632
4.6e+08	-0.04144394	-0.0972492	-0.0002960526	8.876876e-05	-0.04975986	-0.1112421	-0.0002948878	8.745792e-05
	-0.0002960526	8.876875e-05	-0.04087003	-0.09695409	-0.0002866065	9.0384e-05	-0.04938679	-0.1110621
	-0.04975996	-0.1112418	-0.0002866065	9.038452e-05	-0.04059439	-0.09715298	-0.0002820188	9.451875e-05
	-0.0002948878	8.745844e-05	-0.04938689	-0.1110619	-0.0002820188	9.451875e-05	-0.04030632	-0.09698859
4.7e+08	-0.03334679	-0.05270122	-0.0002009586	0.0002323968	-0.00974089	-0.04873344	-0.0001949986	0.0002273803
	-0.0002009586	0.0002323968	-0.03335796	-0.05067107	-0.0001961239	0.0002321987	-0.009774548	-0.04743932
	-0.00974096	-0.04873337	-0.0001961236	0.0002321992	-0.03289094	-0.05236856	-0.0001846114	0.0002283022
	-0.0001949982	0.0002273808	-0.009774615	-0.04743925	-0.0001846114	0.0002283022	-0.03293612	-0.05123674
4.8e+08	-0.008385112	-0.06215519	-5.061859e-05	0.0002092248	0.03707164	-0.09855358	-4.909787e-05	0.0001970962
	-5.061858e-05	0.0002092248	-0.006095796	-0.05928161	-4.559041e-05	0.0002127437	0.03852604	-0.09668376
	0.0370714	-0.09855348	-4.558995e-05	0.0002127439	-0.007560713	-0.061442	-4.187312e-05	0.0001991854
