!
!4 port subset of full cascaded channels using these ports:9 37 10 38
# Hz S RI R 50
0	0.02790061	0.0002744525	-5.622579e-06	2.40458e-09	0.003696633	9.20008e-05	-4.810234e-06	2.21524e-09
	-5.622592e-06	2.405526e-09	0.02976701	0.000274387	-2.852542e-06	1.552333e-09	0.003385663	9.211927e-05
	0.003705891	9.043818e-05	-2.852645e-06	1.544008e-09	0.02935969	0.000274808	-4.505127e-06	2.0373e-09
	-4.810306e-06	2.2075e-09	0.00338979	9.055577e-05	-4.505108e-06	2.039495e-09	0.02864619	0.0002749351
1e+07	0.07720258	0.01925208	-0.0001110208	-4.688056e-05	0.07717761	0.06259722	-0.0001191955	-4.991073e-05
	-0.0001110213	-4.688043e-05	0.07704628	0.01801492	-9.073824e-05	-3.662183e-05	0.07723756	0.06298641
	0.0771806	0.0625937	-9.073802e-05	-3.662249e-05	0.07722466	0.01929522	-0.0001038723	-4.26596e-05
	-0.000119195	-4.99113e-05	0.07724158	0.06298151	-0.0001038718	-4.265944e-05	0.0770609	0.01803922
2e+07	0.0770808	-0.02711753	-0.0001765326	4.849565e-05	0.1308025	-0.01648244	-0.0001869898	5.225567e-05
	-0.0001765365	4.849503e-05	0.07489217	-0.02796204	-0.0001343796	3.80112e-05	0.1312075	-0.01554052
	0.130809	-0.01648265	-0.0001343759	3.801323e-05	0.07710593	-0.02710137	-0.0001612197	4.465028e-05
	-0.0001869838	5.225703e-05	0.131233	-0.01554629	-0.0001612156	4.464969e-05	0.07490695	-0.02792339
3e+07	0.02647221	-0.01717263	-0.0002005065	0.0002572908	0.04893655	-0.0632976	-0.0002148243	0.0002737724
	-0.0002005069	0.0002572908	0.02527564	-0.01531374	-0.0001696672	0.0001954269	0.05064804	-0.0619296
	0.04893926	-0.06329725	-0.0001696665	0.0001954295	0.02639507	-0.01716634	-0.0001895683	0.0002365556
	-0.0002148236	0.0002737741	0.0506514	-0.06192909	-0.0001895682	0.0002365543	0.02532203	-0.01521833
4e+07	0.04630849	0.03866855	0.0001816183	0.0004741003	0.01264904	0.02161318	0.0001963036	0.000509709
	0.0001816216	0.0004741023	0.04875776	0.03906218	0.0001392672	0.0003981695	0.01591103	0.02145777
	0.01265541	0.02160965	0.0001392654	0.0003981639	0.04624887	0.0388574	0.0001706415	0.0004467594
	0.0001963026	0.0005097036	0.01591727	0.02145089	0.0001706396	0.0004467597	0.04883485	0.03916434
5e+07	0.1047803	0.01362494	0.00054393	6.9538e-05	0.1004163	0.04859853	0.0005883839	6.680691e-05
	0.0005439317	6.953612e-05	0.1056839	0.009910692	0.0004579816	5.124601e-05	0.1024053	0.04657898
	0.1004158	0.0485938	0.0004579765	5.125074e-05	0.1049516	0.0138271	0.0005127461	5.651525e-05
	0.0005883777	6.681231e-05	0.1024046	0.04657305	0.0005127455	5.651587e-05	0.1057707	0.0100109
6e+07	0.08132464	-0.0432614	0.0003595147	-0.0002915682	0.1242738	-0.04099962	0.0003735663	-0.0003220686
	0.0003595159	-0.00029157	0.07819539	-0.04495635	0.0002710839	-0.0002523022	0.1247976	-0.04116978
	0.1242737	-0.04100024	0.000271087	-0.0002523	0.08153409	-0.04331319	0.0003213026	-0.0002772825
	0.0003735739	-0.0003220634	0.1247963	-0.04117207	0.0003213038	-0.0002772797	0.07827922	-0.04483117
7e+07	0.02818374	-0.01814022	0.0002267729	-0.0004869839	0.03429739	-0.06132692	0.0002314231	-0.0005131775
	0.0002267719	-0.0004869856	0.02858515	-0.01515203	0.0001761774	-0.0003656001	0.0387545	-0.05931913
	0.03429836	-0.06132763	0.0001761788	-0.0003656044	0.02810489	-0.01823858	0.0002089441	-0.0004400324
	0.0002314274	-0.0005131847	0.03875441	-0.05932015	0.0002089468	-0.0004400313	0.02871507	-0.01498552
8e+07	0.06297235	0.03346833	-0.0003463335	-0.0007376864	0.02290009	0.02846882	-0.0003728611	-0.0007825643
	-0.0003463322	-0.0007376845	0.06982123	0.03161604	-0.0002599323	-0.0006033176	0.03197952	0.02480933
	0.02290165	0.02846663	-0.0002599408	-0.0006033205	0.06283421	0.03371071	-0.0003179266	-0.0006908501
	-0.000372863	-0.0007825648	0.03198039	0.02480646	-0.0003179203	-0.0006908495	0.07003065	0.03175076
9e+07	0.1180903	-0.007196006	-0.0009125994	-3.7656e-05	0.1136512	0.03288429	-0.0009809687	-2.401149e-05
	-0.0009125982	-3.765827e-05	0.1204678	-0.01682179	-0.0007571626	-2.82999e-05	0.1176601	0.02246256
	0.1136505	0.03288135	-0.0007571688	-2.829312e-05	0.1183353	-0.006854572	-0.0008601522	-2.55084e-05
	-0.0009809707	-2.401354e-05	0.1176588	0.02245916	-0.000860149	-2.551511e-05	0.1206687	-0.01677283
1e+08	0.08366998	-0.06723872	-0.0004401426	0.0006079716	0.1181893	-0.05946899	-0.0004444945	0.000668576
	-0.0004401412	0.0006079732	0.07842235	-0.07303864	-0.0003249574	0.0005215676	0.1152636	-0.06598535
	0.118187	-0.0594699	-0.00032496	0.0005215691	0.0840815	-0.06729757	-0.00038664	0.0005828826
	-0.0004444978	0.0006685765	0.1152608	-0.06598676	-0.0003866406	0.0005828806	0.07855016	-0.07298204
1.1e+08	0.02476043	-0.04081024	-9.635979e-05	0.0005706352	0.02658414	-0.06362185	-7.532841e-05	0.0005860543
	-9.635695e-05	0.0005706337	0.02491481	-0.03909788	-4.520552e-05	0.000405584	0.02912022	-0.06341718
	0.02658338	-0.06362088	-4.520845e-05	0.0004055911	0.02476844	-0.04110472	-7.125458e-05	0.0005000325
	-7.533211e-05	0.0005860609	0.02911946	-0.06341616	-7.125665e-05	0.0005000312	0.02508197	-0.03895732
1.2e+08	0.05351184	0.01151528	0.0003282658	0.000851104	0.02961361	0.02510448	0.0003418391	0.0008835018
	0.0003282646	0.0008511015	0.0628165	0.005092772	0.0002087349	0.0006637999	0.04094871	0.01663391
	0.02961399	0.02510387	0.000208746	0.0006638035	0.05324148	0.01161899	0.0002794935	0.0007807115
	0.0003418485	0.000883506	0.0409495	0.01663276	0.0002794909	0.0007807133	0.0630985	0.00516464
1.3e+08	0.1034229	-0.0233483	0.001186431	0.0001991455	0.1169846	0.01526341	0.001257454	0.0001992352
	0.00118643	0.0001991457	0.104345	-0.04144323	0.0009468187	0.0001889995	0.1192997	-0.0057468
	0.1169834	0.01526238	0.000946822	0.0001889906	0.1035394	-0.02294187	0.001104814	0.0001937769
	0.001257458	0.0001992287	0.1192983	-0.005748788	0.001104815	0.0001937801	0.1045699	-0.04152824
1.4e+08	0.07163683	-0.07839781	0.0007169881	-0.0008848729	0.1077387	-0.07279482	0.0007325993	-0.0009595168
	0.0007169871	-0.0008848736	0.0600125	-0.09021751	0.0005596708	-0.000720178	0.09547848	-0.0876792
	0.1077373	-0.07279418	0.0005596693	-0.0007201795	0.07211328	-0.07836464	0.0006537638	-0.0008399247
	0.0007325997	-0.0009595183	0.09547649	-0.08767896	0.0006537657	-0.0008399242	0.06006731	-0.09028753
1.5e+08	0.01414769	-0.05700248	-4.642232e-05	-0.0008255272	0.02152701	-0.06550171	-8.630089e-05	-0.0008433064
	-4.642433e-05	-0.0008255252	0.008733979	-0.05727399	-6.190378e-05	-0.0005928646	0.01437848	-0.06650118
	0.02152732	-0.06550087	-6.190219e-05	-0.0005928718	0.0142773	-0.05742945	-7.40987e-05	-0.000734639
	-8.629845e-05	-0.0008433141	0.01437861	-0.06650039	-7.409702e-05	-0.0007346386	0.008792015	-0.05719784
1.6e+08	0.03028289	-0.00702483	-0.000377251	-0.0009287445	0.03328753	0.01528316	-0.0003778817	-0.0009455107
	-0.0003772488	-0.0009287417	0.03649821	-0.01672866	-0.0001973282	-0.000714389	0.0400657	0.006070899
	0.03328801	0.01528245	-0.000197341	-0.0007143942	0.02987218	-0.007165196	-0.0003087935	-0.0008296028
	-0.0003778936	-0.0009455166	0.0400662	0.006069686	-0.0003087911	-0.0008296043	0.03669415	-0.01670082
1.7e+08	0.07100484	-0.0260436	-0.001443459	-0.0004505924	0.1097453	-0.00302127	-0.001506186	-0.0004795883
	-0.001443456	-0.0004505938	0.06594812	-0.05010188	-0.001123234	-0.0004597701	0.106062	-0.02963869
	0.1097444	-0.003022148	-0.001123242	-0.0004597582	0.07079899	-0.02563331	-0.001316183	-0.000452508
	-0.001506194	-0.0004795783	0.1060606	-0.02964023	-0.001316184	-0.0004525114	0.06606294	-0.05026538
1.8e+08	0.05024118	-0.06617275	-0.001250747	0.001144288	0.0904306	-0.07817687	-0.001306245	0.001215478
	-0.001250747	0.001144286	0.02824524	-0.08135393	-0.001051573	0.0008815686	0.06525003	-0.09707169
	0.09042954	-0.07817662	-0.001051567	0.0008815769	0.05057926	-0.06590861	-0.001176322	0.001054898
	-0.001306241	0.001215486	0.06524823	-0.09707162	-0.001176325	0.001054897	0.02810293	-0.08148775
1.9e+08	0.007082504	-0.05124768	0.0001278707	0.001489486	0.01838331	-0.06082973	0.00016444	0.001547697
	0.0001278704	0.001489485	-0.008595624	-0.0502474	7.36944e-05	0.001160355	-0.003008751	-0.0580453
	0.01838313	-0.06082932	7.369949e-05	0.001160358	0.00731387	-0.05158025	0.0001324022	0.001373601
	0.0001644439	0.001547702	-0.003009322	-0.05804475	0.0001324001	0.001373602	-0.008788783	-0.05013626
2e+08	0.01349559	-0.01310084	0.0008904445	0.001125732	0.03761042	0.003925666	0.000916988	0.001149412
	0.0008904427	0.001125731	0.01188838	-0.02006715	0.0005943555	0.0009173498	0.03554218	0.002353717
	0.03761022	0.003925391	0.0005943661	0.0009173506	0.01304827	-0.01341152	0.0007962957	0.00101461
	0.0009169986	0.001149414	0.03554185	0.002353284	0.0007962943	0.001014612	0.01187025	-0.01991425
2.1e+08	0.03931931	-0.01672715	0.001897771	0.0003482666	0.0952657	-0.02021211	0.001971604	0.0003784712
	0.001897768	0.0003482686	0.02660127	-0.03879942	0.001512425	0.0004451821	0.08555565	-0.04185099
	0.0952648	-0.02021222	0.001512432	0.0004451696	0.03875078	-0.01635093	0.00172415	0.0003616703
	0.001971612	0.0003784601	0.08555432	-0.0418514	0.001724151	0.0003616733	0.02654238	-0.03881564
2.2e+08	0.03225406	-0.03409106	0.001660718	-0.001660314	0.06851398	-0.07376397	0.001748099	-0.001740738
	0.001660719	-0.001660312	0.000806925	-0.04581187	0.001480375	-0.001289427	0.03426521	-0.08818386
	0.06851318	-0.07376336	0.001480366	-0.001289437	0.03229795	-0.03347482	0.001573415	-0.001506514
	0.001748092	-0.001740748	0.03426383	-0.08818316	0.001573418	-0.001506513	0.0004920285	-0.04578108
2.3e+08	0.01577091	-0.02503977	-0.0004174705	-0.002317425	0.01963484	-0.0468893	-0.0004510393	-0.002431087
	-0.0004174688	-0.002317425	-0.009258138	-0.0172081	-0.0002637672	-0.001923396	-0.01222927	-0.03467049
	0.01963472	-0.04688862	-0.000263777	-0.001923395	0.01610168	-0.02498439	-0.0003644302	-0.00216554
	-0.0004510481	-0.002431087	-0.01222969	-0.0346695	-0.0003644285	-0.002165542	-0.00963825	-0.01687812
2.4e+08	0.02008582	-0.01007772	-0.001846461	-0.001286359	0.04774187	-0.005737036	-0.001934653	-0.001333336
	-0.00184646	-0.001286359	0.0112865	-0.007190115	-0.001422218	-0.00111784	0.03926779	0.007199264
	0.04774185	-0.005736793	-0.001422225	-0.001117836	0.01983535	-0.01036244	-0.001707101	-0.001202099
	-0.00193466	-0.001333332	0.03926769	0.007199616	-0.001707101	-0.001202101	0.0111149	-0.006718526
2.5e+08	0.02579167	-0.007937603	-0.002562968	0.0003522788	0.08078795	-0.03674907	-0.002681162	0.0003676612
	-0.002562967	0.000352277	0.009520985	-0.01915458	-0.002131609	0.0001126915	0.0710986	-0.04398017
	0.08078765	-0.03674878	-0.002131611	0.0001127031	0.02506551	-0.007641877	-0.002373408	0.0003047107
	-0.002681166	0.0003676716	0.07109804	-0.04397992	-0.002373409	0.0003047083	0.009423165	-0.01878833
2.6e+08	0.02735722	-0.0004933531	-0.001504629	0.00264807	0.04710418	-0.06311256	-0.001579935	0.002783793
	-0.001504631	0.002648068	-0.005373725	-0.002598167	-0.001425952	0.002159271	0.01539114	-0.06681897
	0.04710405	-0.06311194	-0.001425941	0.00215928	0.02710351	0.0004298584	-0.001422591	0.002441769
	-0.001579926	0.002783802	0.01539066	-0.06681819	-0.001422595	0.002441769	-0.005612647	-0.002221214
2.7e+08	0.04266134	0.005013482	0.001335191	0.00278102	0.02757595	-0.02706516	0.001415005	0.002921491
	0.001335189	0.002781022	0.01617586	0.02179501	0.001042961	0.002408745	-0.003259504	-0.005486721
	0.02757623	-0.02706468	0.001042972	0.002408741	0.04309468	0.00561697	0.001214874	0.002598446
	0.001415015	0.002921488	-0.003259349	-0.005485939	0.001214873	0.002598448	0.01588445	0.02241046
2.8e+08	0.05193574	-0.01079302	0.00276027	0.0008657496	0.0664819	-0.01468828	0.002904251	0.000897839
	0.00276027	0.0008657511	0.04194466	0.003859997	0.002272153	0.0007910998	0.05914346	0.0112997
	0.06648216	-0.01468817	0.002272157	0.0007910913	0.05213517	-0.01087319	0.002562671	0.0008359311
	0.002904255	0.0008978322	0.05914376	0.01129994	0.002562671	0.0008359333	0.04185218	0.004664683
2.9e+08	0.03439224	-0.01602166	0.002904921	-0.001346759	0.07252628	-0.05599235	0.003054744	-0.001424811
	0.002904923	-0.001346758	0.02252111	-0.01323175	0.002474264	-0.0009881986	0.07102956	-0.04781048
	0.07252631	-0.05599225	0.002474261	-0.0009882081	0.0338576	-0.01590398	0.002735786	-0.001234635
	0.003054745	-0.00142482	0.07102951	-0.04781034	0.002735788	-0.001234633	0.02262857	-0.01245633
3e+08	0.03282718	0.01203111	0.0008278662	-0.003725418	0.02979651	-0.05490302	0.0008583498	-0.003938312
	0.0008278682	-0.003725417	0.01027924	0.0194231	0.0008714091	-0.003136088	0.01335005	-0.0494679
	0.02979662	-0.05490276	0.0008713975	-0.003136093	0.03239131	0.0129927	0.0007913913	-0.003500326
	0.0008583405	-0.003938318	0.01335006	-0.04946751	0.0007913942	-0.003500326	0.01043879	0.02011148
3.1e+08	0.07397751	0.01928693	-0.002781677	-0.002681439	0.03975848	-0.00945466	-0.002963986	-0.00281269
	-0.002781677	-0.002681442	0.05616935	0.03940042	-0.002326672	-0.002385668	0.02193306	0.01263282
	0.03975876	-0.009454537	-0.002326682	-0.00238566	0.07443646	0.02033804	-0.002616145	-0.002506812
	-0.002963996	-0.002812685	0.0219334	0.01263305	-0.002616143	-0.002506814	0.05627372	0.04012346
3.2e+08	0.09214157	-0.02510935	-0.003269525	0.0004097072	0.09049601	-0.02605517	-0.003442052	0.0004729476
	-0.003269526	0.0004097061	0.0869178	-0.005663237	-0.002787843	0.0003281256	0.08990978	0.001282887
	0.09049618	-0.02605531	-0.002787842	0.0003281353	0.09287064	-0.02489555	-0.00303803	0.0003917886
	-0.003442053	0.000472956	0.08991002	0.001282797	-0.003038031	0.0003917864	0.08711266	-0.004763352
3.3e+08	0.05291722	-0.04759052	-0.002281366	0.002201945	0.07129922	-0.08128739	-0.002378099	0.002329672
	-0.002281368	0.002201945	0.05041832	-0.03619817	-0.001933071	0.001791219	0.08030396	-0.0663916
	0.07129918	-0.08128747	-0.001933065	0.001791225	0.05287848	-0.04775169	-0.002140127	0.002026054
	-0.002378097	0.002329679	0.08030393	-0.06639166	-0.002140129	0.002026053	0.05088604	-0.03525252
3.4e+08	0.03450805	-0.006932039	-4.871532e-05	0.00403134	0.01538072	-0.05761116	-3.374075e-05	0.004258772
	-4.871615e-05	0.00403134	0.02881398	0.002944002	-0.0001647394	0.003414265	0.01862403	-0.05133821
	0.01538074	-0.05761108	-0.0001647298	0.003414267	0.03401427	-0.006321663	-8.227803e-05	0.003804503
	-3.373201e-05	0.004258775	0.01862406	-0.05133811	-8.228023e-05	0.003804504	0.02951341	0.003690471
3.5e+08	0.08728312	0.01074958	0.003915844	0.00231413	0.0486118	-0.00119588	0.004180889	0.002426301
	0.003915845	0.002314132	0.082891	0.02290157	0.00333638	0.002068417	0.04747593	0.008380235
	0.04861195	-0.001195896	0.003336386	0.002068407	0.08757319	0.0119447	0.003724817	0.002190933
	0.004180898	0.002426294	0.04747611	0.008380168	0.003724816	0.002190936	0.08350912	0.02340296
3.6e+08	0.1156349	-0.04923032	0.003498477	-0.00192647	0.1107008	-0.04121433	0.003691112	-0.002116793
	0.003498479	-0.00192647	0.1148525	-0.03753696	0.003018077	-0.001678996	0.1143087	-0.02806955
	0.1107008	-0.0412145	0.003018072	-0.001679005	0.1166836	-0.04872498	0.003285475	-0.001877332
	0.00369111	-0.002116802	0.1143086	-0.02806979	0.003285477	-0.00187733	0.1153316	-0.03692342
3.7e+08	0.06325665	-0.09057531	0.0008733753	-0.002923029	0.07217028	-0.1111415	0.0008348105	-0.003102072
	0.0008733756	-0.00292303	0.06607997	-0.08068669	0.000664269	-0.002471879	0.08315574	-0.1014912
	0.07217012	-0.1111416	0.0006642627	-0.002471881	0.06380178	-0.09097868	0.0007473785	-0.002732886
	0.0008348053	-0.003102075	0.08315555	-0.1014912	0.0007473806	-0.002732885	0.06680818	-0.07991261
3.8e+08	0.01999713	-0.04734485	-0.0007121618	-0.003170961	-8.547841e-05	-0.07380817	-0.0007798321	-0.003297836
	-0.0007121616	-0.003170961	0.02723561	-0.04286181	-0.0005517966	-0.002612334	0.01445714	-0.07378965
	-8.554972e-05	-0.07380806	-0.0005518036	-0.002612333	0.01954254	-0.04739648	-0.0006414005	-0.002931181
	-0.0007798386	-0.003297837	0.01445709	-0.0737896	-0.0006413987	-0.002931182	0.02831111	-0.04236463
3.9e+08	0.06779248	-0.009880045	-0.003921544	-0.001932082	0.04512967	-0.003751253	-0.004157761	-0.002018667
	-0.003921544	-0.001932083	0.07249468	-0.01502804	-0.003303852	-0.00169482	0.05367383	-0.01435482
	0.04512973	-0.00375124	-0.003303856	-0.001694812	0.06763357	-0.008880149	-0.00369647	-0.001853745
	-0.004157767	-0.00201866	0.05367385	-0.01435494	-0.00369647	-0.001853747	0.07343286	-0.01500178
4e+08	0.1076783	-0.0666479	-0.003657176	0.002668371	0.1175758	-0.05710244	-0.003866694	0.002907454
	-0.003657178	0.002668372	0.1031039	-0.07260696	-0.003128579	0.002319702	0.1149761	-0.06722623
	0.1175758	-0.05710253	-0.003128575	0.00231971	0.1086262	-0.06586763	-0.003482075	0.002582172
	-0.003866691	0.002907461	0.1149759	-0.06722641	-0.003482076	0.002582169	0.1036409	-0.07255235
4.1e+08	0.05577212	-0.1206778	0.0002273597	0.003651965	0.0676415	-0.1383107	0.0003735226	0.003895025
	0.0002273601	0.003651966	0.0513927	-0.1192788	0.0003285338	0.003104462	0.06480736	-0.1398871
	0.06764132	-0.1383107	0.0003285405	0.003104462	0.0567156	-0.1210882	0.0003327511	0.003491091
	0.0003735286	0.003895026	0.06480708	-0.1398871	0.0003327488	0.003491092	0.05203134	-0.1189108
4.2e+08	-0.007994182	-0.08452764	0.001702402	0.001986288	-0.0185164	-0.09673256	0.001860425	0.001973447
	0.001702403	0.001986288	-0.001247377	-0.08679143	0.001443497	0.001496195	-0.009595448	-0.1013564
	-0.01851649	-0.09673241	0.001443501	0.001496193	-0.008308606	-0.08523053	0.001659649	0.001733419
	0.001860429	0.001973446	-0.009595562	-0.1013563	0.001659648	0.001733421	-0.0001992825	-0.08665554
4.3e+08	0.02119878	-0.02515897	0.002985564	0.00130289	0.0249694	-0.01354804	0.003090387	0.00131778
	0.002985564	0.001302889	0.02469851	-0.04690134	0.002373529	0.001106703	0.03122003	-0.03921166
	0.02496943	-0.01354795	0.002373533	0.001106697	0.02039008	-0.02460149	0.002711948	0.001198792
	0.003090392	0.001317776	0.03121996	-0.03921172	0.002711949	0.001198794	0.02555011	-0.04734789
4.4e+08	0.07369652	-0.06022509	0.00365373	-0.002279285	0.1059448	-0.06611437	0.003840298	-0.002437734
	0.003653731	-0.002279285	0.0541165	-0.08419762	0.003078874	-0.001889429	0.08615697	-0.09600112
	0.1059448	-0.06611438	0.00307887	-0.001889437	0.0740864	-0.0591139	0.003460851	-0.002133636
	0.003840296	-0.002437742	0.08615669	-0.09600118	0.003460854	-0.002133635	0.05437927	-0.08463706
4.5e+08	0.03773581	-0.1185011	-0.000232325	-0.004222756	0.05429529	-0.1527382	-0.0003604465	-0.004500773
	-0.0002323251	-0.004222757	0.01184726	-0.1232618	-0.0002958814	-0.003548914	0.02385765	-0.1604794
	0.05429516	-0.1527381	-0.0002958894	-0.003548913	0.03878397	-0.1185351	-0.0002937381	-0.004058653
	-0.000360453	-0.004500775	0.02385735	-0.1604792	-0.0002937352	-0.004058654	0.01202768	-0.1232632
4.6e+08	-0.03224068	-0.09640246	-0.002718464	-0.001766744	-0.03782471	-0.1131743	-0.00296757	-0.001714523
	-0.002718465	-0.001766744	-0.04087003	-0.09695409	-0.00229647	-0.001270448	-0.04938679	-0.1110621
	-0.03782477	-0.1131742	-0.002296473	-0.001270444	-0.03231366	-0.09737084	-0.002705204	-0.001527202
	-0.002967575	-0.001714521	-0.04938689	-0.1110619	-0.002705204	-0.001527204	-0.04030632	-0.09698859
4.7e+08	-0.02630194	-0.02582571	-0.002497599	-0.0002921941	-0.005227967	-0.02425658	-0.002511664	-0.0001884862
	-0.002497598	-0.0002921939	-0.03335796	-0.05067107	-0.001830261	-0.0002219111	-0.009774548	-0.04743932
	-0.005227923	-0.02425644	-0.001830263	-0.0002219066	-0.02763185	-0.02574954	-0.002197241	-0.0001112208
	-0.002511667	-0.0001884826	-0.009774615	-0.04743925	-0.002197242	-0.0001112231	-0.03293612	-0.05123674
4.8e+08	0.03365639	-0.02836212	-0.003225133	0.001625064	0.07766701	-0.06193598	-0.003315687	0.001664946
	-0.003225133	0.001625064	-0.006095796	-0.05928161	-0.002676941	0.001155648	0.03852604	-0.09668376
	0.07766703	-0.06193591	-0.002676939	0.001155655	0.03320944	-0.02688482	-0.002924305	0.001421581
	-0.003315686	0.001664953	0.03852581	-0.09668367	-0.002924307	0.00142158	-0.00631816	-0.05981423
4.9e+08	0.02734912	-0.08250026	-0.0004858086	0.004432186	0.03681883	-0.1453661	-0.0004713768	0.004666491
	-0.0004858092	0.004432187	-0.02693739	-0.08218045	-0.0004708879	0.003675807	-0.02395614	-0.146227
	0.0368188	-0.145366	-0.0004708791	0.003675808	0.02829332	-0.08173653	-0.0004800015	0.004161752
