!
!4 port subset of full cascaded channels using these ports:11 37 12 38
# Hz S RI R 50
0	0.02786786	0.0002714441	1.959989e-06	-6.686274e-10	0.003665579	8.978031e-05	1.170629e-06	-4.052507e-10
	1.959899e-06	-6.698907e-10	0.02976701	0.000274387	1.101221e-06	-4.225454e-10	0.003385663	9.211927e-05
	0.003674474	9.06533e-05	1.101255e-06	-4.223717e-10	0.02935358	0.0002735474	1.412617e-06	-4.670206e-10
	1.170655e-06	-4.041544e-10	0.00338979	9.055577e-05	1.412687e-06	-4.655547e-10	0.02864619	0.0002749351
1e+07	0.07721857	0.01922335	4.338452e-05	2.23185e-05	0.07717574	0.06256137	3.379244e-05	1.695916e-05
	4.338436e-05	2.231845e-05	0.07704628	0.01801492	4.339634e-05	2.237977e-05	0.07723756	0.06298641
	0.07717873	0.06255784	4.339656e-05	2.238001e-05	0.07720947	0.01923099	3.944389e-05	2.007243e-05
	3.379258e-05	1.695941e-05	0.07724158	0.06298151	3.944393e-05	2.00725e-05	0.0770609	0.01803922
2e+07	0.07706377	-0.02723741	8.261405e-05	-2.528538e-05	0.1307699	-0.01657086	6.324212e-05	-1.957221e-05
	8.26141e-05	-2.528588e-05	0.07489217	-0.02796204	8.151384e-05	-2.526863e-05	0.1312075	-0.01554052
	0.1307808	-0.01656856	8.151367e-05	-2.526904e-05	0.07704811	-0.02722695	7.461171e-05	-2.331911e-05
	6.324077e-05	-1.957234e-05	0.131233	-0.01554629	7.461074e-05	-2.331896e-05	0.07490695	-0.02792339
3e+07	0.02631963	-0.01729203	6.072239e-05	-0.0001236194	0.04883353	-0.0634065	4.74286e-05	-9.692491e-05
	6.072235e-05	-0.000123619	0.02527564	-0.01531374	6.054479e-05	-0.0001233056	0.05064804	-0.0619296
	0.04883615	-0.06340648	6.054464e-05	-0.0001233067	0.02625023	-0.01731488	5.377606e-05	-0.000113957
	4.742843e-05	-9.692578e-05	0.0506514	-0.06192909	5.377603e-05	-0.0001139573	0.02532203	-0.01521833
4e+07	0.04613408	0.03868719	-9.241431e-05	-0.0001623343	0.01250569	0.02155137	-7.672084e-05	-0.0001264047
	-9.241415e-05	-0.0001623338	0.04875776	0.03906218	-9.558934e-05	-0.0001619155	0.01591103	0.02145777
	0.01251224	0.02154767	-9.558874e-05	-0.0001619149	0.04603439	0.03872202	-8.983298e-05	-0.0001447081
	-7.672066e-05	-0.0001264041	0.01591727	0.02145089	-8.983338e-05	-0.0001447082	0.04883485	0.03916434
5e+07	0.1047501	0.01364393	-0.000203796	-2.35301e-05	0.1003008	0.04854471	-0.0001598629	-1.085621e-05
	-0.0002037952	-2.353059e-05	0.1056839	0.009910692	-0.0002039037	-1.609786e-05	0.1024053	0.04657898
	0.1003003	0.04853994	-0.0002039034	-1.609899e-05	0.1046776	0.01370362	-0.0001826666	-1.249346e-05
	-0.0001598623	-1.085752e-05	0.1024046	0.04657305	-0.0001826666	-1.249358e-05	0.1057707	0.0100109
6e+07	0.08126124	-0.04344867	-0.0001717779	0.0001361255	0.1241174	-0.04112128	-0.0001288706	0.0001111978
	-0.0001717788	0.0001361245	0.07819539	-0.04495635	-0.0001627189	0.0001381625	0.1247976	-0.04116978
	0.1241174	-0.04112191	-0.0001627194	0.0001381626	0.08115856	-0.04341164	-0.0001491534	0.000125098
	-0.0001288732	0.0001111969	0.1247963	-0.04117207	-0.0001491549	0.0001250977	0.07827922	-0.04483117
7e+07	0.02781077	-0.01832199	-2.887368e-05	0.0002640023	0.0339959	-0.06142065	-1.110656e-05	0.0002100354
	-2.887433e-05	0.0002640027	0.02858515	-0.01515203	-2.416888e-05	0.0002589141	0.0387545	-0.05931913
	0.03399684	-0.06142136	-2.416796e-05	0.0002589154	0.02762958	-0.01822532	-1.759298e-05	0.0002417204
	-1.110639e-05	0.0002100385	0.03875441	-0.05932015	-1.759331e-05	0.0002417222	0.02871507	-0.01498552
8e+07	0.06250652	0.03365433	0.000226692	0.0002113833	0.02254464	0.02854961	0.0001928734	0.0001482999
	0.0002266903	0.0002113834	0.06982123	0.03161604	0.0002310276	0.0002047409	0.03197952	0.02480933
	0.0225462	0.02854746	0.0002310307	0.0002047402	0.06233676	0.03387326	0.0002200213	0.0001759798
	0.0001928741	0.0001482994	0.03198039	0.02480646	0.0002200213	0.0001759801	0.07003065	0.03175076
9e+07	0.117963	-0.006834669	0.0003105958	-5.269236e-05	0.1134188	0.03307386	0.0002280572	-6.453725e-05
	0.0003105955	-5.269057e-05	0.1204678	-0.01682179	0.000305129	-6.747746e-05	0.1176601	0.02246256
	0.1134181	0.03307094	0.0003051306	-6.748057e-05	0.1178734	-0.006578436	0.0002648267	-7.057593e-05
	0.0002280585	-6.45373e-05	0.1176588	0.02245916	0.000264827	-7.057516e-05	0.1206687	-0.01677283
1e+08	0.08371812	-0.06718202	0.0001771515	-0.0002552812	0.1180245	-0.05935384	0.0001178932	-0.0001967624
	0.0001771517	-0.0002552806	0.07842235	-0.07303864	0.000156496	-0.000255569	0.1152636	-0.06598535
	0.118022	-0.05935461	0.0001564961	-0.0002555717	0.08362216	-0.0669373	0.0001390663	-0.0002231437
	0.0001178936	-0.000196765	0.1152608	-0.06598676	0.0001390665	-0.0002231441	0.07855016	-0.07298204
1.1e+08	0.02444506	-0.04090882	-5.089495e-05	-0.0003415734	0.02629754	-0.06351083	-5.521376e-05	-0.0002632466
	-5.089384e-05	-0.0003415736	0.02491481	-0.03909788	-5.972897e-05	-0.000323941	0.02912022	-0.06341718
	0.02629667	-0.06351084	-5.973168e-05	-0.0003239424	0.02431471	-0.04057007	-5.442761e-05	-0.0003019133
	-5.521719e-05	-0.0002632452	0.02911946	-0.06341616	-5.442884e-05	-0.0003019116	0.02508197	-0.03895732
1.2e+08	0.05296929	0.01188602	-0.0003384583	-0.0002049423	0.02927722	0.0254314	-0.0002852822	-0.0001277228
	-0.0003384582	-0.0002049438	0.0628165	0.005092772	-0.0003330929	-0.0001887659	0.04094871	0.01663391
	0.02927668	0.02543012	-0.0003330948	-0.0001887636	0.05291842	0.0123386	-0.0003201024	-0.0001588124
	-0.0002852814	-0.0001277172	0.0409495	0.01663276	-0.0003201011	-0.0001588091	0.0630985	0.00516464
1.3e+08	0.1033501	-0.02258356	-0.0003808255	0.0001467011	0.1168621	0.01577822	-0.0002619794	0.0001553458
	-0.0003808258	0.0001467011	0.104345	-0.04144323	-0.0003632244	0.0001574372	0.1192997	-0.0057468
	0.1168602	0.01577684	-0.0003632249	0.0001574381	0.1034205	-0.02211815	-0.0003091902	0.0001638986
	-0.000261973	0.0001553479	0.1192983	-0.005748788	-0.000309185	0.0001639001	0.1045699	-0.04152824
1.4e+08	0.07206846	-0.07797867	-0.0001407533	0.0003723409	0.1078699	-0.07237579	-6.326306e-05	0.0002709093
	-0.0001407537	0.00037234	0.0600125	-0.09021751	-0.0001177999	0.0003623615	0.09547848	-0.0876792
	0.1078676	-0.07237558	-0.0001177995	0.0003623641	0.07218979	-0.07753573	-9.063859e-05	0.000309493
	-6.325797e-05	0.0002709051	0.09547649	-0.08767896	-9.063454e-05	0.0003094883	0.06006731	-0.09028753
1.5e+08	0.01431844	-0.0570664	0.0001588936	0.0003737719	0.02163663	-0.06525566	0.0001316749	0.0002607591
	0.0001588923	0.0003737719	0.008733979	-0.05727399	0.0001638278	0.0003484426	0.01437848	-0.06650118
	0.02163556	-0.06525478	0.0001638307	0.0003484436	0.01448845	-0.05659349	0.000139175	0.0003129281
	0.0001316752	0.0002607526	0.01437861	-0.06650039	0.000139174	0.0003129229	0.008792015	-0.05719784
1.6e+08	0.02999457	-0.006769728	0.0004227552	0.0001622187	0.03330039	0.0156281	0.0003331853	9.161612e-05
	0.0004227541	0.0001622199	0.03649821	-0.01672866	0.0004061079	0.0001415683	0.0400657	0.006070899
	0.03329979	0.01562815	0.0004061104	0.0001415666	0.03027828	-0.006288771	0.0003819688	0.0001222479
	0.00033318	9.161153e-05	0.0400662	0.006069686	0.0003819646	0.0001222448	0.03669415	-0.01670082
1.7e+08	0.07110136	-0.02519974	0.0004274283	-0.0002424107	0.1099544	-0.002480732	0.0002879029	-0.0002299656
	0.0004274287	-0.0002424092	0.06594812	-0.05010188	0.000398438	-0.0002412846	0.106062	-0.02963869
	0.109953	-0.002480719	0.0003984381	-0.0002412877	0.07148213	-0.02479122	0.0003425929	-0.0002446263
	0.0002878962	-0.0002299641	0.1060606	-0.02964023	0.0003425876	-0.000244625	0.06606294	-0.05026538
1.8e+08	0.05113501	-0.06560346	8.284747e-05	-0.0004947441	0.0910199	-0.07775755	-1.525981e-06	-0.0003566823
	8.284867e-05	-0.0004947432	0.02824524	-0.08135393	6.935939e-05	-0.0004698648	0.06525003	-0.09707169
	0.09101861	-0.07775651	6.935705e-05	-0.0004698668	0.05155329	-0.06526203	3.36093e-05	-0.0004057729
	-1.528605e-06	-0.0003566761	0.06524823	-0.09707162	3.360747e-05	-0.0004057677	0.02810293	-0.08148775
1.9e+08	0.007929121	-0.05153867	-0.0003093269	-0.0003798843	0.01904591	-0.06081705	-0.0002478979	-0.000229258
	-0.0003093252	-0.0003798846	-0.008595624	-0.0502474	-0.0003003601	-0.0003600619	-0.003008751	-0.0580453
	0.01904569	-0.06081585	-0.0003003629	-0.0003600612	0.008406202	-0.05124998	-0.0002619238	-0.0003038799
	-0.0002478945	-0.0002292529	-0.003009322	-0.05804475	-0.0002619208	-0.0003038764	-0.008788783	-0.05013626
2e+08	0.01359541	-0.01345084	-0.0004873092	-5.375702e-05	0.03802298	0.003801895	-0.0003406581	9.31704e-07
	-0.0004873085	-5.375837e-05	0.01188838	-0.02006715	-0.000471483	-4.184999e-05	0.03554218	0.002353717
	0.03802305	0.003802319	-0.0004714843	-4.184772e-05	0.01412873	-0.01327183	-0.0004199768	-3.228296e-05
	-0.000340653	9.322454e-07	0.03554185	0.002353284	-0.0004199731	-3.228288e-05	0.01187025	-0.01991425
2.1e+08	0.0394291	-0.01637932	-0.0004132714	0.000336538	0.09567422	-0.02015981	-0.0002643997	0.0002693655
	-0.0004132718	0.0003365367	0.02660127	-0.03879942	-0.0003862017	0.0003317085	0.08555565	-0.04185099
	0.09567377	-0.0201595	-0.000386201	0.0003317109	0.03994336	-0.01633415	-0.0003318132	0.0003107549
	-0.0002643964	0.0002693626	0.08555432	-0.0418514	-0.0003318107	0.0003107528	0.02654238	-0.03881564
2.2e+08	0.03322752	-0.0337642	-7.724991e-06	0.0005831601	0.06926571	-0.0737861	4.651642e-05	0.0004166538
	-7.726115e-06	0.0005831594	0.000806925	-0.04581187	-9.479864e-07	0.0005537207	0.03426521	-0.08818386
	0.06926535	-0.07378528	-9.454066e-07	0.0005537217	0.03368156	-0.03378685	2.290719e-05	0.000483648
	4.651637e-05	0.0004166494	0.03426383	-0.08818316	2.290696e-05	0.0004836446	0.0004920285	-0.04578108
2.3e+08	0.01694706	-0.02575061	0.0004676525	0.0003652042	0.02048503	-0.04743634	0.0003758704	0.0002061645
	0.0004676511	0.0003652047	-0.009258138	-0.0172081	0.0004486681	0.0003534784	-0.01222927	-0.03467049
	0.0204853	-0.0474356	0.0004486703	0.0003534768	0.01740177	-0.02583484	0.0004029936	0.0002908299
	0.0003758671	0.0002061625	-0.01222969	-0.0346695	0.0004029908	0.0002908287	-0.00963825	-0.01687812
2.4e+08	0.02031065	-0.01127915	0.0005414498	-0.0001095754	0.04815762	-0.006624061	0.0003487208	-0.000150352
	0.0005414496	-0.0001095741	0.0112865	-0.007190115	0.0005341416	-0.0001074678	0.03926779	0.007199264
	0.04815794	-0.00662388	0.0005341417	-0.00010747	0.0207248	-0.011513	0.0004580451	-0.0001155384
	0.0003487181	-0.0001503508	0.03926769	0.007199616	0.0004580434	-0.0001155373	0.0111149	-0.006718526
2.5e+08	0.02545731	-0.008431299	0.0003140088	-0.0004349473	0.08086457	-0.03744853	0.0001523209	-0.0003012345
	0.0003140095	-0.0004349465	0.009520985	-0.01915458	0.0003031144	-0.0004384026	0.0710986	-0.04398017
	0.08086449	-0.03744837	0.0003031131	-0.0004384041	0.02570168	-0.0087797	0.000240372	-0.0003826686
	0.0001523203	-0.0003012325	0.07109804	-0.04397992	0.0002403717	-0.0003826671	0.009423165	-0.01878833
2.6e+08	0.02767117	-0.0005374828	-8.640694e-05	-0.0005855032	0.04733461	-0.06366783	-7.925918e-05	-0.0003825484
	-8.640586e-05	-0.0005855032	-0.005373725	-0.002598167	-0.0001004681	-0.0005719956	0.01539114	-0.06681897
	0.04733461	-0.06366737	-0.0001004704	-0.0005719958	0.02773479	-0.0008558224	-9.146414e-05	-0.0004848387
	-7.925829e-05	-0.0003825471	0.01539066	-0.06681819	-9.146329e-05	-0.0004848376	-0.005612647	-0.002221214
2.7e+08	0.0434682	0.004156393	-0.0005637868	-0.0003260736	0.02792864	-0.02799498	-0.0004285569	-0.0002005374
	-0.0005637861	-0.0003260744	0.01617586	0.02179501	-0.0005570419	-0.0003093312	-0.003259504	-0.005486721
	0.02792898	-0.02799464	-0.0005570433	-0.0003093293	0.04347833	0.003887021	-0.0004926225	-0.0002662476
	-0.0004285559	-0.0002005373	-0.003259349	-0.005485939	-0.0004926214	-0.0002662478	0.01588445	0.02241046
2.8e+08	0.0518908	-0.01245557	-0.0005836362	0.0002514131	0.06636635	-0.01601458	-0.0003864778	0.0002641437
	-0.0005836366	0.0002514123	0.04194466	0.003859997	-0.0005753929	0.0002535296	0.05914346	0.0112997
	0.06636662	-0.01601459	-0.0005753921	0.0002535315	0.05182	-0.01279096	-0.0004997959	0.0002510324
	-0.0003864773	0.0002641435	0.05914376	0.01129994	-0.0004997959	0.0002510318	0.04185218	0.004664683
2.9e+08	0.03327203	-0.01711861	-0.0001888887	0.0005453231	0.07178899	-0.0571019	-2.219625e-05	0.0003761902
	-0.0001888894	0.0005453232	0.02252111	-0.01323175	-0.0001856209	0.0005538298	0.07102956	-0.04781048
	0.07178899	-0.05710188	-0.0001856194	0.0005538303	0.03297811	-0.01747251	-0.0001167642	0.0004818834
	-2.219602e-05	0.0003761901	0.07102951	-0.04781034	-0.0001167643	0.0004818835	0.02262857	-0.01245633
3e+08	0.03194305	0.011954	0.0002134386	0.0005262144	0.02898771	-0.05551122	0.0001590309	0.000281606
	0.0002134382	0.0005262147	0.01027924	0.0194231	0.0002391491	0.0005329235	0.01335005	-0.0494679
	0.02898779	-0.05551099	0.0002391506	0.000532923	0.03142012	0.01177467	0.000205559	0.0004206342
	0.0001590313	0.0002816061	0.01335006	-0.04946751	0.0002055592	0.0004206344	0.01043879	0.02011148
3.1e+08	0.0739364	0.01900914	0.0005861899	0.0002422556	0.0392214	-0.01003961	0.0003861725	0.0001539891
	0.00058619	0.0002422561	0.05616935	0.03940042	0.0006087069	0.000210091	0.02193306	0.01263282
	0.03922167	-0.0100395	0.0006087076	0.0002100894	0.0733978	0.01906225	0.0005062053	0.0001890945
	0.0003861732	0.0001539883	0.0219334	0.01263305	0.0005062056	0.0001890942	0.05627372	0.04012346
3.2e+08	0.09178176	-0.02633109	0.0005844634	-0.0003236506	0.08975111	-0.02699639	0.0004021107	-0.0002729467
	0.0005844637	-0.0003236503	0.0869178	-0.005663237	0.0005621363	-0.0003575887	0.08990978	0.001282887
	0.08975127	-0.02699653	0.0005621354	-0.0003575902	0.09125621	-0.02622266	0.0004991079	-0.0003156084
	0.0004021104	-0.0002729481	0.08991002	0.001282797	0.0004991079	-0.0003156091	0.08711266	-0.004763352
3.3e+08	0.05127273	-0.04863523	0.0001184211	-0.0006432634	0.06986311	-0.08206863	-1.314634e-05	-0.0004702501
	0.0001184215	-0.0006432637	0.05041832	-0.03619817	9.030164e-05	-0.0006433272	0.08030396	-0.0663916
	0.06986308	-0.0820687	9.030015e-05	-0.0006433273	0.05062687	-0.04844751	4.73648e-05	-0.0005758627
	-1.314768e-05	-0.0004702508	0.08030393	-0.06639166	4.736428e-05	-0.0005758633	0.05088604	-0.03525252
3.4e+08	0.03260596	-0.006559967	-0.0003699001	-0.0004904895	0.01373148	-0.05759589	-0.0003067132	-0.000234668
	-0.0003699	-0.0004904895	0.02881398	0.002944002	-0.0003966455	-0.0004895937	0.01862403	-0.05133821
	0.01373151	-0.05759581	-0.0003966464	-0.000489593	0.03182884	-0.00614637	-0.0003648679	-0.0003764059
	-0.0003067148	-0.0002346672	0.01862406	-0.05133811	-0.000364869	-0.0003764057	0.02951341	0.003690471
3.5e+08	0.08654951	0.01168952	-0.0006034931	-0.0001034287	0.04748879	-0.0007283702	-0.0003489716	-1.414924e-05
	-0.0006034931	-0.0001034288	0.082891	0.02290157	-0.0006392527	-6.013027e-05	0.04747593	0.008380235
	0.04748896	-0.000728397	-0.0006392528	-6.012896e-05	0.08584454	0.01244191	-0.0005070775	-3.459335e-05
	-0.0003489719	-1.41474e-05	0.04747611	0.008380168	-0.0005070779	-3.459221e-05	0.08350912	0.02340296
3.6e+08	0.1154317	-0.04922517	-0.0005142625	0.0003795265	0.1098743	-0.04106561	-0.0003121233	0.0002520385
	-0.0005142627	0.0003795263	0.1148525	-0.03753696	-0.0004776491	0.0004453312	0.1143087	-0.02806955
	0.1098743	-0.0410658	-0.0004776483	0.0004453322	0.1149394	-0.048347	-0.000402738	0.0003535857
	-0.0003121222	0.0002520398	0.1143086	-0.02806979	-0.0004027373	0.0003535865	0.1153316	-0.03692342
3.7e+08	0.06198024	-0.09104425	-8.414856e-05	0.0006651079	0.07082615	-0.1110978	-2.497509e-05	0.0004612638
	-8.414888e-05	0.0006651077	0.06607997	-0.08068669	-1.081998e-05	0.0006548076	0.08315574	-0.1014912
	0.07082601	-0.1110979	-1.081868e-05	0.0006548079	0.06156291	-0.09010827	-2.458772e-05	0.0005721244
	-2.497341e-05	0.0004612638	0.08315555	-0.1014912	-2.458676e-05	0.0005721244	0.06680818	-0.07991261
3.8e+08	0.01795157	-0.04647503	0.0004896981	0.0005193145	-0.001725625	-0.07294279	0.0004092319	0.0003050849
	0.0004896977	0.0005193146	0.02723561	-0.04286181	0.0005120305	0.0004731836	0.01445714	-0.07378965
	-0.001725694	-0.07294273	0.0005120315	0.0004731827	0.0175859	-0.04541734	0.0004761462	0.000405055
	0.0004092332	0.0003050835	0.01445709	-0.0737896	0.000476147	0.0004050543	0.02831111	-0.04236463
3.9e+08	0.06698334	-0.007785146	0.0006766307	-5.397434e-05	0.04421226	-0.002198332	0.0004162794	-0.0001596762
	0.0006766305	-5.397399e-05	0.07249468	-0.01502804	0.0006840734	-0.0001017572	0.05367383	-0.01435482
	0.0442123	-0.002198353	0.0006840733	-0.0001017586	0.06672778	-0.006501034	0.0005664393	-0.000143747
	0.0004162787	-0.000159678	0.05367385	-0.01435494	0.0005664392	-0.0001437481	0.07343286	-0.01500178
4e+08	0.1082547	-0.06534324	0.0004060414	-0.0004848004	0.1174404	-0.05586612	0.0001490902	-0.0003146446
	0.0004060416	-0.0004847999	0.1031039	-0.07260696	0.0003579103	-0.0005460043	0.1149761	-0.06722623
	0.1174404	-0.05586624	0.0003579093	-0.0005460051	0.1083306	-0.06391861	0.000246338	-0.0004370104
	0.0001490889	-0.0003146449	0.1149759	-0.06722641	0.0002463372	-0.0004370107	0.1036409	-0.07255235
4.1e+08	0.05581745	-0.1206079	-1.355024e-05	-0.0006251028	0.06733546	-0.137607	-1.83921e-05	-0.0003348674
	-1.35498e-05	-0.0006251028	0.0513927	-0.1192788	-0.0001075263	-0.0006073676	0.06480736	-0.1398871
	0.06733526	-0.137607	-0.0001075273	-0.0006073675	0.05618132	-0.1192646	-5.493944e-05	-0.0004705411
	-1.839312e-05	-0.0003348672	0.06480708	-0.1398871	-5.494025e-05	-0.0004705409	0.05203134	-0.1189108
4.2e+08	-0.009184059	-0.08378125	-0.0005081663	-0.0005135529	-0.01925344	-0.09557733	-0.0003376003	-0.0003474092
	-0.0005081659	-0.0005135532	-0.001247377	-0.08679143	-0.0005341703	-0.000422972	-0.009595448	-0.1013564
	-0.01925356	-0.09557719	-0.0005341713	-0.0004229712	-0.008668463	-0.08257483	-0.0004416814	-0.0004068163
	-0.0003376013	-0.0003474082	-0.009595562	-0.1013563	-0.0004416819	-0.0004068156	-0.0001992825	-0.08665554
4.3e+08	0.0207984	-0.02282112	-0.0007873615	0.0001373197	0.02487776	-0.01167809	-0.0005550223	0.0001950568
	-0.0007873615	0.0001373191	0.02469851	-0.04690134	-0.0007403267	0.0001970204	0.03122003	-0.03921166
	0.02487776	-0.011678	-0.0007403264	0.0001970219	0.02134409	-0.02165128	-0.0006729284	0.0002094836
	-0.0005550217	0.0001950585	0.03121996	-0.03921172	-0.0006729281	0.0002094845	0.02555011	-0.04734789
4.4e+08	0.07521436	-0.05831367	-0.0003227665	0.0006467246	0.1068633	-0.06456483	-4.620986e-05	0.0004771302
	-0.0003227671	0.0006467244	0.0541165	-0.08419762	-0.0002559613	0.0006633352	0.08615697	-0.09600112
	0.1068633	-0.06456484	-0.0002559598	0.0006633357	0.07597387	-0.05703477	-0.0001322833	0.0005837296
	-4.620865e-05	0.0004771304	0.08615669	-0.09600118	-0.0001322827	0.00058373	0.05437927	-0.08463706
4.5e+08	0.03940151	-0.1184293	0.0001877448	0.0006070871	0.05537823	-0.1520962	0.0001844692	0.000233209
	0.0001877445	0.0006070874	0.01184726	-0.1232618	0.0002566964	0.0005700435	0.02385765	-0.1604794
	0.05537808	-0.1520961	0.0002566974	0.000570043	0.04056708	-0.117318	0.0002138181	0.000382744
	0.00018447	0.0002332087	0.02385735	-0.1604792	0.0002138188	0.0003827439	0.01202768	-0.1232632
4.6e+08	-0.03213951	-0.09668923	0.0005282345	0.000379007	-0.03734046	-0.1127449	0.0002285396	0.0002077406
	0.0005282344	0.0003790073	-0.04087003	-0.09695409	0.0005481218	0.000289573	-0.04938679	-0.1110621
	-0.03734053	-0.1127447	0.0005481223	0.0002895722	-0.03083299	-0.09604527	0.0003738293	0.0002749924
	0.0002285403	0.0002077398	-0.04938689	-0.1110619	0.0003738297	0.0002749917	-0.04030632	-0.09698859
4.7e+08	-0.02640335	-0.02452672	0.0007838606	-0.0001449653	-0.004630837	-0.02322592	0.0005348233	-6.867518e-05
	0.0007838607	-0.0001449647	-0.03335796	-0.05067107	0.0007114905	-0.000219273	-0.009774548	-0.04743932
	-0.004630803	-0.02322576	0.0007114902	-0.0002192745	-0.0253407	-0.02415784	0.0006593459	-0.0001403697
	0.0005348231	-6.867657e-05	-0.009774615	-0.04743925	0.0006593456	-0.0001403705	-0.03293612	-0.05123674
4.8e+08	0.03544976	-0.02679866	0.000323797	-0.0007848301	0.07918587	-0.06106076	0.0001292387	-0.0005980694
	0.0003237976	-0.0007848301	-0.006095796	-0.05928161	0.0002277007	-0.0007584652	0.03852604	-0.09668376
	0.0791859	-0.06106068	0.0002276993	-0.0007584656	0.03643224	-0.0263068	0.0001663439	-0.0007058864
