!
!4 port subset of full cascaded channels using these ports:51 37 52 38
# Hz S RI R 50
0	0.02992105	0.000271296	3.591628e-06	-1.849853e-09	0.003413322	8.986464e-05	3.380549e-06	-1.788526e-09
	3.59163e-06	-1.854783e-09	0.02976701	0.000274387	3.746432e-06	-1.900301e-09	0.003385663	9.211927e-05
	0.003418049	9.07378e-05	3.746475e-06	-1.898908e-09	0.02870704	0.0002736633	3.509769e-06	-1.834184e-09
	3.380591e-06	-1.787139e-09	0.00338979	9.055577e-05	3.509772e-06	-1.829228e-09	0.02864619	0.0002749351
1e+07	0.07784546	0.01839052	2.701859e-05	1.27586e-05	0.07807885	0.06329865	2.502635e-05	1.26336e-05
	2.70186e-05	1.27586e-05	0.07704628	0.01801492	2.784603e-05	1.259133e-05	0.07723756	0.06298641
	0.07808286	0.06329376	2.784601e-05	1.259153e-05	0.07784461	0.01836828	2.570992e-05	1.247591e-05
	2.502634e-05	1.263381e-05	0.07724158	0.06298151	2.570992e-05	1.247591e-05	0.0770609	0.01803922
2e+07	0.07523826	-0.02820509	1.506716e-05	-5.713604e-06	0.1314904	-0.01624087	1.443258e-05	-2.701686e-06
	1.506738e-05	-5.713489e-06	0.07489217	-0.02796204	1.515469e-05	-7.339576e-06	0.1312075	-0.01554052
	0.1315137	-0.01624327	1.515444e-05	-7.341243e-06	0.07520605	-0.02825907	1.449911e-05	-4.064808e-06
	1.443229e-05	-2.703381e-06	0.131233	-0.01554629	1.449884e-05	-4.065008e-06	0.07490695	-0.02792339
3e+07	0.02462299	-0.0140045	-6.519659e-06	4.294863e-05	0.04936139	-0.06097545	-2.555991e-06	4.345175e-05
	-6.519667e-06	4.294858e-05	0.02527564	-0.01531374	-8.530482e-06	4.229971e-05	0.05064804	-0.0619296
	0.04936519	-0.06097501	-8.529793e-06	4.229976e-05	0.02458532	-0.01400466	-4.193616e-06	4.288006e-05
	-2.555303e-06	4.345179e-05	0.0506514	-0.06192909	-4.19361e-06	4.288009e-05	0.02532203	-0.01521833
4e+07	0.05061016	0.04225577	7.937391e-05	8.361302e-05	0.01728273	0.02490002	7.987296e-05	7.778075e-05
	7.937389e-05	8.361295e-05	0.04875776	0.03906218	7.859711e-05	8.558595e-05	0.01591103	0.02145777
	0.0172891	0.02489336	7.859657e-05	8.558514e-05	0.05054823	0.0422466	7.9265e-05	7.927766e-05
	7.987243e-05	7.777994e-05	0.01591727	0.02145089	7.926498e-05	7.927765e-05	0.04883485	0.03916434
5e+07	0.110137	0.0108165	0.0001443718	-4.55841e-06	0.1069472	0.04725658	0.0001366627	-6.759461e-06
	0.0001443717	-4.558362e-06	0.1056839	0.009910692	0.0001467878	-4.116788e-06	0.1024053	0.04657898
	0.1069465	0.04725063	0.0001467875	-4.115907e-06	0.1100099	0.01082041	0.0001385282	-6.614509e-06
	0.0001366625	-6.758588e-06	0.1024046	0.04657305	0.0001385281	-6.614486e-06	0.1057707	0.0100109
6e+07	0.08138688	-0.0466873	8.766991e-05	-8.02949e-05	0.1271183	-0.0438215	8.254126e-05	-7.244053e-05
	8.766994e-05	-8.029488e-05	0.07819539	-0.04495635	8.859617e-05	-8.392974e-05	0.1247976	-0.04116978
	0.1271172	-0.04382371	8.859805e-05	-8.392973e-05	0.0811925	-0.0465957	8.302761e-05	-7.549935e-05
	8.254314e-05	-7.244052e-05	0.1247963	-0.04117207	8.302776e-05	-7.549926e-05	0.07827922	-0.04483117
7e+07	0.02965465	-0.01580028	2.899999e-05	-3.761581e-05	0.03796108	-0.05959936	3.542612e-05	-3.082369e-05
	2.899995e-05	-3.761584e-05	0.02858515	-0.01515203	2.481013e-05	-4.035841e-05	0.0387545	-0.05931913
	0.03796108	-0.05960046	2.48103e-05	-4.035948e-05	0.02948828	-0.01559575	3.180781e-05	-3.298128e-05
	3.54263e-05	-3.082475e-05	0.03875441	-0.05932015	3.180775e-05	-3.298137e-05	0.02871507	-0.01498552
8e+07	0.07299049	0.03287065	0.0001010635	-4.06141e-06	0.03466187	0.0275767	0.0001074718	-9.752749e-06
	0.0001010635	-4.061325e-06	0.06982123	0.03161604	9.692708e-05	-1.076639e-06	0.03197952	0.02480933
	0.03466286	0.02757374	9.692717e-05	-1.077505e-06	0.07288748	0.03309397	0.000104077	-7.334998e-06
	0.0001074719	-9.753613e-06	0.03198039	0.02480646	0.000104077	-7.335012e-06	0.07003065	0.03175076
9e+07	0.1262918	-0.01793582	0.0001442812	-0.0001022818	0.1239042	0.021319	0.0001374587	-0.0001089698
	0.0001442814	-0.0001022818	0.1204678	-0.01682179	0.0001458905	-9.872166e-05	0.1176601	0.02246256
	0.1239028	0.02131548	0.0001458907	-9.872214e-05	0.1261456	-0.01772854	0.0001385243	-0.0001063337
	0.000137459	-0.0001089703	0.1176588	0.02245916	0.0001385243	-0.0001063336	0.1206687	-0.01677283
1e+08	0.08358014	-0.07777379	7.295043e-05	-0.0001892946	0.1187634	-0.07131547	6.294927e-05	-0.0001815753
	7.29505e-05	-0.0001892947	0.07842235	-0.07303864	7.558458e-05	-0.0001916214	0.1152636	-0.06598535
	0.1187605	-0.07131676	7.558477e-05	-0.0001916228	0.08334506	-0.07743084	6.446823e-05	-0.0001834438
	6.294945e-05	-0.0001815767	0.1152608	-0.06598676	6.446828e-05	-0.0001834439	0.07855016	-0.07298204
1.1e+08	0.02685801	-0.04526318	-3.170209e-05	-0.0001781622	0.02879759	-0.06739289	-2.608072e-05	-0.0001638381
	-3.170223e-05	-0.0001781627	0.02491481	-0.03909788	-3.573358e-05	-0.0001823006	0.02912022	-0.06341718
	0.02879669	-0.0673929	-3.573435e-05	-0.0001823015	0.02673616	-0.04470193	-2.979806e-05	-0.0001666903
	-2.608143e-05	-0.0001638391	0.02911946	-0.06341616	-2.979802e-05	-0.0001666901	0.02508197	-0.03895732
1.2e+08	0.063129	0.0006166137	-4.599818e-05	-0.0001118754	0.04213459	0.01523187	-3.050621e-05	-0.0001132205
	-4.599869e-05	-0.0001118752	0.0628165	0.005092772	-5.32672e-05	-0.0001086223	0.04094871	0.01663391
	0.04213448	0.01523003	-5.326813e-05	-0.0001086226	0.06323908	0.001167732	-3.635181e-05	-0.0001101283
	-3.0507e-05	-0.0001132213	0.0409495	0.01663276	-3.635128e-05	-0.0001101288	0.0630985	0.00516464
1.3e+08	0.1057612	-0.04535234	-2.023274e-05	-0.0001237624	0.1223848	-0.009700653	-1.894157e-05	-0.0001372528
	-2.023264e-05	-0.0001237619	0.104345	-0.04144323	-2.049286e-05	-0.000115649	0.1192997	-0.0057468
	0.1223826	-0.009703026	-2.049348e-05	-0.000115649	0.1058825	-0.04493476	-1.921507e-05	-0.0001306985
	-1.894238e-05	-0.0001372534	0.1192983	-0.005748788	-1.921523e-05	-0.0001306995	0.1045699	-0.04152824
1.4e+08	0.06246492	-0.09631687	-4.847236e-05	-0.0001704637	0.09631691	-0.09401389	-6.150395e-05	-0.0001713434
	-4.847201e-05	-0.0001704638	0.0600125	-0.09021751	-4.276913e-05	-0.0001682009	0.09547848	-0.0876792
	0.09631399	-0.09401417	-4.27696e-05	-0.0001682012	0.06247908	-0.09580202	-5.750282e-05	-0.0001692536
	-6.150492e-05	-0.0001713443	0.09547649	-0.08767896	-5.750356e-05	-0.0001692542	0.06006731	-0.09028753
1.5e+08	0.008503895	-0.06723739	-0.0001449861	-0.0001899039	0.01285415	-0.0727074	-0.0001460789	-0.0001731863
	-0.0001449862	-0.0001899041	0.008733979	-0.05727399	-0.0001445813	-0.000194183	0.01437848	-0.06650118
	0.01285288	-0.07270671	-0.0001445824	-0.0001941832	0.008686808	-0.06648442	-0.0001460945	-0.0001756571
	-0.0001460807	-0.0001731868	0.01437861	-0.06650039	-0.0001460951	-0.0001756572	0.008792015	-0.05719784
1.6e+08	0.02997462	-0.0258898	-0.0002399301	-9.719783e-05	0.03700021	0.0004053155	-0.0002193918	-9.157358e-05
	-0.0002399304	-9.719761e-05	0.03649821	-0.01672866	-0.0002469712	-9.584194e-05	0.0400657	0.006070899
	0.03699948	0.0004047601	-0.0002469724	-9.58413e-05	0.03052514	-0.02521515	-0.0002245968	-8.953593e-05
	-0.0002193936	-9.157296e-05	0.0400662	0.006069686	-0.0002245973	-8.953601e-05	0.03669415	-0.01670082
1.7e+08	0.05767192	-0.05345915	-0.000212644	2.011846e-05	0.1011947	-0.03437544	-0.0002003019	8.599125e-07
	-0.0002126439	2.01188e-05	0.06594812	-0.05010188	-0.0002143043	3.06416e-05	0.106062	-0.02963869
	0.1011927	-0.03437604	-0.0002143047	3.064276e-05	0.0582772	-0.05311068	-0.0002010469	9.569347e-06
	-0.0002003029	8.611669e-07	0.1060606	-0.02964023	-0.0002010475	9.569272e-06	0.06606294	-0.05026538
1.8e+08	0.02425336	-0.08252554	-0.0001296183	3.351009e-05	0.06006853	-0.09922532	-0.000144074	1.790655e-05
	-0.000129618	3.351006e-05	0.02824524	-0.08135393	-0.0001203539	4.050766e-05	0.06525003	-0.09707169
	0.0600665	-0.0992244	-0.0001203537	4.050814e-05	0.02466349	-0.08221886	-0.0001366067	2.375524e-05
	-0.0001440742	1.790735e-05	0.06524823	-0.09707162	-0.0001366073	2.375551e-05	0.02810293	-0.08148775
1.9e+08	-0.01150012	-0.05687644	-0.0001495759	-4.066998e-05	-0.005874424	-0.06085484	-0.0001641922	-2.796364e-05
	-0.0001495759	-4.067023e-05	-0.008595624	-0.0502474	-0.0001415519	-4.52281e-05	-0.003008751	-0.0580453
	-0.005875033	-0.06085357	-0.0001415524	-4.5228e-05	-0.01100396	-0.0563786	-0.000157593	-3.075125e-05
	-0.000164193	-2.796315e-05	-0.003009322	-0.05804475	-0.0001575933	-3.075078e-05	-0.008788783	-0.05013626
2e+08	-4.451301e-05	-0.02854462	-0.000288822	1.804987e-05	0.02925099	-0.00401417	-0.0002729818	3.332595e-05
	-0.0002888222	1.804992e-05	0.01188838	-0.02006715	-0.0002921082	1.371346e-05	0.03554218	0.002353717
	0.02925077	-0.004013935	-0.0002921088	1.371456e-05	0.0007935288	-0.02815946	-0.0002746101	3.07024e-05
	-0.0002729827	3.332748e-05	0.03554185	0.002353284	-0.0002746103	3.070284e-05	0.01187025	-0.01991425
2.1e+08	0.009206188	-0.03663023	-0.0002701964	0.0002343962	0.07232466	-0.04366825	-0.000248589	0.0002167659
	-0.0002701963	0.0002343965	0.02660127	-0.03879942	-0.0002734304	0.0002417421	0.08555565	-0.04185099
	0.07232363	-0.04366807	-0.0002734299	0.0002417436	0.01008514	-0.03667907	-0.0002498756	0.0002226667
	-0.0002485886	0.0002167679	0.08555432	-0.0418514	-0.0002498757	0.0002226671	0.02654238	-0.03881564
2.2e+08	-0.007916357	-0.03504084	-4.760885e-05	0.0003002531	0.02395431	-0.08013322	-6.0392e-05	0.0002713091
	-4.760849e-05	0.000300253	0.000806925	-0.04581187	-3.769603e-05	0.0003088298	0.03426521	-0.08818386
	0.02395343	-0.08013215	-3.769483e-05	0.0003088302	-0.007359338	-0.0352755	-5.169536e-05	0.0002777598
	-6.039052e-05	0.0002713099	0.03426383	-0.08818316	-5.169523e-05	0.0002777602	0.0004920285	-0.04578108
2.3e+08	-0.009609773	-0.01342394	4.149014e-05	0.0001235574	-0.01231181	-0.0283283	1.13312e-05	0.0001287153
	4.14902e-05	0.000123557	-0.009258138	-0.0172081	5.550508e-05	0.0001180469	-0.01222927	-0.03467049
	-0.01231174	-0.02832725	5.55054e-05	0.0001180467	-0.009186181	-0.01350291	2.303817e-05	0.0001242235
	1.133182e-05	0.0001287152	-0.01222969	-0.0346695	2.303842e-05	0.0001242238	-0.00963825	-0.01687812
2.4e+08	0.001905332	-0.01054705	-0.0001332995	8.313195e-05	0.03569129	0.003598499	-0.0001307471	0.0001098273
	-0.0001332997	8.313189e-05	0.0112865	-0.007190115	-0.0001323814	7.087032e-05	0.03926779	0.007199264
	0.03569146	0.003598766	-0.0001323816	7.087089e-05	0.002504786	-0.01064131	-0.0001290505	0.000100075
	-0.0001307471	0.000109828	0.03926769	0.007199616	-0.0001290503	0.0001000751	0.0111149	-0.006718526
2.5e+08	-0.009241655	-0.01018394	-0.0001566108	0.0003325658	0.05513667	-0.04143772	-0.0001295217	0.000327501
	-0.0001566108	0.000332566	0.009520985	-0.01915458	-0.0001634274	0.000331693	0.0710986	-0.04398017
	0.05513629	-0.04143748	-0.0001634265	0.0003316941	-0.00864196	-0.01062679	-0.0001336758	0.0003262058
	-0.0001295206	0.0003275022	0.07109804	-0.04397992	-0.0001336756	0.0003262059	0.009423165	-0.01878833
2.6e+08	-0.01189256	0.02075704	0.0001580812	0.0004241991	0.005501503	-0.04744058	0.0001536501	0.0003903345
	0.0001580814	0.000424199	-0.005373725	-0.002598167	0.0001624185	0.0004313824	0.01539114	-0.06681897
	0.005501273	-0.04743983	0.0001624201	0.0004313823	-0.01167932	0.02010456	0.0001579693	0.0003948074
	0.0001536519	0.0003903343	0.01539066	-0.06681819	0.0001579696	0.0003948074	-0.005612647	-0.002221214
2.7e+08	0.02627005	0.03617113	0.0003237597	0.0001369571	0.005803961	0.01023322	0.0002849189	0.0001331048
	0.0003237597	0.0001369569	0.01617586	0.02179501	0.0003377213	0.0001321946	-0.003259504	-0.005486721
	0.005804299	0.01023382	0.0003377219	0.0001321937	0.02614173	0.03569209	0.0002961912	0.0001280221
	0.0002849197	0.0001331036	-0.003259349	-0.005485939	0.0002961913	0.000128022	0.01588445	0.02241046
2.8e+08	0.0447533	0.003742857	0.0001053519	-2.283384e-05	0.06556336	0.009321836	9.21873e-05	1.245528e-05
	0.0001053518	-2.28339e-05	0.04194466	0.003859997	0.0001082502	-4.004947e-05	0.05914346	0.0112997
	0.06556365	0.009321909	0.0001082501	-4.004973e-05	0.04460024	0.003483979	9.446558e-05	-2.090932e-06
	9.218717e-05	1.245494e-05	0.05914376	0.01129994	9.446558e-05	-2.091049e-06	0.04185218	0.004664683
2.9e+08	0.01182365	-0.003780374	-4.917468e-06	0.0002047916	0.05993632	-0.04505541	2.377869e-05	0.0002197524
	-4.917522e-06	0.0002047917	0.02252111	-0.01323175	-1.662069e-05	0.0001954622	0.07102956	-0.04781048
	0.05993624	-0.04505529	-1.662011e-05	0.0001954625	0.01172091	-0.004102973	1.471456e-05	0.0002114322
	2.37793e-05	0.0002197527	0.07102951	-0.04781034	1.471455e-05	0.0002114322	0.02262857	-0.01245633
3e+08	0.01181075	0.04622572	0.000308678	0.0003145993	0.009316058	-0.02561334	0.0003204913	0.0002858677
	0.0003086781	0.0003145993	0.01027924	0.0194231	0.0003021997	0.0003201649	0.01335005	-0.0494679
	0.009316137	-0.02561295	0.0003022009	0.0003201643	0.01143271	0.04578024	0.0003155015	0.0002889152
	0.0003204926	0.000285867	0.01335006	-0.04946751	0.0003155015	0.0002889152	0.01043879	0.02011148
3.1e+08	0.07915865	0.05576717	0.0004788924	-2.393903e-05	0.04242571	0.03055264	0.0004448165	-3.828965e-05
	0.0004788924	-2.393911e-05	0.05616935	0.03940042	0.00048692	-2.333266e-05	0.02193306	0.01263282
	0.04242611	0.03055278	0.00048692	-2.3334e-05	0.07842255	0.05553742	0.000450563	-3.957994e-05
	0.0004448165	-3.829103e-05	0.0219334	0.01263305	0.000450563	-3.958002e-05	0.05627372	0.04012346
3.2e+08	0.1045868	-0.009717231	0.0002321631	-0.0002426141	0.1081436	-0.004481554	0.0002070593	-0.0002085528
	0.000232163	-0.0002426142	0.0869178	-0.005663237	0.0002354449	-0.0002573811	0.08990978	0.001282887
	0.1081438	-0.004481711	0.0002354443	-0.0002573818	0.1037293	-0.009539298	0.000208183	-0.0002213207
	0.0002070587	-0.0002085535	0.08991002	0.001282797	0.0002081829	-0.0002213208	0.08711266	-0.004763352
3.3e+08	0.05113618	-0.03703687	3.01265e-05	-7.701707e-05	0.07732052	-0.07115577	5.514524e-05	-4.344864e-05
	3.012643e-05	-7.701703e-05	0.05041832	-0.03619817	1.609806e-05	-9.005552e-05	0.08030396	-0.0663916
	0.07732048	-0.07115581	1.609794e-05	-9.005558e-05	0.05047254	-0.03656202	4.284301e-05	-5.40803e-05
	5.514511e-05	-4.34487e-05	0.08030393	-0.06639166	4.284295e-05	-5.408027e-05	0.05088604	-0.03525252
3.4e+08	0.03585742	0.01950073	0.0002410603	8.190329e-05	0.01960946	-0.03395715	0.0002726538	6.541297e-05
	0.0002410603	8.190336e-05	0.02881398	0.002944002	0.0002242087	8.700194e-05	0.01862403	-0.05133821
	0.01960957	-0.03395706	0.0002242091	8.700139e-05	0.03528039	0.01992	0.0002585756	6.910624e-05
	0.0002726542	6.541243e-05	0.01862406	-0.05133811	0.0002585756	6.910632e-05	0.02951341	0.003690471
3.5e+08	0.1109881	0.03094603	0.0003932236	-0.0002087741	0.0736918	0.01944178	0.0003765924	-0.0002351181
	0.0003932237	-0.0002087741	0.082891	0.02290157	0.0003932169	-0.0001986625	0.04747593	0.008380235
	0.07369204	0.01944163	0.0003932164	-0.0001986635	0.1101983	0.03149646	0.0003756131	-0.0002281563
	0.000376592	-0.0002351191	0.04747611	0.008380168	0.0003756131	-0.0002281563	0.08350912	0.02340296
3.6e+08	0.1391201	-0.05118313	0.0001503857	-0.0004057204	0.1374186	-0.04232827	0.0001201389	-0.0003862308
	0.0001503857	-0.0004057205	0.1148525	-0.03753696	0.0001551257	-0.0004106392	0.1143087	-0.02806955
	0.1374185	-0.04232857	0.0001551248	-0.0004106395	0.1382596	-0.05021752	0.0001215449	-0.0003906732
	0.0001201381	-0.0003862313	0.1143086	-0.02806979	0.0001215449	-0.0003906733	0.1153316	-0.03692342
3.7e+08	0.07270025	-0.09735915	-7.396322e-05	-0.0002988801	0.08442238	-0.117664	-6.017321e-05	-0.0002576347
	-7.39633e-05	-0.0002988801	0.06607997	-0.08068669	-8.414642e-05	-0.000309661	0.08315574	-0.1014912
	0.08442218	-0.1176641	-8.414702e-05	-0.0003096609	0.07215156	-0.09592404	-7.03304e-05	-0.00026507
	-6.017382e-05	-0.0002576346	0.08315555	-0.1014912	-7.033045e-05	-0.00026507	0.06680818	-0.07991261
3.8e+08	0.03005759	-0.04529922	-2.447e-05	-0.0001056337	0.01379804	-0.07043957	2.070835e-05	-0.0001062777
	-2.447002e-05	-0.0001056336	0.02723561	-0.04286181	-4.475188e-05	-0.0001009537	0.01445714	-0.07378965
	0.01379799	-0.07043958	-4.475212e-05	-0.0001009538	0.03003875	-0.04389239	3.812216e-06	-0.0001012009
	2.070813e-05	-0.0001062778	0.01445709	-0.0737896	3.812241e-06	-0.0001012008	0.02831111	-0.04236463
3.9e+08	0.090895	-0.01819154	0.0001260537	-0.000233189	0.07406861	-0.01359066	0.0001333865	-0.0002702032
	0.0001260538	-0.0002331889	0.07249468	-0.01502804	0.0001199739	-0.0002142281	0.05367383	-0.01435482
	0.0740686	-0.01359086	0.0001199733	-0.0002142284	0.09087656	-0.01699494	0.0001282336	-0.0002547681
	0.000133386	-0.0002702036	0.05367385	-0.01435494	0.0001282336	-0.0002547681	0.07343286	-0.01500178
4e+08	0.1206336	-0.09335762	-4.853084e-05	-0.0003837792	0.1318443	-0.08875937	-7.815498e-05	-0.0003893231
	-4.853082e-05	-0.0003837792	0.1031039	-0.07260696	-3.985853e-05	-0.0003756708	0.1149761	-0.06722623
	0.131844	-0.08875961	-3.985926e-05	-0.0003756706	0.1205491	-0.09190719	-7.30585e-05	-0.0003827862
	-7.815573e-05	-0.000389323	0.1149759	-0.06722641	-7.305849e-05	-0.0003827862	0.1036409	-0.07255235
4.1e+08	0.05378994	-0.1462591	-0.0002326103	-0.000302728	0.06206453	-0.1630083	-0.0002373748	-0.0002685636
	-0.0002326103	-0.000302728	0.0513927	-0.1192788	-0.000232026	-0.0003081467	0.06480736	-0.1398871
	0.06206418	-0.1630084	-0.0002320266	-0.0003081464	0.05407203	-0.1444305	-0.0002389472	-0.0002705952
	-0.0002373754	-0.0002685633	0.06480708	-0.1398871	-0.0002389472	-0.0002705953	0.05203134	-0.1189108
4.2e+08	-0.01056167	-0.1049321	-0.0002848697	-0.0001378389	-0.01765299	-0.1100973	-0.0002424662	-0.0001226246
	-0.0002848697	-0.0001378389	-0.001247377	-0.08679143	-0.0002990541	-0.0001358676	-0.009595448	-0.1013564
	-0.01765316	-0.1100972	-0.0002990545	-0.0001358672	-0.009575888	-0.1031918	-0.0002535613	-0.0001181025
	-0.0002424666	-0.0001226242	-0.009595562	-0.1013563	-0.0002535614	-0.0001181025	-0.0001992825	-0.08665554
4.3e+08	0.02086386	-0.05551261	-0.0001792711	-6.488743e-05	0.03528528	-0.04530003	-0.0001497456	-0.0001037089
	-0.0001792711	-6.488738e-05	0.02469851	-0.04690134	-0.0001871	-4.42045e-05	0.03122003	-0.03921166
	0.03528514	-0.04530009	-0.0001871003	-4.420412e-05	0.02205447	-0.05436014	-0.0001546724	-8.588338e-05
	-0.0001497458	-0.0001037086	0.03121996	-0.03921172	-0.0001546724	-8.588337e-05	0.02555011	-0.04734789
4.4e+08	0.05537618	-0.1001761	-0.0001928972	-0.0001450456	0.08836173	-0.1158966	-0.0002173887	-0.0001785946
	-0.0001928971	-0.0001450457	0.0541165	-0.08419762	-0.0001798091	-0.0001271881	0.08615697	-0.09600112
	0.08836139	-0.1158966	-0.0001798093	-0.0001271876	0.05632778	-0.09910319	-0.0002069473	-0.0001641756
	-0.000217389	-0.0001785942	0.08615669	-0.09600118	-0.0002069473	-0.0001641756	0.05437927	-0.08463706
4.5e+08	0.004596356	-0.1466394	-0.0002997026	-0.0001111678	0.01188347	-0.1796699	-0.0003277394	-9.460532e-05
	-0.0002997027	-0.0001111678	0.01184726	-0.1232618	-0.0002848702	-0.00011235	0.02385765	-0.1604794
	0.01188312	-0.1796697	-0.0002848704	-0.0001123496	0.005797628	-0.1453401	-0.0003169782	-9.352209e-05
	-0.0003277396	-9.460485e-05	0.02385735	-0.1604792	-0.0003169782	-9.352213e-05	0.01202768	-0.1232632
4.6e+08	-0.06195916	-0.1169028	-0.0003666484	-1.279694e-06	-0.06507137	-0.12083	-0.0003452818	2.720766e-05
	-0.0003666484	-1.279666e-06	-0.04087003	-0.09695409	-0.0003683099	-6.58243e-06	-0.04938679	-0.1110621
	-0.06507153	-0.1208297	-0.0003683101	-6.581862e-06	-0.06018962	-0.1158458	-0.0003452271	2.63875e-05
	-0.0003452819	2.720824e-05	-0.04938689	-0.1110619	-0.0003452272	2.638751e-05	-0.04030632	-0.09698859
4.7e+08	-0.05921831	-0.05544011	-0.0003368043	0.0001645455	-0.0228486	-0.0533909	-0.0002953145	0.0001399898
	-0.0003368042	0.0001645455	-0.03335796	-0.05067107	-0.000343172	0.0001764127	-0.009774548	-0.04743932
	-0.02284872	-0.05339077	-0.0003431718	0.0001764134	-0.05728652	-0.05508949	-0.0002971185	0.000150648
	-0.0002953144	0.0001399906	-0.009774615	-0.04743925	-0.0002971185	0.000150648	-0.03293612	-0.05123674
4.8e+08	-0.02181917	-0.05650573	-0.0001909022	0.0002150235	0.02439353	-0.1032511	-0.0002036525	0.0001619259
	-0.0001909022	0.0002150234	-0.006095796	-0.05928161	-0.0001776666	0.0002338351	0.03852604	-0.09668376
	0.02439329	-0.1032509	-0.0001776662	0.0002338356	-0.0202897	-0.05655552	-0.0001912069	0.0001761161
