!
!4 port subset of full cascaded channels using these ports:63 37 64 38
# Hz S RI R 50
0	0.02974126	0.0002713772	-1.569493e-06	8.054294e-10	0.003408398	8.985457e-05	-1.5892e-06	8.141798e-10
	-1.569493e-06	8.076459e-10	0.02976701	0.000274387	-1.6563e-06	8.526646e-10	0.003385663	9.211927e-05
	0.003413203	9.072787e-05	-1.65632e-06	8.519277e-10	0.02852616	0.00027374	-1.678391e-06	8.617303e-10
	-1.589219e-06	8.136645e-10	0.00338979	9.055577e-05	-1.678391e-06	8.594917e-10	0.02864619	0.0002749351
1e+07	0.07769695	0.01868979	-1.44609e-05	-7.151726e-06	0.07794068	0.06357999	-1.473715e-05	-6.812039e-06
	-1.44609e-05	-7.15173e-06	0.07704628	0.01801492	-1.493666e-05	-7.441451e-06	0.07723756	0.06298641
	0.0779447	0.06357511	-1.493665e-05	-7.441564e-06	0.07769996	0.01866557	-1.524228e-05	-7.102254e-06
	-1.473714e-05	-6.812153e-06	0.07724158	0.06298151	-1.524228e-05	-7.102257e-06	0.0770609	0.01803922
2e+07	0.0756081	-0.02787029	-8.286768e-06	2.262202e-06	0.131761	-0.01550028	-7.970077e-06	3.541059e-06
	-8.286914e-06	2.262081e-06	0.07489217	-0.02796204	-8.786507e-06	2.276466e-06	0.1312075	-0.01554052
	0.1317829	-0.0155024	-8.786357e-06	2.277389e-06	0.0755569	-0.027924	-8.473282e-06	3.608228e-06
	-7.969908e-06	3.54197e-06	0.131233	-0.01554629	-8.473096e-06	3.608391e-06	0.07490695	-0.02792339
3e+07	0.02475861	-0.01434278	7.253652e-07	-2.454951e-05	0.04996875	-0.06075632	2.562028e-06	-2.369169e-05
	7.253525e-07	-2.454948e-05	0.02527564	-0.01531374	4.789789e-07	-2.497632e-05	0.05064804	-0.0619296
	0.04997262	-0.06075583	4.785889e-07	-2.497632e-05	0.02471326	-0.01435579	2.397791e-06	-2.410623e-05
	2.56164e-06	-2.369168e-05	0.0506514	-0.06192909	2.397777e-06	-2.410625e-05	0.02532203	-0.01521833
4e+07	0.04965328	0.04264607	-4.859477e-05	-4.151189e-05	0.01689514	0.02515489	-4.694538e-05	-4.239178e-05
	-4.859477e-05	-4.151187e-05	0.04875776	0.03906218	-4.981544e-05	-4.246767e-05	0.01591103	0.02145777
	0.01690167	0.0251483	-4.98151e-05	-4.246724e-05	0.04957481	0.04264035	-4.811687e-05	-4.346333e-05
	-4.694504e-05	-4.239134e-05	0.01591727	0.02145089	-4.811687e-05	-4.346333e-05	0.04883485	0.03916434
5e+07	0.1102363	0.01276695	-7.835034e-05	1.15292e-05	0.1066991	0.0491294	-7.836958e-05	1.092962e-05
	-7.835035e-05	1.152919e-05	0.1056839	0.009910692	-8.07107e-05	1.167548e-05	0.1024053	0.04657898
	0.1066985	0.04912341	-8.07106e-05	1.167497e-05	0.1101204	0.01278706	-8.084623e-05	1.096843e-05
	-7.836948e-05	1.09291e-05	0.1024046	0.04657305	-8.084624e-05	1.096843e-05	0.1057707	0.0100109
6e+07	0.08338939	-0.04586189	-4.189275e-05	4.8377e-05	0.1289312	-0.04193484	-4.130094e-05	4.974807e-05
	-4.189276e-05	4.837703e-05	0.07819539	-0.04495635	-4.360955e-05	5.009034e-05	0.1247976	-0.04116978
	0.1289302	-0.04193708	-4.361057e-05	5.009048e-05	0.08323159	-0.04579274	-4.315653e-05	5.15409e-05
	-4.130196e-05	4.97482e-05	0.1247963	-0.04117207	-4.315653e-05	5.15409e-05	0.07827922	-0.04483117
7e+07	0.0302089	-0.01709672	-1.560618e-05	2.115929e-05	0.0395783	-0.06009089	-1.203435e-05	2.19075e-05
	-1.560619e-05	2.11593e-05	0.02858515	-0.01515203	-1.598738e-05	2.272736e-05	0.0387545	-0.05931913
	0.03957824	-0.06009198	-1.598741e-05	2.272794e-05	0.03003231	-0.01695697	-1.235056e-05	2.360617e-05
	-1.203438e-05	2.190808e-05	0.03875441	-0.05932015	-1.235058e-05	2.360618e-05	0.02871507	-0.01498552
8e+07	0.07120982	0.03379525	-5.79949e-05	1.403827e-05	0.03351371	0.02793465	-5.438342e-05	1.085876e-05
	-5.799489e-05	1.403831e-05	0.06982123	0.03161604	-5.862872e-05	1.475658e-05	0.03197952	0.02480933
	0.03351482	0.02793177	-5.86287e-05	1.475705e-05	0.07104125	0.03400637	-5.486328e-05	1.147468e-05
	-5.438339e-05	1.085922e-05	0.03198039	0.02480646	-5.486328e-05	1.147469e-05	0.07003065	0.03175076
9e+07	0.1272714	-0.01426271	-6.635162e-05	7.440669e-05	0.1239564	0.02498519	-6.66009e-05	7.022459e-05
	-6.635161e-05	7.440669e-05	0.1204678	-0.01682179	-6.802358e-05	7.589067e-05	0.1176601	0.02246256
	0.123955	0.02498158	-6.802373e-05	7.589098e-05	0.1271202	-0.0140023	-6.838773e-05	7.145333e-05
	-6.660104e-05	7.02249e-05	0.1176588	0.02245916	-6.838772e-05	7.145336e-05	0.1206687	-0.01677283
1e+08	0.08797342	-0.0767936	-1.375529e-05	0.0001097537	0.1227885	-0.06872264	-1.551528e-05	0.0001087656
	-1.375528e-05	0.0001097537	0.07842235	-0.07303864	-1.465634e-05	0.0001132109	0.1152636	-0.06598535
	0.1227857	-0.06872396	-1.465627e-05	0.0001132116	0.08781699	-0.07646912	-1.676911e-05	0.0001122445
	-1.551521e-05	0.0001087664	0.1152608	-0.06598676	-1.67691e-05	0.0001122445	0.07855016	-0.07298204
1.1e+08	0.02855488	-0.04821046	3.819139e-05	8.727215e-05	0.03161437	-0.06935138	3.965268e-05	8.777095e-05
	3.819147e-05	8.727237e-05	0.02491481	-0.03909788	3.985577e-05	9.084284e-05	0.02912022	-0.06341718
	0.03161351	-0.06935142	3.985633e-05	9.084321e-05	0.02842415	-0.04777339	4.124329e-05	9.165784e-05
	3.96532e-05	8.777142e-05	0.02911946	-0.06341616	4.124318e-05	9.165774e-05	0.02508197	-0.03895732
1.2e+08	0.0608943	0.0009230908	3.421231e-05	5.472215e-05	0.04009371	0.01518019	3.73806e-05	5.104241e-05
	3.421258e-05	5.472205e-05	0.0628165	0.005092772	3.694408e-05	5.619708e-05	0.04094871	0.01663391
	0.04009368	0.01517831	3.694459e-05	5.619713e-05	0.0608595	0.001435398	4.034382e-05	5.259755e-05
	3.738116e-05	5.104276e-05	0.0409495	0.01663276	4.034361e-05	5.259798e-05	0.0630985	0.00516464
1.3e+08	0.1073556	-0.04115138	2.935667e-05	6.918076e-05	0.1227275	-0.004662797	2.788331e-05	6.267756e-05
	2.935661e-05	6.918049e-05	0.104345	-0.04144323	3.07593e-05	6.951984e-05	0.1192997	-0.0057468
	0.1227254	-0.004665303	3.075963e-05	6.951983e-05	0.1074083	-0.04062332	2.930158e-05	6.276289e-05
	2.788384e-05	6.267775e-05	0.1192983	-0.005748788	2.930189e-05	6.27634e-05	0.1045699	-0.04152824
1.4e+08	0.06855509	-0.09587882	5.946088e-05	8.2723e-05	0.1022966	-0.091264	5.372931e-05	7.993069e-05
	5.946071e-05	8.272302e-05	0.0600125	-0.09021751	6.023395e-05	8.460728e-05	0.09547848	-0.0876792
	0.1022937	-0.09126441	6.023431e-05	8.460736e-05	0.06866329	-0.09532516	5.410979e-05	8.175768e-05
	5.372993e-05	7.993097e-05	0.09547649	-0.08767896	5.411029e-05	8.175785e-05	0.06006731	-0.09028753
1.5e+08	0.01121645	-0.0720233	0.00010916	6.683571e-05	0.01655557	-0.07623013	0.0001057829	6.89044e-05
	0.0001091601	6.683578e-05	0.008733979	-0.05727399	0.0001125624	6.951035e-05	0.01437848	-0.06650118
	0.01655422	-0.07622943	0.0001125631	6.951022e-05	0.01141734	-0.07141865	0.0001089223	7.203261e-05
	0.0001057839	6.890433e-05	0.01437861	-0.06650039	0.0001089226	7.203256e-05	0.008792015	-0.05719784
1.6e+08	0.02754002	-0.02733358	0.0001323939	4.724799e-06	0.03420962	-0.0003600619	0.0001336912	4.772339e-06
	0.000132394	4.724684e-06	0.03649821	-0.01672866	0.0001377519	4.302422e-06	0.0400657	0.006070899
	0.03420899	-0.0003606112	0.0001377524	4.301885e-06	0.02789307	-0.02672674	0.0001393718	4.788761e-06
	0.000133692	4.771708e-06	0.0400662	0.006069686	0.0001393721	4.788765e-06	0.03669415	-0.01670082
1.7e+08	0.05884726	-0.05038824	0.0001008365	-4.087637e-05	0.1015917	-0.02880787	9.969333e-05	-4.57761e-05
	0.0001008364	-4.087651e-05	0.06594812	-0.05010188	0.0001039882	-4.432967e-05	0.106062	-0.02963869
	0.1015898	-0.02880864	0.0001039882	-4.43303e-05	0.05932313	-0.0498729	0.0001032605	-4.940247e-05
	9.969362e-05	-4.577693e-05	0.1060606	-0.02964023	0.0001032609	-4.940255e-05	0.06606294	-0.05026538
1.8e+08	0.02989286	-0.0831788	6.824898e-05	-3.738298e-05	0.0668368	-0.09690312	6.083783e-05	-4.027941e-05
	6.824883e-05	-3.738296e-05	0.02824524	-0.08135393	6.839132e-05	-3.967331e-05	0.06525003	-0.09707169
	0.06683464	-0.09690236	6.839114e-05	-3.967352e-05	0.0304166	-0.08274864	6.075684e-05	-4.29058e-05
	6.083779e-05	-4.027987e-05	0.06524823	-0.09707162	6.075715e-05	-4.290612e-05	0.02810293	-0.08148775
1.9e+08	-0.009294516	-0.06250325	8.897779e-05	-2.025307e-05	-0.002390116	-0.06518244	8.176096e-05	-1.563776e-05
	8.897778e-05	-2.025297e-05	-0.008595624	-0.0502474	9.052224e-05	-2.006208e-05	-0.003008751	-0.0580453
	-0.002390857	-0.06518113	9.052247e-05	-2.006228e-05	-0.008716078	-0.06213131	8.284287e-05	-1.507462e-05
	8.176125e-05	-1.563815e-05	-0.003009322	-0.05804475	8.284294e-05	-1.507497e-05	-0.008788783	-0.05013626
2e+08	-0.002735031	-0.031361	0.0001278214	-7.833432e-05	0.02606409	-0.004915141	0.0001280299	-7.207976e-05
	0.0001278215	-7.833435e-05	0.01188838	-0.02006715	0.000132173	-8.060296e-05	0.03554218	0.002353717
	0.0260639	-0.004914856	0.000132173	-8.060364e-05	-0.002077831	-0.03106572	0.0001327044	-7.360251e-05
	0.00012803	-7.208067e-05	0.03554185	0.002353284	0.0001327044	-7.360275e-05	0.01187025	-0.01991425
2.1e+08	0.008817666	-0.03560668	6.956216e-05	-0.0001628812	0.07258847	-0.03837836	7.203696e-05	-0.0001633326
	6.956209e-05	-0.0001628813	0.02660127	-0.03879942	7.136801e-05	-0.0001692693	0.08555565	-0.04185099
	0.07258749	-0.03837828	7.136747e-05	-0.0001692699	0.009544297	-0.03546438	7.470925e-05	-0.000169755
	7.203634e-05	-0.0001633335	0.08555432	-0.0418514	7.47092e-05	-0.0001697552	0.02654238	-0.03881564
2.2e+08	-0.005537947	-0.03637545	-3.538856e-05	-0.0001438695	0.02974477	-0.07834404	-3.978615e-05	-0.0001466931
	-3.538868e-05	-0.0001438695	0.000806925	-0.04581187	-3.865422e-05	-0.0001490282	0.03426521	-0.08818386
	0.02974378	-0.07834307	-3.865487e-05	-0.0001490281	-0.004845272	-0.03641282	-4.288611e-05	-0.0001525638
	-3.978706e-05	-0.0001466932	0.03426383	-0.08818316	-4.288625e-05	-0.000152564	0.0004920285	-0.04578108
2.3e+08	-0.009835877	-0.01720812	-3.750953e-05	-5.889703e-05	-0.01033097	-0.0316031	-4.539694e-05	-5.379131e-05
	-3.750952e-05	-5.889691e-05	-0.009258138	-0.0172081	-4.066521e-05	-5.931575e-05	-0.01222927	-0.03467049
	-0.01033102	-0.03160202	-4.066533e-05	-5.931559e-05	-0.009237374	-0.01736339	-4.91436e-05	-5.428385e-05
	-4.539723e-05	-5.37911e-05	-0.01222969	-0.0346695	-4.914379e-05	-5.428395e-05	-0.00963825	-0.01687812
2.4e+08	-0.0006798572	-0.01222703	3.123674e-05	-8.363742e-05	0.03287875	0.004285864	3.154328e-05	-7.282951e-05
	3.123681e-05	-8.363742e-05	0.0112865	-0.007190115	3.21295e-05	-8.449825e-05	0.03926779	0.007199264
	0.03287893	0.004286189	3.21294e-05	-8.449854e-05	-0.0001579621	-0.01244048	3.24763e-05	-7.292182e-05
	3.154313e-05	-7.28298e-05	0.03926769	0.007199616	3.247614e-05	-7.292183e-05	0.0111149	-0.006718526
2.5e+08	-0.01089452	-0.01045369	-2.583112e-05	-0.000180714	0.05589376	-0.03653598	-1.801565e-05	-0.0001768473
	-2.583115e-05	-0.000180714	0.009520985	-0.01915458	-2.619868e-05	-0.0001860678	0.0710986	-0.04398017
	0.05589341	-0.03653578	-2.619934e-05	-0.000186068	-0.01040958	-0.01076585	-1.73533e-05	-0.0001820264
	-1.801643e-05	-0.0001768475	0.07109804	-0.04397992	-1.735343e-05	-0.0001820263	0.009423165	-0.01878833
2.6e+08	-0.01402922	0.02011267	-0.0001698908	-0.0001356641	0.009197817	-0.04575313	-0.0001676742	-0.0001397881
	-0.0001698908	-0.000135664	-0.005373725	-0.002598167	-0.0001761391	-0.0001401328	0.01539114	-0.06681897
	0.009197524	-0.04575243	-0.0001761398	-0.0001401323	-0.01367082	0.01965037	-0.0001733397	-0.0001452322
	-0.000167675	-0.0001397875	0.01539066	-0.06681819	-0.0001733398	-0.0001452321	-0.005612647	-0.002221214
2.7e+08	0.02319571	0.03757934	-0.0001649733	1.575465e-05	0.00589382	0.01039379	-0.0001708818	1.711069e-05
	-0.0001649733	1.57547e-05	0.01617586	0.02179501	-0.0001718046	1.771926e-05	-0.003259504	-0.005486721
	0.005894094	0.01039442	-0.0001718046	1.771983e-05	0.02331533	0.03704679	-0.0001783595	1.83442e-05
	-0.0001708819	1.711138e-05	-0.003259349	-0.005485939	-0.0001783595	1.834427e-05	0.01588445	0.02241046
2.8e+08	0.04407816	0.006506154	-4.714992e-05	2.291377e-05	0.06478629	0.01370871	-4.737608e-05	3.363513e-05
	-4.714988e-05	2.291375e-05	0.04194466	0.003859997	-4.855164e-05	2.637639e-05	0.05914346	0.0112997
	0.06478659	0.01370882	-4.855153e-05	2.637649e-05	0.04398308	0.006070711	-4.933029e-05	3.759239e-05
	-4.737593e-05	3.363526e-05	0.05914376	0.01129994	-4.933031e-05	3.759244e-05	0.04185218	0.004664683
2.9e+08	0.01160992	-0.003663828	-7.094367e-05	-8.145201e-05	0.06314325	-0.04015102	-5.972268e-05	-7.53223e-05
	-7.094369e-05	-8.145202e-05	0.02252111	-0.01323175	-7.122628e-05	-8.243136e-05	0.07102956	-0.04781048
	0.06314317	-0.04015091	-7.122659e-05	-8.243131e-05	0.01145871	-0.004019649	-5.93159e-05	-7.579665e-05
	-5.972299e-05	-7.532223e-05	0.07102951	-0.04781034	-5.931592e-05	-7.57966e-05	0.02262857	-0.01245633
3e+08	0.007189506	0.04719159	-0.00021004	-3.011527e-05	0.01168652	-0.02381701	-0.000201309	-3.659524e-05
	-0.00021004	-3.011524e-05	0.01027924	0.0194231	-0.0002153524	-3.171675e-05	0.01335005	-0.0494679
	0.01168656	-0.02381661	-0.0002153527	-3.171617e-05	0.006900378	0.04680666	-0.0002057541	-3.902227e-05
	-0.0002013093	-3.659463e-05	0.01335006	-0.04946751	-0.0002057541	-3.902222e-05	0.01043879	0.02011148
3.1e+08	0.07525049	0.06363177	-0.0001777969	0.0001408218	0.04168001	0.03529103	-0.0001811879	0.0001353227
	-0.0001777969	0.0001408218	0.05616935	0.03940042	-0.0001844338	0.000145493	0.02193306	0.01263282
	0.0416804	0.0352912	-0.0001844334	0.0001454935	0.07472396	0.06332872	-0.000188355	0.0001387273
	-0.0001811875	0.0001353233	0.0219334	0.01263305	-0.000188355	0.0001387273	0.05627372	0.04012346
3.2e+08	0.1085679	-0.001010121	-2.597129e-05	0.0001525641	0.1115089	0.004667057	-2.900123e-05	0.0001586338
	-2.597129e-05	0.0001525641	0.0869178	-0.005663237	-2.652507e-05	0.0001600156	0.08990978	0.001282887
	0.1115092	0.004666915	-2.652465e-05	0.0001600157	0.107841	-0.001064008	-3.078165e-05	0.0001661471
	-2.90008e-05	0.0001586339	0.08991002	0.001282797	-3.078164e-05	0.0001661471	0.08711266	-0.004763352
3.3e+08	0.0566393	-0.03582284	-4.931627e-06	3.991855e-05	0.08589218	-0.06624043	4.592623e-06	4.661636e-05
	-4.931631e-06	3.991856e-05	0.05041832	-0.03619817	-2.091868e-06	4.295693e-05	0.08030396	-0.0663916
	0.08589215	-0.06624049	-2.091778e-06	4.295692e-05	0.055955	-0.03558397	7.370137e-06	5.057771e-05
	4.592712e-06	4.661635e-05	0.08030393	-0.06639166	7.370126e-06	5.057772e-05	0.05088604	-0.03525252
3.4e+08	0.0331457	0.02057851	-0.0001174627	5.586093e-05	0.02298763	-0.03326706	-0.0001053537	4.843688e-05
	-0.0001174627	5.586094e-05	0.02881398	0.002944002	-0.0001179287	5.611642e-05	0.01862403	-0.05133821
	0.02298772	-0.03326696	-0.0001179286	5.611672e-05	0.03250118	0.02086274	-0.0001048762	4.856631e-05
	-0.0001053537	4.843718e-05	0.01862406	-0.05133811	-0.0001048763	4.856633e-05	0.02951341	0.003690471
3.5e+08	0.1093058	0.04255604	-7.635618e-05	0.0001986834	0.07383369	0.02747986	-7.811973e-05	0.0001867825
	-7.635616e-05	0.0001986834	0.082891	0.02290157	-7.925804e-05	0.0002028075	0.04747593	0.008380235
	0.07383396	0.02747973	-7.925759e-05	0.0002028078	0.1085246	0.04301677	-8.109294e-05	0.0001895415
	-7.81193e-05	0.0001867828	0.04747611	0.008380168	-8.109294e-05	0.0001895415	0.08350912	0.02340296
3.6e+08	0.1494217	-0.03883437	7.061438e-05	0.0001910473	0.1463264	-0.02961	6.318938e-05	0.000190853
	7.061439e-05	0.0001910473	0.1148525	-0.03753696	7.232091e-05	0.0001986523	0.1143087	-0.02806955
	0.1463264	-0.02961033	7.232136e-05	0.0001986522	0.1486394	-0.03806391	6.330246e-05	0.0001980115
	6.318984e-05	0.0001908529	0.1143086	-0.02806979	6.330247e-05	0.0001980115	0.1153316	-0.03692342
3.7e+08	0.08666687	-0.09632091	0.0001119239	8.142424e-05	0.1004513	-0.1135982	0.0001147572	8.794321e-05
	0.000111924	8.142424e-05	0.06607997	-0.08068669	0.0001185636	8.527725e-05	0.08315574	-0.1014912
	0.1004511	-0.1135983	0.0001185638	8.527702e-05	0.0860717	-0.09523603	0.0001204639	9.306724e-05
	0.0001147574	8.7943e-05	0.08315555	-0.1014912	0.0001204639	9.306725e-05	0.06680818	-0.07991261
3.8e+08	0.03329012	-0.04814186	3.426385e-05	4.140165e-05	0.02083644	-0.07364953	4.554952e-05	3.711403e-05
	3.426385e-05	4.140165e-05	0.02723561	-0.04286181	3.905542e-05	4.02994e-05	0.01445714	-0.07378965
	0.02083638	-0.07364953	3.905554e-05	4.029933e-05	0.03298849	-0.04701073	5.119381e-05	3.694384e-05
	4.554962e-05	3.711396e-05	0.01445709	-0.0737896	5.11938e-05	3.694387e-05	0.02831111	-0.04236463
3.9e+08	0.09264055	-0.008866189	3.885948e-05	0.0001301535	0.07583108	-0.005787041	3.874661e-05	0.0001156354
	3.885949e-05	0.0001301535	0.07249468	-0.01502804	3.986206e-05	0.0001298355	0.05367383	-0.01435482
	0.07583111	-0.005787231	3.986233e-05	0.0001298354	0.09233326	-0.007700817	4.050323e-05	0.0001143865
	3.874689e-05	0.0001156354	0.05367385	-0.01435494	4.050325e-05	0.0001143866	0.07343286	-0.01500178
4e+08	0.1360068	-0.08257216	0.0001479332	0.000113702	0.1461442	-0.07557272	0.0001367581	0.0001085494
	0.0001479332	0.000113702	0.1031039	-0.07260696	0.0001500876	0.0001169198	0.1149761	-0.06722623
	0.146144	-0.075573	0.0001500878	0.0001169195	0.1358545	-0.0811236	0.0001376189	0.0001107608
	0.0001367583	0.0001085491	0.1149759	-0.06722641	0.000137619	0.0001107608	0.1036409	-0.07255235
4.1e+08	0.07442666	-0.1484163	0.0001768077	1.898984e-05	0.08494544	-0.1619037	0.0001715208	2.520379e-05
	0.0001768077	1.898982e-05	0.0513927	-0.1192788	0.0001838499	2.086478e-05	0.06480736	-0.1398871
	0.08494508	-0.1619037	0.00018385	2.086446e-05	0.07464592	-0.1468457	0.0001769272	2.830784e-05
	0.0001715209	2.520347e-05	0.06480708	-0.1398871	0.0001769272	2.830783e-05	0.05203134	-0.1189108
4.2e+08	-0.0007722402	-0.1151789	0.0001292602	-4.701306e-05	-0.005845393	-0.1196896	0.000136077	-4.463876e-05
	0.0001292602	-4.701307e-05	-0.001247377	-0.08679143	0.0001362305	-5.124027e-05	-0.009595448	-0.1013564
	-0.005845604	-0.1196895	0.0001362305	-5.124055e-05	-0.0002053022	-0.1137218	0.0001436796	-4.690615e-05
	0.000136077	-4.463905e-05	-0.009595562	-0.1013563	0.0001436796	-4.690615e-05	-0.0001992825	-0.08665554
4.3e+08	0.02412297	-0.05519097	8.150386e-05	-2.436802e-05	0.03781843	-0.04263601	8.45942e-05	-3.565907e-05
	8.150386e-05	-2.436802e-05	0.02469851	-0.04690134	8.314709e-05	-3.027042e-05	0.03122003	-0.03921166
	0.0378183	-0.04263607	8.314704e-05	-3.027063e-05	0.02478259	-0.05391382	8.796848e-05	-4.174584e-05
	8.459416e-05	-3.565927e-05	0.03121996	-0.03921172	8.79685e-05	-4.174582e-05	0.02555011	-0.04734789
4.4e+08	0.07060048	-0.09588314	0.0001236812	-1.745003e-05	0.1052354	-0.1058041	0.0001122429	-2.568862e-05
	0.0001236812	-1.745004e-05	0.0541165	-0.08419762	0.0001229394	-1.978113e-05	0.08615697	-0.09600112
	0.1052351	-0.1058042	0.0001229394	-1.978135e-05	0.07137321	-0.09449367	0.0001111837	-2.95716e-05
	0.0001122429	-2.568884e-05	0.08615669	-0.09600118	0.0001111837	-2.957161e-05	0.05437927	-0.08463706
4.5e+08	0.02559952	-0.1543936	0.0001359103	-7.7669e-05	0.03800799	-0.1839157	0.0001244202	-7.198259e-05
	0.0001359103	-7.766901e-05	0.01184726	-0.1232618	0.000138459	-7.793413e-05	0.02385765	-0.1604794
	0.03800761	-0.1839156	0.0001384589	-7.793433e-05	0.02682205	-0.1530688	0.0001250244	-7.172549e-05
	0.0001244201	-7.198281e-05	0.02385735	-0.1604792	0.0001250244	-7.172552e-05	0.01202768	-0.1232632
4.6e+08	-0.05034133	-0.1343686	0.0001025604	-0.0001314809	-0.05115549	-0.1373073	0.0001037862	-0.0001221169
	0.0001025604	-0.0001314809	-0.04087003	-0.09695409	0.0001075141	-0.0001363646	-0.04938679	-0.1110621
	-0.0511557	-0.137307	0.0001075139	-0.0001363648	-0.04888441	-0.1334788	0.0001088788	-0.0001244914
	0.0001037861	-0.0001221172	-0.04938689	-0.1110619	0.0001088788	-0.0001244915	-0.04030632	-0.09698859
4.7e+08	-0.05784916	-0.06661221	3.54485e-05	-0.0001525899	-0.02115763	-0.05899674	4.240439e-05	-0.0001555646
	3.544849e-05	-0.0001525899	-0.03335796	-0.05067107	3.503553e-05	-0.0001614313	-0.009774548	-0.04743932
	-0.02115777	-0.05899661	3.503523e-05	-0.0001614314	-0.05648411	-0.06599605	4.44875e-05	-0.0001638033
	4.240409e-05	-0.0001555647	-0.009774615	-0.04743925	4.44875e-05	-0.0001638033	-0.03293612	-0.05123674
4.8e+08	-0.01445302	-0.06058786	-3.606063e-06	-0.0001179302	0.03822899	-0.09899309	-9.580814e-06	-0.0001274232
	-3.606062e-06	-0.0001179302	-0.006095796	-0.05928161	-9.21476e-06	-0.0001228607	0.03852604	-0.09668376
	0.03822873	-0.09899296	-9.21505e-06	-0.0001228607	-0.01306329	-0.06001922	-1.42583e-05	-0.0001343408
	-9.5811e-06	-0.0001274232	0.03852581	-0.09668367	-1.42583e-05	-0.0001343409	-0.00631816	-0.05981423
