!
!4 port subset of full cascaded channels using these ports:15 37 16 38
# Hz S RI R 50
0	0.02792535	0.0002714157	4.947415e-07	-1.238751e-10	0.003699912	8.975747e-05	1.585531e-07	7.524076e-11
	4.947377e-07	-1.242541e-10	0.02976701	0.000274387	9.112332e-07	-3.204276e-10	0.003385663	9.211927e-05
	0.003709919	9.063003e-05	9.112385e-07	-3.210323e-10	0.02943171	0.0002735109	5.566758e-07	-1.397314e-10
	1.585537e-07	7.467249e-11	0.00338979	9.055577e-05	5.56684e-07	-1.392899e-10	0.02864619	0.0002749351
1e+07	0.07821538	0.01970099	1.049301e-05	4.514709e-06	0.07820401	0.06298001	7.307682e-06	2.736609e-06
	1.049302e-05	4.514743e-06	0.07704628	0.01801492	1.268477e-05	5.449045e-06	0.07723756	0.06298641
	0.07820699	0.0629765	1.268482e-05	5.449099e-06	0.07820227	0.0197031	9.28939e-06	3.50903e-06
	7.307705e-06	2.736654e-06	0.07724158	0.06298151	9.289366e-06	3.509023e-06	0.0770609	0.01803922
2e+07	0.07754042	-0.0276207	1.788672e-05	-8.195334e-06	0.1311796	-0.01734527	1.145592e-05	-6.636051e-06
	1.788654e-05	-8.195475e-06	0.07489217	-0.02796204	2.187332e-05	-9.805093e-06	0.1312075	-0.01554052
	0.1311896	-0.01734307	2.187338e-05	-9.805275e-06	0.07750496	-0.02760442	1.491698e-05	-8.154121e-06
	1.14558e-05	-6.636122e-06	0.131233	-0.01554629	1.491692e-05	-8.15395e-06	0.07490695	-0.02792339
3e+07	0.02542718	-0.01579012	8.899554e-06	-3.067143e-05	0.04736445	-0.06220317	3.537794e-06	-2.165575e-05
	8.899532e-06	-3.067156e-05	0.02527564	-0.01531374	1.104014e-05	-3.674712e-05	0.05064804	-0.0619296
	0.04736717	-0.06220312	1.104004e-05	-3.674735e-05	0.02536794	-0.01580257	5.278066e-06	-2.709117e-05
	3.53771e-06	-2.165589e-05	0.0506514	-0.06192909	5.278089e-06	-2.709109e-05	0.02532203	-0.01521833
4e+07	0.04828903	0.04272808	-3.124624e-05	-3.189261e-05	0.01424644	0.02581508	-2.573332e-05	-1.870767e-05
	-3.124649e-05	-3.18925e-05	0.04875776	0.03906218	-3.586472e-05	-3.874301e-05	0.01591103	0.02145777
	0.01425295	0.02581135	-3.586461e-05	-3.87429e-05	0.04820864	0.04274031	-3.015911e-05	-2.46185e-05
	-2.573322e-05	-1.870753e-05	0.01591727	0.02145089	-3.015887e-05	-2.461849e-05	0.04883485	0.03916434
5e+07	0.1104311	0.01484742	-4.736738e-05	1.220245e-05	0.1060265	0.04949722	-3.189423e-05	1.633869e-05
	-4.736754e-05	1.220247e-05	0.1056839	0.009910692	-5.643246e-05	1.138358e-05	0.1024053	0.04657898
	0.106026	0.04949251	-5.643248e-05	1.13833e-05	0.1103341	0.01486938	-3.992217e-05	1.623372e-05
	-3.189415e-05	1.63383e-05	0.1024046	0.04657305	-3.992187e-05	1.623344e-05	0.1057707	0.0100109
6e+07	0.08535207	-0.04594476	-2.145787e-05	4.448184e-05	0.1272976	-0.04440878	-6.597145e-06	3.625089e-05
	-2.145814e-05	4.448221e-05	0.07819539	-0.04495635	-2.914444e-05	5.075371e-05	0.1247976	-0.04116978
	0.1272977	-0.04440939	-2.914457e-05	5.075384e-05	0.08520192	-0.04588992	-1.273007e-05	4.210759e-05
	-6.597788e-06	3.625095e-05	0.1247963	-0.04117207	-1.273055e-05	4.210712e-05	0.07827922	-0.04483117
7e+07	0.02866095	-0.01949162	1.98994e-05	5.469694e-05	0.03313279	-0.06206725	2.67885e-05	3.529771e-05
	1.989963e-05	5.469728e-05	0.02858515	-0.01515203	1.861966e-05	6.656039e-05	0.0387545	-0.05931913
	0.03313377	-0.06206806	1.862001e-05	6.656058e-05	0.0285021	-0.01934318	2.623375e-05	4.548529e-05
	2.678884e-05	3.52983e-05	0.03875441	-0.05932015	2.623354e-05	4.548569e-05	0.02871507	-0.01498552
8e+07	0.06597269	0.03563015	6.885234e-05	1.797517e-05	0.02573554	0.03199188	5.580809e-05	-4.189888e-06
	6.885234e-05	1.797524e-05	0.06982123	0.03161604	7.894964e-05	2.799532e-05	0.03197952	0.02480933
	0.0257371	0.03198964	7.895022e-05	2.79948e-05	0.06587042	0.03581762	6.514425e-05	4.089855e-06
	5.580817e-05	-4.190055e-06	0.03198039	0.02480646	6.514404e-05	4.090133e-06	0.07003065	0.03175076
9e+07	0.1256016	-0.007964181	5.408145e-05	-5.200343e-05	0.1214952	0.03180008	2.60135e-05	-5.490611e-05
	5.408158e-05	-5.200327e-05	0.1204678	-0.01682179	6.904134e-05	-5.41256e-05	0.1176601	0.02246256
	0.1214945	0.03179713	6.904114e-05	-5.412648e-05	0.1254895	-0.007793122	3.90724e-05	-5.791136e-05
	2.601372e-05	-5.490627e-05	0.1176588	0.02245916	3.907291e-05	-5.791099e-05	0.1206687	-0.01677283
1e+08	0.09025019	-0.07381428	-8.554429e-06	-7.088228e-05	0.1228615	-0.06649713	-2.884392e-05	-5.177965e-05
	-8.55442e-06	-7.088223e-05	0.07842235	-0.07303864	-1.85556e-07	-8.341399e-05	0.1152636	-0.06598535
	0.1228591	-0.06649788	-1.859669e-07	-8.341439e-05	0.09006741	-0.07355856	-2.288073e-05	-6.342277e-05
	-2.884419e-05	-5.17801e-05	0.1152608	-0.06598676	-2.288053e-05	-6.342317e-05	0.07855016	-0.07298204
1.1e+08	0.0256575	-0.04907435	-5.656883e-05	-4.441317e-05	0.02544953	-0.06934539	-5.915985e-05	-1.596364e-05
	-5.656876e-05	-4.441357e-05	0.02491481	-0.03909788	-5.927487e-05	-5.993569e-05	0.02912022	-0.06341718
	0.0254487	-0.06934548	-5.927567e-05	-5.993534e-05	0.02555055	-0.04864261	-6.275151e-05	-2.863592e-05
	-5.916045e-05	-1.5963e-05	0.02911946	-0.06341616	-6.275161e-05	-2.863586e-05	0.02508197	-0.03895732
1.2e+08	0.05234554	0.007495635	-8.234664e-05	1.464158e-05	0.02983727	0.02400255	-6.148643e-05	4.13195e-05
	-8.234724e-05	1.464134e-05	0.0628165	0.005092772	-9.717569e-05	4.469072e-06	0.04094871	0.01663391
	0.02983664	0.02400119	-9.717548e-05	4.470133e-06	0.05242296	0.007921035	-7.453513e-05	3.36429e-05
	-6.148582e-05	4.132065e-05	0.0409495	0.01663276	-7.453515e-05	3.364301e-05	0.0630985	0.00516464
1.3e+08	0.1059044	-0.02658315	-3.912606e-05	8.426261e-05	0.1211922	0.01147997	4.50432e-07	8.50035e-05
	-3.912614e-05	8.426309e-05	0.104345	-0.04144323	-5.839256e-05	8.976286e-05	0.1192997	-0.0057468
	0.1211901	0.01147864	-5.839187e-05	8.976281e-05	0.1059869	-0.02626347	-1.588801e-05	9.091997e-05
	4.519889e-07	8.500347e-05	0.1192983	-0.005748788	-1.588769e-05	9.092032e-05	0.1045699	-0.04152824
1.4e+08	0.07540011	-0.08655761	4.70075e-05	8.109934e-05	0.1095681	-0.08131527	7.291088e-05	4.849269e-05
	4.700758e-05	8.109927e-05	0.0600125	-0.09021751	3.85671e-05	0.0001002593	0.09547848	-0.0876792
	0.1095658	-0.08131503	3.856732e-05	0.0001002591	0.07540936	-0.08615592	6.708527e-05	6.594461e-05
	7.29117e-05	4.849148e-05	0.09547649	-0.08767896	6.708583e-05	6.594445e-05	0.06006731	-0.09028753
1.5e+08	0.01214766	-0.06985314	8.834097e-05	1.508885e-05	0.01824812	-0.07432068	8.122787e-05	-2.501515e-05
	8.834074e-05	1.508901e-05	0.008733979	-0.05727399	9.720561e-05	3.466011e-05	0.01437848	-0.06650118
	0.01824704	-0.07431987	9.720585e-05	3.465984e-05	0.01231012	-0.06928641	9.080702e-05	-8.989318e-06
	8.122761e-05	-2.501646e-05	0.01437861	-0.06650039	9.080727e-05	-8.989879e-06	0.008792015	-0.05719784
1.6e+08	0.02048958	-0.01589204	7.594817e-05	-5.379452e-05	0.02742875	0.009870754	4.257802e-05	-7.896883e-05
	7.59483e-05	-5.37942e-05	0.03649821	-0.01672866	9.711286e-05	-4.650961e-05	0.0400657	0.006070899
	0.02742805	0.009870794	9.711276e-05	-4.651015e-05	0.02092448	-0.01543114	6.119477e-05	-7.47869e-05
	4.257686e-05	-7.896964e-05	0.0400662	0.006069686	6.119449e-05	-7.478744e-05	0.03669415	-0.01670082
1.7e+08	0.06237335	-0.0274674	9.859729e-06	-0.0001056192	0.1047716	-0.006414033	-3.721707e-05	-9.906715e-05
	9.859968e-06	-0.0001056192	0.06594812	-0.05010188	3.095827e-05	-0.0001167918	0.106062	-0.02963869
	0.1047702	-0.006413921	3.095767e-05	-0.0001167919	0.06279745	-0.02726061	-2.019456e-05	-0.0001102039
	-3.721855e-05	-9.906675e-05	0.1060606	-0.02964023	-2.019509e-05	-0.0001102041	0.06606294	-0.05026538
1.8e+08	0.04730171	-0.06813014	-8.724224e-05	-7.663289e-05	0.08595686	-0.0816517	-0.0001154457	-3.123591e-05
	-8.724212e-05	-7.663293e-05	0.02824524	-0.08135393	-8.071237e-05	-0.0001013069	0.06525003	-0.09707169
	0.08595562	-0.08165062	-8.071273e-05	-0.0001013065	0.04757622	-0.06790903	-0.0001115404	-5.299159e-05
	-0.0001154463	-3.123451e-05	0.06524823	-0.09707162	-0.0001115409	-5.299141e-05	0.02810293	-0.08148775
1.9e+08	0.002317917	-0.06016015	-0.0001149069	2.642697e-05	0.01320754	-0.06589265	-9.604672e-05	7.909107e-05
	-0.0001149069	2.642687e-05	-0.008595624	-0.0502474	-0.000130108	2.966142e-06	-0.003008751	-0.0580453
	0.01320732	-0.0658915	-0.0001301079	2.966577e-06	0.002713353	-0.05981199	-0.0001111944	5.946009e-05
	-9.604612e-05	7.909237e-05	-0.003009322	-0.05804475	-0.0001111947	5.946065e-05	-0.008788783	-0.05013626
2e+08	-0.002479558	-0.02079545	-5.219919e-05	0.0001032639	0.02736201	-0.001445118	-2.587647e-08	0.0001235372
	-5.219925e-05	0.0001032638	0.01188838	-0.02006715	-8.251491e-05	9.999999e-05	0.03554218	0.002353717
	0.02736199	-0.001444672	-8.251458e-05	0.0001000003	-0.001845907	-0.02061998	-2.762961e-05	0.0001233648
	-2.447217e-08	0.0001235376	0.03554185	0.002353284	-2.762927e-05	0.0001233653	0.01187025	-0.01991425
2.1e+08	0.02055929	-0.01090892	4.310078e-05	0.000113119	0.08101761	-0.01873856	9.468592e-05	8.886273e-05
	4.310079e-05	0.0001131191	0.02660127	-0.03879942	2.150147e-05	0.0001354289	0.08555565	-0.04185099
	0.08101714	-0.01873814	2.150201e-05	0.0001354288	0.02111601	-0.01106768	7.787411e-05	0.0001114382
	9.468724e-05	8.886189e-05	0.08555432	-0.0418514	7.787468e-05	0.0001114382	0.02654238	-0.03881564
2.2e+08	0.02504011	-0.02165653	0.0001254065	4.243658e-05	0.05943773	-0.06485722	0.0001444331	-1.465083e-05
	0.0001254067	4.243651e-05	0.000806925	-0.04581187	0.0001275174	7.202852e-05	0.03426521	-0.08818386
	0.05943745	-0.06485635	0.0001275176	7.202797e-05	0.02532479	-0.02185857	0.0001500092	1.09398e-05
	0.0001444332	-1.465241e-05	0.03426383	-0.08818316	0.0001500096	1.093944e-05	0.0004920285	-0.04578108
2.3e+08	0.01526689	-0.02206447	0.0001171685	-7.958101e-05	0.0184279	-0.04159355	8.57555e-05	-0.0001359781
	0.0001171684	-7.958113e-05	-0.009258138	-0.0172081	0.0001389549	-5.815207e-05	-0.01222927	-0.03467049
	0.01842819	-0.04159285	0.0001389545	-5.815243e-05	0.01553748	-0.02213234	0.0001064922	-0.0001194383
	8.575435e-05	-0.000135979	-0.01222969	-0.0346695	0.0001064921	-0.0001194388	-0.00963825	-0.01687812
2.4e+08	0.008001451	-0.01249186	6.901756e-06	-0.0001468556	0.04091553	-0.00777454	-6.130033e-05	-0.0001609418
	6.901699e-06	-0.0001468556	0.0112865	-0.007190115	4.3682e-05	-0.0001480313	0.03926779	0.007199264
	0.04091579	-0.007774341	4.368157e-05	-0.0001480314	0.008400228	-0.01268305	-2.788156e-05	-0.0001646516
	-6.130157e-05	-0.0001609415	0.03926769	0.007199616	-2.788188e-05	-0.0001646518	0.0111149	-0.006718526
2.5e+08	0.005875169	0.005253483	-0.0001153283	-9.567806e-05	0.06403167	-0.02969451	-0.0001714056	-4.876753e-05
	-0.0001153284	-9.567811e-05	0.009520985	-0.01915458	-9.301724e-05	-0.0001312721	0.0710986	-0.04398017
	0.0640316	-0.02969425	-9.301765e-05	-0.0001312717	0.006123632	0.004787276	-0.0001538483	-8.498637e-05
	-0.0001714062	-4.876644e-05	0.07109804	-0.04397992	-0.0001538486	-8.498629e-05	0.009423165	-0.01878833
2.6e+08	0.02343526	0.0264653	-0.0001444926	3.182767e-05	0.03983757	-0.04083483	-0.0001427236	0.0001030171
	-0.0001444927	3.182768e-05	-0.005373725	-0.002598167	-0.0001620357	-4.21244e-06	0.01539114	-0.06681897
	0.03983767	-0.04083432	-0.0001620356	-4.211857e-06	0.02333793	0.0259938	-0.0001653303	7.123679e-05
	-0.000142723	0.0001030181	0.01539066	-0.06681819	-0.0001653304	7.123705e-05	-0.005612647	-0.002221214
2.7e+08	0.05583546	0.01963021	-7.083633e-05	0.000128468	0.03852251	-0.01150132	-2.204287e-05	0.0001736409
	-7.083636e-05	0.000128468	0.01617586	0.02179501	-0.0001023051	0.0001187214	-0.003259504	-0.005486721
	0.03852292	-0.01150103	-0.0001023047	0.0001187216	0.05560086	0.01935576	-5.226076e-05	0.0001713021
	-2.204192e-05	0.000173641	-0.003259349	-0.005485939	-5.226065e-05	0.0001713022	0.01588445	0.02241046
2.8e+08	0.05505086	-0.01160171	5.158915e-05	0.0001492083	0.07214105	-0.01630434	0.0001217487	0.0001514735
	5.158913e-05	0.0001492084	0.04194466	0.003859997	1.821076e-05	0.0001587248	0.05914346	0.0112997
	0.07214129	-0.01630437	1.821124e-05	0.0001587246	0.05483929	-0.0118181	9.429345e-05	0.0001635698
	0.0001217492	0.000151473	0.05914376	0.01129994	9.429348e-05	0.0001635699	0.04185218	0.004664683
2.9e+08	0.02306345	-0.004343768	0.0001695762	5.16779e-05	0.06123363	-0.04984734	0.0002264888	-8.679338e-06
	0.0001695763	5.167806e-05	0.02252111	-0.01323175	0.0001494703	9.341661e-05	0.07102956	-0.04781048
	0.06123364	-0.04984726	0.0001494705	9.341605e-05	0.02274961	-0.004645683	0.0002113582	3.220859e-05
	0.0002264889	-8.680027e-06	0.07102951	-0.04781034	0.0002113583	3.220868e-05	0.02262857	-0.01245633
3e+08	0.03730072	0.0425791	0.0001312535	-0.0001181746	0.02936485	-0.02758111	0.0001106775	-0.0002040185
	0.0001312538	-0.0001181746	0.01027924	0.0194231	0.0001621331	-7.59692e-05	0.01335005	-0.0494679
	0.02936503	-0.02758086	0.0001621328	-7.59697e-05	0.03670234	0.04235494	0.0001470291	-0.0001661445
	0.000110677	-0.000204019	0.01335006	-0.04946751	0.0001470293	-0.0001661445	0.01043879	0.02011148
3.1e+08	0.1027987	0.03577039	-1.253072e-05	-0.0001529048	0.0652408	0.008074413	-8.464645e-05	-0.0001821337
	-1.253063e-05	-0.0001529051	0.05616935	0.03940042	3.187601e-05	-0.0001581068	0.02193306	0.01263282
	0.06524115	0.008074446	3.187547e-05	-0.0001581067	0.1020791	0.03581787	-4.091522e-05	-0.0001971167
	-8.464697e-05	-0.0001821336	0.0219334	0.01263305	-4.091515e-05	-0.0001971168	0.05627372	0.04012346
3.2e+08	0.1129552	-0.03308438	-0.0001043838	-9.794424e-05	0.1107138	-0.03455038	-0.0001665728	-7.707503e-05
	-0.0001043839	-9.79444e-05	0.0869178	-0.005663237	-8.195233e-05	-0.0001228685	0.08990978	0.001282887
	0.1107139	-0.03455059	-8.195263e-05	-0.0001228682	0.1122393	-0.03282829	-0.0001537792	-0.0001060727
	-0.0001665731	-7.707476e-05	0.08991002	0.001282797	-0.0001537792	-0.0001060729	0.08711266	-0.004763352
3.3e+08	0.05242229	-0.05060079	-0.0001690678	2.244606e-06	0.06772841	-0.08644322	-0.0002136586	6.227338e-05
	-0.000169068	2.24447e-06	0.05041832	-0.03619817	-0.0001602275	-3.514976e-05	0.08030396	-0.0663916
	0.06772836	-0.08644329	-0.0001602274	-3.514923e-05	0.05177066	-0.05019193	-0.0002118327	2.954723e-05
	-0.0002136588	6.227379e-05	0.08030393	-0.06639166	-0.0002118329	2.954707e-05	0.05088604	-0.03525252
3.4e+08	0.04226123	0.01209081	-9.759684e-05	0.0001718676	0.01854937	-0.037628	-7.22174e-05	0.0002631042
	-9.75971e-05	0.0001718677	0.02881398	0.002944002	-0.0001312336	0.0001305984	0.01862403	-0.05133821
	0.01854946	-0.03762793	-0.0001312332	0.0001305987	0.04158668	0.01256139	-0.0001089133	0.000227925
	-7.22171e-05	0.0002631047	0.01862406	-0.05133811	-0.0001089136	0.0002279251	0.02951341	0.003690471
3.5e+08	0.1216918	0.01857936	9.118363e-05	0.0001497295	0.08114367	0.00890133	0.000183538	0.0001736997
	9.118369e-05	0.0001497299	0.082891	0.02290157	3.678559e-05	0.0001626499	0.04747593	0.008380235
	0.08114389	0.00890122	3.678603e-05	0.0001626496	0.1209697	0.01927765	0.0001304289	0.0001963009
	0.0001835387	0.0001736997	0.04747611	0.008380168	0.0001304288	0.0001963012	0.08350912	0.02340296
3.6e+08	0.1440061	-0.06981811	0.0001405139	2.787872e-05	0.1370956	-0.06168627	0.000202542	-2.04093e-05
	0.0001405141	2.787881e-05	0.1148525	-0.03753696	0.0001254671	7.026247e-05	0.1143087	-0.02806955
	0.1370956	-0.06168653	0.0001254672	7.026207e-05	0.143368	-0.06888069	0.000199247	2.736859e-05
	0.0002025424	-2.04097e-05	0.1143086	-0.02806979	0.0001992472	2.736873e-05	0.1153316	-0.03692342
3.7e+08	0.06670214	-0.1139469	0.0001239028	-6.043909e-05	0.07100754	-0.1323352	0.0001426193	-0.0001239887
	0.000123903	-6.043913e-05	0.06607997	-0.08068669	0.0001348038	-2.737652e-05	0.08315574	-0.1014912
	0.07100735	-0.1323353	0.0001348037	-2.737687e-05	0.06627824	-0.1127624	0.0001639392	-9.919965e-05
	0.0001426193	-0.0001239892	0.08315555	-0.1014912	0.0001639394	-9.919961e-05	0.06680818	-0.07991261
3.8e+08	0.0183835	-0.04895484	5.6767e-05	-0.0001674165	-0.003181619	-0.06940697	3.136452e-05	-0.0002454452
	5.676715e-05	-0.0001674166	0.02723561	-0.04286181	8.773252e-05	-0.0001397809	0.01445714	-0.07378965
	-0.003181693	-0.0694069	8.773207e-05	-0.0001397811	0.01828164	-0.04779551	6.148732e-05	-0.00022831
	3.136408e-05	-0.0002454457	0.01445709	-0.0737896	6.148748e-05	-0.0002283102	0.02831111	-0.04236463
3.9e+08	0.09007337	-0.01151527	-0.0001348062	-0.0001377555	0.07027081	-0.002627775	-0.000232951	-0.0001677528
	-0.0001348063	-0.0001377557	0.07249468	-0.01502804	-8.101258e-05	-0.0001496455	0.05367383	-0.01435482
	0.07027085	-0.002627844	-8.101294e-05	-0.0001496451	0.08996495	-0.01042451	-0.0001841657	-0.0001866599
	-0.0002329517	-0.0001677526	0.05367385	-0.01435494	-0.0001841657	-0.0001866601	0.07343286	-0.01500178
4e+08	0.12886	-0.09501334	-0.0001580021	2.804824e-05	0.1377309	-0.08654737	-0.0002333119	9.434571e-05
	-0.0001580023	2.804823e-05	0.1031039	-0.07260696	-0.0001421376	-2.474367e-05	0.1149761	-0.06722623
	0.1377308	-0.08654754	-0.0001421376	-2.474329e-05	0.1288244	-0.09371443	-0.0002285527	3.783709e-05
	-0.000233312	9.434629e-05	0.1149759	-0.06722641	-0.0002285527	3.783699e-05	0.1036409	-0.07255235
4.1e+08	0.05235624	-0.1565265	-8.217139e-05	0.0001115542	0.05955208	-0.1695132	-7.934458e-05	0.0001962008
	-8.217149e-05	0.0001115542	0.0513927	-0.1192788	-0.0001096851	7.403222e-05	0.06480736	-0.1398871
	0.05955181	-0.1695132	-0.0001096848	7.403246e-05	0.05265478	-0.1550648	-0.000118599	0.0001679784
	-7.934432e-05	0.0001962013	0.06480708	-0.1398871	-0.0001185991	0.0001679784	0.05203134	-0.1189108
4.2e+08	-0.02740549	-0.1023281	3.454613e-06	0.0001403382	-0.03497293	-0.1051456	4.91746e-05	0.0001987471
	3.45456e-06	0.0001403383	-0.001247377	-0.08679143	-3.432506e-05	0.0001309681	-0.009595448	-0.1013564
	-0.03497311	-0.1051455	-3.43247e-05	0.0001309681	-0.02664951	-0.1010389	1.424523e-05	0.0002042456
	4.917509e-05	0.0001987473	-0.009595562	-0.1013563	1.424517e-05	0.0002042457	-0.0001992825	-0.08665554
4.3e+08	0.01658794	-0.02754837	0.000132833	0.0001147984	0.02944793	-0.01488435	0.0002208815	0.0001393411
	0.0001328331	0.0001147985	0.02469851	-0.04690134	9.113913e-05	0.0001298986	0.03122003	-0.03921166
	0.02944791	-0.01488425	9.113944e-05	0.0001298983	0.01736441	-0.02669177	0.0001900936	0.0001592148
	0.000220882	0.0001393407	0.03121996	-0.03921172	0.0001900936	0.0001592149	0.02555011	-0.04734789
4.4e+08	0.07897667	-0.08019515	0.0001710137	-5.62713e-05	0.1120054	-0.09140639	0.000259013	-0.0001253053
	0.0001710139	-5.627125e-05	0.0541165	-0.08419762	0.0001533464	-4.316435e-06	0.08615697	-0.09600112
	0.1120053	-0.0914064	0.0001533463	-4.316889e-06	0.07957737	-0.07925343	0.0002509329	-7.486937e-05
	0.0002590129	-0.0001253059	0.08615669	-0.09600118	0.000250933	-7.486925e-05	0.05437927	-0.08463706
4.5e+08	0.02372117	-0.1501808	5.814486e-05	-0.000149406	0.03519944	-0.1806584	4.841489e-05	-0.0002622043
	5.814497e-05	-0.0001494061	0.01184726	-0.1232618	9.187741e-05	-0.0001039977	0.02385765	-0.1604794
	0.03519923	-0.1806583	9.187704e-05	-0.0001039979	0.0246739	-0.1491093	9.09063e-05	-0.0002255518
	4.841449e-05	-0.0002622046	0.02385735	-0.1604792	9.090652e-05	-0.0002255518	0.01202768	-0.1232632
4.6e+08	-0.06678194	-0.1142159	-6.008352e-05	-0.0001393395	-0.06654183	-0.1210253	-0.0001440459	-0.0001942401
	-6.008346e-05	-0.0001393396	-0.04087003	-0.09695409	-6.962241e-06	-0.0001380496	-0.04938679	-0.1110621
	-0.06654195	-0.1210251	-6.962588e-06	-0.0001380495	-0.06543604	-0.1135441	-9.35624e-05	-0.0002080012
	-0.0001440464	-0.00019424	-0.04938689	-0.1110619	-9.356232e-05	-0.0002080014	-0.04030632	-0.09698859
4.7e+08	-0.05645585	-0.01857905	-0.0001412856	-6.455567e-05	-0.02184323	-0.01931904	-0.0002288195	-5.414589e-05
	-0.0001412857	-6.455582e-05	-0.03335796	-0.05067107	-0.0001072833	-9.764986e-05	-0.009774548	-0.04743932
	-0.0218432	-0.01931881	-0.0001072835	-9.764949e-05	-0.05524733	-0.01848953	-0.0002090704	-9.247819e-05
	-0.0002288198	-5.414554e-05	-0.009774615	-0.04743925	-0.0002090705	-9.247836e-05	-0.03293612	-0.05123674
4.8e+08	0.02450449	-0.02208007	-0.0001657278	6.76624e-05	0.06988607	-0.06688437	-0.0002395216	0.0001377272
	-0.000165728	6.766236e-05	-0.006095796	-0.05928161	-0.0001594471	1.964e-05	0.03852604	-0.09668376
	0.06988611	-0.06688425	-0.0001594469	1.964041e-05	0.02526271	-0.02204218	-0.0002435927	9.640228e-05
	-0.0002395215	0.0001377277	0.03852581	-0.09668367	-0.0002435928	9.64022e-05	-0.00631816	-0.05981423
