!
!4 port subset of full cascaded channels using these ports:5 37 6 38
# Hz S RI R 50
0	0.02795702	0.000274407	0.9704689	-7.633215e-05	0.003666683	9.202247e-05	-0.003785127	3.560919e-06
	0.9704684	-7.633143e-05	0.02976701	0.000274387	-0.003969317	3.707707e-06	0.003385663	9.211927e-05
	0.003676012	9.045998e-05	-0.003950016	3.648315e-06	0.02955504	0.0002747116	0.9709651	-7.549515e-05
	-0.003768308	3.506095e-06	0.00338979	9.055577e-05	0.970961	-7.549552e-05	0.02864619	0.0002749351
1e+07	0.07751933	0.01908822	0.6145476	-0.721577	0.07746853	0.06243522	-0.006641106	0.005408722
	0.6145477	-0.7215773	0.07704628	0.01801492	-0.006637143	0.005403933	0.07723756	0.06298641
	0.07747151	0.06243168	-0.006631392	0.005395321	0.07753362	0.01911684	0.6146523	-0.7214914
	-0.006636676	0.005402354	0.07724158	0.06298151	0.6146522	-0.7214912	0.0770609	0.01803922
2e+07	0.07686123	-0.02751268	-0.1267205	-0.9249672	0.1306483	-0.01725265	0.005912766	0.007094115
	-0.1267211	-0.9249679	0.07489217	-0.02796204	0.005910211	0.007096846	0.1312075	-0.01554052
	0.1306621	-0.01725134	0.005907594	0.007085192	0.07687099	-0.02748552	-0.1264594	-0.9250222
	0.005912355	0.007091386	0.131233	-0.01554629	-0.1264588	-0.9250213	0.07490695	-0.02792339
3e+07	0.02611159	-0.016654	-0.7710108	-0.5183673	0.04809216	-0.06332481	0.002449919	-0.002761413
	-0.7710109	-0.5183675	0.02527564	-0.01531374	0.0024403	-0.002775179	0.05064804	-0.0619296
	0.04809457	-0.06332499	0.002431472	-0.002776911	0.02601942	-0.01663746	-0.7708002	-0.5186942
	0.002443469	-0.002762933	0.0506514	-0.06192909	-0.7708003	-0.5186942	0.02532203	-0.01521833
4e+07	0.04733395	0.03917021	-0.8886472	0.233583	0.01306174	0.02221268	0.003496544	0.00313981
	-0.8886473	0.2335832	0.04875776	0.03906218	0.003471512	0.00314736	0.01591103	0.02145777
	0.0130683	0.02220866	0.003469342	0.003148807	0.04726285	0.03933158	-0.8887777	0.2330857
	0.003494258	0.003142666	0.01591727	0.02145089	-0.8887776	0.2330854	0.04883485	0.03916434
5e+07	0.105684	0.01242858	-0.4121985	0.8019835	0.1015142	0.04747203	0.005591524	-0.008666573
	-0.4121985	0.8019835	0.1056839	0.009910692	0.005580272	-0.008642896	0.1024053	0.04657898
	0.1015135	0.04746728	0.005579469	-0.008642104	0.1057583	0.0125815	-0.4127666	0.8016904
	0.005590248	-0.008667705	0.1024046	0.04657305	-0.4127665	0.8016902	0.1057707	0.0100109
6e+07	0.08044043	-0.04431739	0.3100606	0.8371393	0.1234034	-0.0429895	-0.009013438	-0.004355043
	0.3100608	0.8371394	0.07819539	-0.04495635	-0.009009524	-0.004321914	0.1247976	-0.04116978
	0.1234033	-0.0429902	-0.009007581	-0.00432042	0.08047911	-0.04431155	0.3093513	0.8374107
	-0.009019484	-0.004347654	0.1247963	-0.04117207	0.3093513	0.8374109	0.07827922	-0.04483117
7e+07	0.0276647	-0.01727448	0.827908	0.3301288	0.03263306	-0.06108297	-0.000825647	0.003847799
	0.8279081	0.3301289	0.02858515	-0.01515203	-0.0007875018	0.003869182	0.0387545	-0.05931913
	0.03263401	-0.06108365	-0.0007816124	0.00386621	0.02750151	-0.01720656	0.8275939	0.3309432
	-0.0008151232	0.003849469	0.03875441	-0.05932015	0.827594	0.3309433	0.02871507	-0.01498552
8e+07	0.06466559	0.0334672	0.7891373	-0.3945518	0.02389648	0.02915902	-0.004480501	-0.002098612
	0.7891371	-0.3945518	0.06982123	0.03161604	-0.00444458	-0.002120106	0.03197952	0.02480933
	0.02389798	0.02915659	-0.004442392	-0.002130724	0.0645327	0.0337984	0.7895764	-0.3936695
	-0.00448072	-0.00210193	0.03198039	0.02480646	0.7895766	-0.3936695	0.07003065	0.03175076
9e+07	0.1186359	-0.009685823	0.2354872	-0.8353523	0.1149652	0.03054614	-0.002720496	0.01086338
	0.2354872	-0.8353526	0.1204678	-0.01682179	-0.00272503	0.01083204	0.1176601	0.02246256
	0.1149641	0.03054327	-0.002732641	0.01082187	0.11876	-0.009330102	0.2365486	-0.8350485
	-0.002720715	0.01085947	0.1176588	0.02245916	0.2365486	-0.8350487	0.1206687	-0.01677283
1e+08	0.08156314	-0.06872624	-0.4509784	-0.7356516	0.1162663	-0.06228522	0.01193597	0.001708011
	-0.4509784	-0.7356515	0.07842235	-0.07303864	0.0119172	0.001702788	0.1152636	-0.06598535
	0.1162639	-0.06228605	0.01190801	0.001701183	0.08171946	-0.06858663	-0.4499394	-0.7362971
	0.01192814	0.001706002	0.1152608	-0.06598676	-0.4499394	-0.7362972	0.07855016	-0.07298204
1.1e+08	0.02368055	-0.0395866	-0.8501306	-0.1604945	0.02430862	-0.06301003	9.794507e-05	-0.007137004
	-0.8501306	-0.1604945	0.02491481	-0.03909788	6.893551e-05	-0.007140694	0.02912022	-0.06341718
	0.02430791	-0.06300903	6.573461e-05	-0.007131326	0.02359956	-0.03945572	-0.8498953	-0.1618111
	9.517941e-05	-0.00712891	0.02911946	-0.06341616	-0.8498953	-0.1618111	0.02508197	-0.03895732
1.2e+08	0.05510492	0.0112371	-0.6807893	0.523801	0.03100916	0.02552439	0.001315453	0.0003510281
	-0.6807894	0.523801	0.0628165	0.005092772	0.001291248	0.0003949731	0.04094871	0.01663391
	0.03100952	0.02552374	0.001296637	0.0004016918	0.05499088	0.01165828	-0.6816738	0.5226594
	0.001320252	0.0003568483	0.0409495	0.01663276	-0.6816738	0.5226594	0.0630985	0.00516464
1.3e+08	0.1030658	-0.02631322	-0.0701965	0.8432913	0.1178763	0.01180258	-0.0006948779	-0.008589731
	-0.07019643	0.8432913	0.104345	-0.04144323	-0.0006535704	-0.008554936	0.1192997	-0.0057468
	0.1178751	0.0118016	-0.0006457192	-0.008554903	0.1032437	-0.02578799	-0.07173986	0.843166
	-0.0006881865	-0.008589753	0.1192983	-0.005748788	-0.07173992	0.843166	0.1045699	-0.04152824
1.4e+08	0.06838172	-0.07950206	0.5679797	0.6215751	0.1046114	-0.07585664	-0.01148508	0.001766407
	0.5679798	0.6215752	0.0600125	-0.09021751	-0.01145327	0.001744201	0.09547848	-0.0876792
	0.1046101	-0.07585591	-0.01144872	0.001738911	0.06871618	-0.07919735	0.5667625	0.6227025
	-0.01148115	0.001761812	0.09547649	-0.08767896	0.5667625	0.6227026	0.06006731	-0.09028753
1.5e+08	0.01254588	-0.05512971	0.8456199	-0.001528771	0.01893142	-0.06449827	0.001889199	0.009223195
	0.8456198	-0.001528766	0.008733979	-0.05727399	0.001895789	0.009208067	0.01437848	-0.06650118
	0.01893178	-0.06449746	0.001894664	0.009201634	0.01271443	-0.05498131	0.8456345	0.000247665
	0.001888248	0.009217814	0.01437861	-0.06650039	0.8456342	0.0002476643	0.008792015	-0.05719784
1.6e+08	0.03130311	-0.007036648	0.5602377	-0.6290639	0.0347337	0.01514288	0.003263053	-0.0002256584
	0.5602378	-0.6290639	0.03649821	-0.01672866	0.003270516	-0.0002604528	0.0400657	0.006070899
	0.03473414	0.01514213	0.003265671	-0.0002632472	0.03131532	-0.006707034	0.5616511	-0.6278118
	0.003259094	-0.0002279491	0.0400662	0.006069686	0.5616508	-0.6278115	0.03669415	-0.01670082
1.7e+08	0.06970392	-0.02823539	-0.08797817	-0.8273371	0.1095912	-0.007177438	0.002621378	0.00280911
	-0.08797823	-0.8273371	0.06594812	-0.05010188	0.002571642	0.002783845	0.106062	-0.02963869
	0.1095903	-0.007178255	0.002566941	0.002785323	0.06991446	-0.02769848	-0.08600287	-0.8275553
	0.002617576	0.002810248	0.1060606	-0.02964023	-0.08600282	-0.8275553	0.06606294	-0.05026538
1.8e+08	0.0467799	-0.06587547	-0.6641332	-0.4939195	0.08627517	-0.08068269	0.006459073	-0.004655493
	-0.6641331	-0.4939194	0.02824524	-0.08135393	0.006427033	-0.004610038	0.06525003	-0.09707169
	0.08627413	-0.08068237	0.006425056	-0.004605988	0.04727188	-0.06548011	-0.6629017	-0.4956047
	0.006457412	-0.004652322	0.06524823	-0.09707162	-0.6629017	-0.4956048	0.02810293	-0.08148775
1.9e+08	0.005996382	-0.04870698	-0.8145855	0.1584574	0.0160706	-0.05950066	-0.004616144	-0.006962269
	-0.8145855	0.1584574	-0.008595624	-0.0502474	-0.004591822	-0.006937779	-0.003008751	-0.0580453
	0.01607045	-0.05950025	-0.004590307	-0.006933926	0.006447008	-0.04862824	-0.8150189	0.1563059
	-0.004615123	-0.006959339	-0.003009322	-0.05804475	-0.815019	0.1563059	-0.008788783	-0.05013626
2e+08	0.01418746	-0.0128106	-0.4253203	0.709792	0.038798	0.002853688	-0.005080324	0.002172931
	-0.4253203	0.7097921	0.01188838	-0.02006715	-0.005072903	0.00217924	0.03554218	0.002353717
	0.03879776	0.002853426	-0.005069578	0.002180516	0.01433269	-0.01275492	-0.4272947	0.7086097
	-0.005077683	0.002174134	0.03554185	0.002353284	-0.4272947	0.7086096	0.01187025	-0.01991425
2.1e+08	0.03767783	-0.01733713	0.2374983	0.7847732	0.09358871	-0.02447094	-0.001539679	0.002609768
	0.2374983	0.7847733	0.02660127	-0.03879942	-0.001506386	0.002618743	0.08555565	-0.04185099
	0.09358781	-0.02447099	-0.001503487	0.002617408	0.0377859	-0.01698243	0.2351957	0.7854657
	-0.00153739	0.00260895	0.08555432	-0.0418514	0.2351957	0.7854656	0.02654238	-0.03881564
2.2e+08	0.03030177	-0.03201155	0.7355306	0.3539636	0.06393115	-0.07494033	0.0006122664	0.004532887
	0.7355306	0.3539635	0.000806925	-0.04581187	0.0006291025	0.004486944	0.03426521	-0.08818386
	0.06393041	-0.07493967	0.0006301651	0.004484039	0.03074688	-0.03159747	0.7344446	0.3562284
	0.0006133283	0.004530753	0.03426383	-0.08818316	0.7344445	0.3562284	0.0004920285	-0.04578108
2.3e+08	0.01683087	-0.02283186	0.7567381	-0.3059822	0.01847214	-0.04561066	0.005488577	0.000860256
	0.7567381	-0.3059822	-0.009258138	-0.0172081	0.005447977	0.0008472892	-0.01222927	-0.03467049
	0.01847206	-0.04560998	0.005446734	0.000844716	0.01741279	-0.02280996	0.757729	-0.3035608
	0.005487901	0.0008581599	-0.01222969	-0.0346695	0.757729	-0.3035608	-0.00963825	-0.01687812
2.4e+08	0.02094049	-0.01073432	0.2788152	-0.7635141	0.04846879	-0.00838233	0.002298193	-0.004248011
	0.2788152	-0.763514	0.0112865	-0.007190115	0.002296753	-0.004227169	0.03926779	0.007199264
	0.04846878	-0.008382085	0.002294268	-0.00422799	0.02112326	-0.01095979	0.281355	-0.7625923
	0.002296249	-0.004248997	0.03926769	0.007199616	0.281355	-0.7625923	0.0111149	-0.006718526
2.5e+08	0.02416378	-0.007509618	-0.3743759	-0.7150098	0.07723912	-0.04078255	-0.001831774	-0.003958578
	-0.3743759	-0.7150099	0.009520985	-0.01915458	-0.001835316	-0.003966596	0.0710986	-0.04398017
	0.07723884	-0.04078222	-0.001837586	-0.003965412	0.02402305	-0.007391283	-0.3718986	-0.7162882
	-0.001833691	-0.003957996	0.07109804	-0.04397992	-0.3718986	-0.7162882	0.009423165	-0.01878833
2.6e+08	0.02798598	0.002576198	-0.7776639	-0.2051918	0.04276709	-0.06262066	-0.005229564	-0.0004828524
	-0.7776639	-0.2051918	-0.005373725	-0.002598167	-0.005236893	-0.000461046	0.01539114	-0.06681897
	0.04276702	-0.06262003	-0.005237595	-0.0004586232	0.02814118	0.003029181	-0.7768856	-0.2079928
	-0.005230468	-0.0004812123	0.01539066	-0.06681819	-0.7768856	-0.2079928	-0.005612647	-0.002221214
2.7e+08	0.0466441	0.005007158	-0.6728898	0.4369111	0.0282245	-0.02659707	-0.002033715	0.005029506
	-0.6728898	0.4369111	0.01617586	0.02179501	-0.002004867	0.005023816	-0.003259504	-0.005486721
	0.02822482	-0.02659662	-0.002003713	0.005025812	0.04714034	0.005144866	-0.6745204	0.4343477
	-0.002033164	0.005031285	-0.003259349	-0.005485939	-0.6745204	0.4343477	0.01588445	0.02241046
2.8e+08	0.0526406	-0.01447437	-0.1277704	0.7873451	0.06645067	-0.01977282	0.002662497	0.003015617
	-0.1277705	0.7873451	0.04194466	0.003859997	0.002637826	0.002990883	0.05914346	0.0112997
	0.06645093	-0.01977274	0.002640022	0.002991405	0.0527867	-0.01475943	-0.1308541	0.7868468
	0.002664155	0.003016453	0.05914376	0.01129994	-0.1308541	0.7868468	0.04185218	0.004664683
2.9e+08	0.03187028	-0.01612915	0.4927566	0.6218831	0.06663494	-0.05998186	0.003937978	0.001328166
	0.4927567	0.6218833	0.02252111	-0.01323175	0.003922814	0.001365276	0.07102956	-0.04781048
	0.06663497	-0.05998175	0.003924675	0.001364053	0.03146914	-0.01611368	0.4902658	0.6238524
	0.003939737	0.001327538	0.07102951	-0.04781034	0.4902658	0.6238524	0.02262857	-0.01245633
3e+08	0.03509613	0.01481884	0.7894626	0.05399409	0.02577217	-0.05291337	0.00525163	-0.004814942
	0.7894626	0.0539941	0.01027924	0.0194231	0.00528319	-0.004809153	0.01335005	-0.0494679
	0.02577231	-0.05291312	0.005283543	-0.004811328	0.03487357	0.01542323	0.7891802	0.05725156
	0.005252363	-0.004816655	0.01335006	-0.04946751	0.7891803	0.05725155	0.01043879	0.02011148
3.1e+08	0.07971508	0.01578379	0.5668617	-0.5457396	0.0420979	-0.01050629	-0.004871262	-0.007083801
	0.5668619	-0.5457398	0.05616935	0.03940042	-0.004871324	-0.007087694	0.02193306	0.01263282
	0.0420982	-0.01050621	-0.004872652	-0.007089364	0.08001549	0.0162804	0.5691703	-0.5432177
	-0.004872034	-0.007085482	0.0219334	0.01263305	0.5691702	-0.5432176	0.05627372	0.04012346
3.2e+08	0.09125153	-0.03302475	-0.02029951	-0.7803202	0.08913209	-0.03419997	-0.005798139	0.002984803
	-0.02029952	-0.7803202	0.0869178	-0.005663237	-0.005761055	0.002988452	0.08990978	0.001282887
	0.08913224	-0.03420013	-0.00576312	0.002988299	0.09142122	-0.0330222	-0.01676044	-0.7803752
	-0.005799848	0.002984225	0.08991002	0.001282797	-0.01676044	-0.7803752	0.08711266	-0.004763352
3.3e+08	0.04739922	-0.04941256	-0.5867473	-0.5117207	0.06229895	-0.08568832	-0.001093615	0.001948351
	-0.5867475	-0.5117209	0.05041832	-0.03619817	-0.001084503	0.001874093	0.08030396	-0.0663916
	0.0622989	-0.08568838	-0.001085995	0.001875483	0.0469717	-0.04928364	-0.5843915	-0.5144388
	-0.001095104	0.001949083	0.08030393	-0.06639166	-0.5843915	-0.5144388	0.05088604	-0.03525252
3.4e+08	0.03556323	-0.004697574	-0.7736235	0.09102936	0.01074265	-0.05436045	-0.002632089	0.006370604
	-0.7736235	0.09102935	0.02881398	0.002944002	-0.002719169	0.0063546	0.01862403	-0.05133821
	0.01074269	-0.05436037	-0.002719162	0.006356461	0.0351352	-0.003866461	-0.7740214	0.08740267
	-0.002632508	0.006372346	0.01862406	-0.05133811	-0.7740214	0.08740268	0.02951341	0.003690471
3.5e+08	0.09220924	0.004728792	-0.4463256	0.6307991	0.05164343	-0.003729466	0.01042754	0.005493266
	-0.4463257	0.6307993	0.082891	0.02290157	0.01040488	0.005554351	0.04747593	0.008380235
	0.05164358	-0.003729506	0.01040637	0.005555618	0.09241722	0.005708571	-0.4493371	0.6285479
	0.01042855	0.005494704	0.04747611	0.008380168	-0.449337	0.6285479	0.08350912	0.02340296
3.6e+08	0.1116057	-0.06013706	0.1606361	0.7459641	0.107248	-0.05214657	0.005604841	-0.01058628
	0.1606361	0.7459643	0.1148525	-0.03753696	0.005606125	-0.01056127	0.1143087	-0.02806955
	0.107248	-0.05214674	0.00560799	-0.01056151	0.1119895	-0.05962993	0.1568155	0.7467022
	0.005606526	-0.01058606	0.1143086	-0.02806979	0.1568155	0.7467022	0.1153316	-0.03692342
3.7e+08	0.05309038	-0.09361705	0.6542259	0.3896958	0.05932328	-0.116079	-0.006276723	-0.003274732
	0.6542259	0.3896958	0.06607997	-0.08068669	-0.006261253	-0.003203622	0.08315574	-0.1014912
	0.05932312	-0.116079	-0.00626019	-0.003205117	0.05303881	-0.09324473	0.6521694	0.393119
	-0.006275428	-0.003275805	0.08315555	-0.1014912	0.6521692	0.3931188	0.06680818	-0.07991261
3.8e+08	0.01692864	-0.04427928	0.7333551	-0.2229364	-0.006919403	-0.06914316	0.0004507112	-0.001441163
	0.7333551	-0.2229364	0.02723561	-0.04286181	0.0005783089	-0.001436582	0.01445714	-0.07378965
	-0.006919453	-0.06914304	0.0005779027	-0.00143835	0.0166714	-0.04336602	0.7345418	-0.2190487
	0.0004507704	-0.001442831	0.01445709	-0.0737896	0.7345418	-0.2190487	0.02831111	-0.04236463
3.9e+08	0.06987523	-0.01497151	0.319881	-0.6922203	0.04747663	-0.006518924	-0.009644756	-0.003131207
	0.319881	-0.6922203	0.07249468	-0.01502804	-0.00961837	-0.003267645	0.05367383	-0.01435482
	0.04747668	-0.006518925	-0.009619924	-0.003268474	0.07018243	-0.0136754	0.3236016	-0.6904458
	-0.009645944	-0.003132322	0.05367385	-0.01435494	0.3236016	-0.6904458	0.07343286	-0.01500178
4e+08	0.1006031	-0.07701558	-0.2904673	-0.691082	0.1115574	-0.06934457	-0.003688996	0.013946
	-0.2904673	-0.691082	0.1031039	-0.07260696	-0.003775703	0.0139022	0.1149761	-0.06722623
	0.1115574	-0.06934465	-0.003777307	0.01390279	0.101379	-0.07609728	-0.286565	-0.6926362
	-0.003690554	0.01394612	0.1149759	-0.06722641	-0.2865649	-0.692636	0.1036409	-0.07255235
4.1e+08	0.04176514	-0.1228989	-0.6982056	-0.2594795	0.05093702	-0.1430165	0.01273279	0.002725873
	-0.6982056	-0.2594795	0.0513927	-0.1192788	0.01268863	0.002722864	0.06480736	-0.1398871
	0.05093685	-0.1430164	0.01268799	0.002724394	0.04237299	-0.1223783	-0.6966593	-0.2634984
	0.01273185	0.002727084	0.06480708	-0.1398871	-0.6966593	-0.2634984	0.05203134	-0.1189108
4.2e+08	-0.01574162	-0.07883089	-0.6705548	0.3402534	-0.02864872	-0.09017804	0.0003918254	-0.0066826
	-0.6705548	0.3402534	-0.001247377	-0.08679143	0.0002899144	-0.006661133	-0.009595448	-0.1013564
	-0.02864879	-0.09017788	0.0002906145	-0.006659657	-0.01548541	-0.07817445	-0.672544	0.3362879
	0.0003920953	-0.006681091	-0.009595562	-0.1013563	-0.672544	0.3362879	-0.0001992825	-0.08665554
4.3e+08	0.02042344	-0.02534988	-0.1925	0.7292322	0.02550274	-0.01434912	0.002304748	0.001818503
	-0.1925001	0.7292322	0.02469851	-0.04690134	0.002293329	0.001986296	0.03122003	-0.03921166
	0.02550277	-0.01434904	0.00229488	0.001986717	0.020874	-0.02421044	-0.1968715	0.7280579
	0.002306184	0.001819297	0.03121996	-0.03921172	-0.1968715	0.7280579	0.02555011	-0.04734789
4.4e+08	0.06625515	-0.06624922	0.4067842	0.6212449	0.09791183	-0.07719772	0.002264963	-0.009789991
	0.4067842	0.6212449	0.0541165	-0.08419762	0.00242939	-0.009745831	0.08615697	-0.09600112
	0.09791178	-0.07719772	0.002430793	-0.00974676	0.06734275	-0.0652238	0.4029587	0.6237057
	0.002266344	-0.009790424	0.08615669	-0.09600118	0.4029587	0.6237057	0.05437927	-0.08463706
4.5e+08	0.02367478	-0.1182056	0.7228881	0.1252266	0.03512687	-0.1558252	-0.01261704	-0.001665424
	0.7228881	0.1252266	0.01184726	-0.1232618	-0.01255329	-0.001760977	0.02385765	-0.1604794
	0.03512675	-0.1558251	-0.01255303	-0.001762593	0.02489456	-0.1177826	0.7220588	0.1297466
	-0.01261644	-0.001666701	0.02385735	-0.1604792	0.7220588	0.1297466	0.01202768	-0.1232632
4.6e+08	-0.0419903	-0.08803462	0.5880318	-0.4455372	-0.05066186	-0.1044407	-0.0003382375	0.0107878
	0.5880318	-0.4455372	-0.04087003	-0.09695409	-0.0003264669	0.01073466	-0.04938679	-0.1110621
	-0.05066189	-0.1044405	-0.0003273905	0.01073349	-0.04121342	-0.08793192	0.5908365	-0.4417394
	-0.0003387656	0.01078651	-0.04938689	-0.1110619	0.5908365	-0.4417394	-0.04030632	-0.09698859
4.7e+08	-0.02826666	-0.01983867	0.06356095	-0.74108	-0.00689424	-0.02134795	0.005298502	-0.00133658
	0.06356096	-0.74108	-0.03335796	-0.05067107	0.0052809	-0.001455407	-0.009774548	-0.04743932
	-0.006894184	-0.02134781	0.005279274	-0.001455472	-0.02783285	-0.01933388	0.06841556	-0.7405956
	0.005297197	-0.00133702	-0.009774615	-0.04743925	0.06841555	-0.7405956	-0.03293612	-0.05123674
4.8e+08	0.02977525	-0.02836987	-0.506113	-0.5372937	0.06938692	-0.06923134	-0.001942048	0.001224566
	-0.506113	-0.5372937	-0.006095796	-0.05928161	-0.002117167	0.001200967	0.03852604	-0.09668376
	0.06938695	-0.06923127	-0.002118149	0.001201995	0.03074391	-0.02751731	-0.5024785	-0.5406548
	-0.001943299	0.001225342	0.03852581	-0.09668367	-0.5024785	-0.5406548	-0.00631816	-0.05981423
4.9e+08	0.01832771	-0.08048335	-0.7288878	0.008528533	0.01825434	-0.1460401	0.00562631	0.001307922
	-0.7288879	0.008528553	-0.02693739	-0.08218045	0.005567181	0.001464169	-0.02395614	-0.146227
	0.01825433	-0.14604	0.005567292	0.00146569	0.01979642	-0.08024077	-0.7289149	0.003570478
	0.005626038	0.001309198	-0.02395634	-0.1462267	-0.7289149	0.003570461	-0.02733351	-0.08220144
5e+08	-0.040144	-0.07280173	-0.4899912	0.5391664	-0.06351002	-0.1034514	-6.725826e-06	-0.007028836
	-0.4899912	0.5391664	-0.06255145	-0.06376105	7.195149e-05	-0.00695801	-0.08525251	-0.08864158
	-0.06350999	-0.1034513	7.301704e-05	-0.006957165	-0.03915296	-0.07328833	-0.4936648	0.5357472
	-5.866479e-06	-0.007027702	-0.0852525	-0.08864127	-0.4936648	0.5357472	-0.06265884	-0.06359204
5.1e+08	-0.04721853	-0.008374317	0.06852207	0.7295385	-0.03344256	-0.02396748	-0.005991997	0.001648849
	0.06852207	0.7295386	-0.0638071	-0.024886	-0.005942099	0.001674624	-0.04371546	-0.0298786
	-0.03344247	-0.02396733	-0.005940775	0.001674386	-0.04706477	-0.008583422	0.06338044	0.7299044
	-0.005990574	0.001648949	-0.04371542	-0.02987846	0.06338042	0.7299042	-0.06388645	-0.02499162
5.2e+08	0.01041004	0.01292498	0.5867165	0.4363469	0.03687386	-0.04992282	0.002702515	0.003781208
	0.5867166	0.4363469	-0.04318511	-0.0113569	0.002815082	0.003769796	-0.003549481	-0.06825993
	0.03687399	-0.04992274	0.002815834	0.003768537	0.01078985	0.0135313	0.5834474	0.4405151
	0.002703428	0.003780348	-0.003549571	-0.06825976	0.5834473	0.4405151	-0.04371314	-0.0114505
