!
!4 port subset of full cascaded channels using these ports:59 37 60 38
# Hz S RI R 50
0	0.02968387	0.0002714055	-2.278911e-06	1.154802e-09	0.003374224	8.987753e-05	-2.270846e-06	1.157518e-09
	-2.278914e-06	1.157887e-09	0.02976701	0.000274387	-2.252947e-06	1.155005e-09	0.003385663	9.211927e-05
	0.003377922	9.075126e-05	-2.252977e-06	1.154117e-09	0.02844778	0.0002737767	-2.286572e-06	1.164752e-09
	-2.270876e-06	1.156685e-09	0.00338979	9.055577e-05	-2.28657e-06	1.161702e-09	0.02864619	0.0002749351
1e+07	0.07670803	0.01820645	-2.432844e-05	-1.282835e-05	0.07691441	0.06315376	-2.416907e-05	-1.239281e-05
	-2.432844e-05	-1.282836e-05	0.07704628	0.01801492	-2.447551e-05	-1.340535e-05	0.07723756	0.06298641
	0.07691845	0.06314887	-2.447549e-05	-1.340555e-05	0.07671561	0.01818735	-2.458319e-05	-1.293208e-05
	-2.416905e-05	-1.2393e-05	0.07724158	0.06298151	-2.458318e-05	-1.293209e-05	0.0770609	0.01803922
2e+07	0.07512848	-0.02751109	-1.472697e-05	3.929294e-06	0.131339	-0.01473518	-1.420199e-05	4.675847e-06
	-1.472716e-05	3.929127e-06	0.07489217	-0.02796204	-1.543586e-05	2.888183e-06	0.1312075	-0.01554052
	0.1313616	-0.01473745	-1.543561e-05	2.889782e-06	0.07509617	-0.02757486	-1.492577e-05	4.158935e-06
	-1.420169e-05	4.677439e-06	0.131233	-0.01554629	-1.492551e-05	4.159183e-06	0.07490695	-0.02792339
3e+07	0.02564061	-0.01583625	3.332022e-06	-4.071816e-05	0.05143833	-0.06193288	4.4715e-06	-3.984893e-05
	3.332e-06	-4.071812e-05	0.02527564	-0.01531374	1.711527e-06	-4.175589e-05	0.05064804	-0.0619296
	0.05144209	-0.0619324	1.71086e-06	-4.175592e-05	0.02558761	-0.01585771	3.582557e-06	-4.072138e-05
	4.470835e-06	-3.984895e-05	0.0506514	-0.06192909	3.582536e-06	-4.072141e-05	0.02532203	-0.01521833
4e+07	0.04759177	0.0386128	-7.856407e-05	-7.530353e-05	0.01525246	0.02088849	-7.679572e-05	-7.483953e-05
	-7.856408e-05	-7.530349e-05	0.04875776	0.03906218	-8.085467e-05	-7.560687e-05	0.01591103	0.02145777
	0.01525901	0.02088195	-8.085412e-05	-7.56061e-05	0.04750485	0.0386272	-7.872355e-05	-7.600392e-05
	-7.679518e-05	-7.483875e-05	0.01591727	0.02145089	-7.872354e-05	-7.600394e-05	0.04883485	0.03916434
5e+07	0.104685	0.01137617	-0.000136622	1.149745e-05	0.1010589	0.04799585	-0.0001346579	1.140313e-05
	-0.000136622	1.149743e-05	0.1056839	0.009910692	-0.0001388683	1.182626e-05	0.1024053	0.04657898
	0.1010583	0.0479898	-0.0001388681	1.182541e-05	0.1046021	0.01142059	-0.0001378509	1.119326e-05
	-0.0001346577	1.140229e-05	0.1024046	0.04657305	-0.0001378509	1.119327e-05	0.1057707	0.0100109
6e+07	0.07918768	-0.04367363	-7.915597e-05	8.082873e-05	0.1256076	-0.03887679	-7.70978e-05	8.039148e-05
	-7.915599e-05	8.082876e-05	0.07819539	-0.04495635	-8.163645e-05	8.130013e-05	0.1247976	-0.04116978
	0.1256064	-0.03887908	-8.163823e-05	8.130023e-05	0.07907643	-0.04363242	-8.030959e-05	8.190957e-05
	-7.709958e-05	8.039159e-05	0.1247963	-0.04117207	-8.030961e-05	8.190958e-05	0.07827922	-0.04483117
7e+07	0.0290647	-0.01597744	-2.816543e-05	3.935924e-05	0.04019374	-0.05941402	-2.565466e-05	3.841355e-05
	-2.816545e-05	3.935927e-05	0.02858515	-0.01515203	-3.151356e-05	4.069232e-05	0.0387545	-0.05931913
	0.04019363	-0.05941503	-3.151369e-05	4.069337e-05	0.02887616	-0.01588851	-2.786709e-05	4.078217e-05
	-2.565478e-05	3.841459e-05	0.03875441	-0.05932015	-2.786711e-05	4.07822e-05	0.02871507	-0.01498552
8e+07	0.06780397	0.03195457	-9.558438e-05	1.809403e-05	0.03042815	0.02463633	-9.308997e-05	1.584236e-05
	-9.558437e-05	1.80941e-05	0.06982123	0.03161604	-9.869506e-05	2.152637e-05	0.03197952	0.02480933
	0.03042926	0.02463353	-9.869505e-05	2.15272e-05	0.06759891	0.03217951	-9.476287e-05	1.816353e-05
	-9.308995e-05	1.584319e-05	0.03198039	0.02480646	-9.476287e-05	1.816352e-05	0.07003065	0.03175076
9e+07	0.1199232	-0.01355586	-0.0001223765	0.000114803	0.1161382	0.02587449	-0.0001208511	0.0001116756
	-0.0001223765	0.0001148029	0.1204678	-0.01682179	-0.0001235516	0.0001192881	0.1176601	0.02246256
	0.1161369	0.02587086	-0.0001235519	0.0001192886	0.1198095	-0.01325679	-0.000122964	0.0001143684
	-0.0001208514	0.0001116761	0.1176588	0.02245916	-0.000122964	0.0001143685	0.1206687	-0.01677283
1e+08	0.08100671	-0.07103903	-4.289763e-05	0.000186792	0.1175354	-0.06231123	-4.233257e-05	0.0001834607
	-4.289762e-05	0.0001867921	0.07842235	-0.07303864	-4.275138e-05	0.000190722	0.1152636	-0.06598535
	0.1175326	-0.06231259	-4.27514e-05	0.0001907233	0.08092372	-0.07076063	-4.420787e-05	0.0001881048
	-4.233259e-05	0.000183462	0.1152608	-0.06598676	-4.420787e-05	0.0001881048	0.07855016	-0.07298204
1.1e+08	0.02612623	-0.0401983	5.282927e-05	0.0001620874	0.03140382	-0.06356522	5.281878e-05	0.0001587866
	5.282937e-05	0.0001620878	0.02491481	-0.03909788	5.300127e-05	0.000165908	0.02912022	-0.06341718
	0.03140287	-0.06356517	5.300215e-05	0.0001659087	0.02597766	-0.03986422	5.355057e-05	0.0001648138
	5.28196e-05	0.0001587875	0.02911946	-0.06341616	5.355043e-05	0.0001648136	0.02508197	-0.03895732
1.2e+08	0.06096872	0.006118847	5.955744e-05	0.0001025555	0.03912	0.01739374	5.89274e-05	9.880946e-05
	5.955791e-05	0.0001025554	0.0628165	0.005092772	6.058854e-05	0.0001075709	0.04094871	0.01663391
	0.03912005	0.01739199	6.058949e-05	0.0001075711	0.06084665	0.006621238	6.246957e-05	0.0001034298
	5.892836e-05	9.881017e-05	0.0409495	0.01663276	6.246917e-05	0.0001034304	0.0630985	0.00516464
1.3e+08	0.1052376	-0.03713478	4.590698e-05	0.000114871	0.1188792	-0.0003194373	4.400059e-05	0.0001110552
	4.590696e-05	0.0001148706	0.104345	-0.04144323	4.949759e-05	0.0001199176	0.1192997	-0.0057468
	0.1188772	-0.0003219863	4.949818e-05	0.0001199176	0.105294	-0.03654771	4.752496e-05	0.0001132344
	4.400149e-05	0.0001110556	0.1192983	-0.005748788	4.752536e-05	0.0001132353	0.1045699	-0.04152824
1.4e+08	0.06459419	-0.08848261	8.171683e-05	0.0001447179	0.1001294	-0.08339417	7.855718e-05	0.0001413897
	8.171653e-05	0.0001447179	0.0600125	-0.09021751	8.709342e-05	0.0001477767	0.09547848	-0.0876792
	0.1001263	-0.08339464	8.709394e-05	0.0001477769	0.06477625	-0.08796139	8.084992e-05	0.0001440074
	7.855818e-05	0.0001413903	0.09547649	-0.08767896	8.085075e-05	0.0001440078	0.06006731	-0.09028753
1.5e+08	0.01099601	-0.05924889	0.0001689509	0.0001397977	0.01783809	-0.06722201	0.0001647336	0.0001376556
	0.000168951	0.0001397979	0.008733979	-0.05727399	0.0001742568	0.0001408809	0.01437848	-0.06650118
	0.01783672	-0.06722123	0.0001742579	0.0001408809	0.01117742	-0.05876165	0.0001690982	0.0001418457
	0.0001647354	0.0001376557	0.01437861	-0.06650039	0.0001690988	0.0001418457	0.008792015	-0.05719784
1.6e+08	0.0355548	-0.01591525	0.0002332848	4.063482e-05	0.03872956	0.007497838	0.0002289349	3.985165e-05
	0.0002332849	4.063468e-05	0.03649821	-0.01672866	0.0002382593	4.111551e-05	0.0400657	0.006070899
	0.03872904	0.007497339	0.0002382603	4.111469e-05	0.03578368	-0.01533834	0.0002370023	4.163182e-05
	0.0002289365	3.985076e-05	0.0400662	0.006069686	0.0002370028	4.163186e-05	0.03669415	-0.01670082
1.7e+08	0.06854638	-0.04639521	0.00019323	-5.812599e-05	0.1077771	-0.02320803	0.0001891134	-5.810029e-05
	0.0001932299	-5.812626e-05	0.06594812	-0.05010188	0.000199042	-5.831439e-05	0.106062	-0.02963869
	0.1077753	-0.02320889	0.0001990422	-5.831557e-05	0.06896967	-0.0457988	0.0001965631	-6.146151e-05
	0.0001891141	-5.810174e-05	0.1060606	-0.02964023	0.0001965638	-6.146158e-05	0.06606294	-0.05026538
1.8e+08	0.03407653	-0.0814044	0.000119023	-6.681442e-05	0.07247978	-0.09378485	0.0001147357	-6.644995e-05
	0.0001190228	-6.681445e-05	0.02824524	-0.08135393	0.0001254424	-6.912908e-05	0.06525003	-0.09707169
	0.07247757	-0.09378417	0.0001254421	-6.912951e-05	0.03465048	-0.08094948	0.0001179057	-7.091866e-05
	0.0001147357	-6.645081e-05	0.06524823	-0.09707162	0.0001179063	-7.091912e-05	0.02810293	-0.08148775
1.9e+08	-0.006256464	-0.05374013	0.0001391226	-1.352002e-05	0.00113075	-0.06029587	0.0001339501	-1.188169e-05
	0.0001391226	-1.351985e-05	-0.008595624	-0.0502474	0.0001444711	-1.821253e-05	-0.003008751	-0.0580453
	0.001129975	-0.0602945	0.0001444715	-1.821275e-05	-0.005678183	-0.05344094	0.0001365	-1.345751e-05
	0.0001339507	-1.188228e-05	-0.003009322	-0.05804475	0.0001365002	-1.345812e-05	-0.008788783	-0.05013626
2e+08	0.01147555	-0.02014119	0.0002361634	-8.92229e-05	0.03475454	0.003798017	0.0002316333	-8.505457e-05
	0.0002361635	-8.922293e-05	0.01188838	-0.02006715	0.0002395452	-9.508105e-05	0.03554218	0.002353717
	0.03475446	0.003798322	0.0002395455	-9.508216e-05	0.01202661	-0.01987417	0.000237767	-8.760247e-05
	0.0002316337	-8.505607e-05	0.03554185	0.002353284	0.000237767	-8.76029e-05	0.01187025	-0.01991425
2.1e+08	0.03004224	-0.03708688	0.0001745483	-0.0002616568	0.08940787	-0.03588682	0.0001725825	-0.0002564666
	0.0001745483	-0.000261657	0.02660127	-0.03879942	0.0001763199	-0.0002676832	0.08555565	-0.04185099
	0.08940695	-0.03588686	0.0001763192	-0.0002676845	0.03068642	-0.03685665	0.0001779499	-0.0002648448
	0.0001725817	-0.0002564683	0.08555432	-0.0418514	0.0001779499	-0.0002648452	0.02654238	-0.03881564
2.2e+08	0.005794741	-0.04858854	-2.38187e-05	-0.0002770057	0.0428498	-0.08746185	-2.433388e-05	-0.0002731389
	-2.381895e-05	-0.0002770057	0.000806925	-0.04581187	-2.306873e-05	-0.0002831698	0.03426521	-0.08818386
	0.04284873	-0.08746098	-2.306995e-05	-0.0002831699	0.006514244	-0.0485297	-2.56475e-05	-0.0002831646
	-2.433548e-05	-0.0002731394	0.03426383	-0.08818316	-2.564768e-05	-0.000283165	0.0004920285	-0.04578108
2.3e+08	-0.008991555	-0.02170443	-7.562821e-05	-0.0001151576	-0.009081434	-0.03877234	-7.71887e-05	-0.0001115361
	-7.562825e-05	-0.0001151573	-0.009258138	-0.0172081	-7.606227e-05	-0.0001218286	-0.01222927	-0.03467049
	-0.009081548	-0.03877121	-7.606257e-05	-0.0001218282	-0.008335636	-0.02185112	-8.191127e-05	-0.0001164445
	-7.718933e-05	-0.0001115358	-0.01222969	-0.0346695	-8.191159e-05	-0.0001164447	-0.00963825	-0.01687812
2.4e+08	0.01027452	-0.007321535	6.505511e-05	-0.0001087174	0.03821672	0.00870546	6.391689e-05	-0.000102555
	6.505524e-05	-0.0001087173	0.0112865	-0.007190115	6.273989e-05	-0.0001157938	0.03926779	0.007199264
	0.03821696	0.008705809	6.273986e-05	-0.0001157942	0.01078067	-0.007560431	6.282311e-05	-0.0001048966
	6.391675e-05	-0.0001025555	0.03926769	0.007199616	6.282283e-05	-0.0001048966	0.0111149	-0.006718526
2.5e+08	0.01261772	-0.01917576	2.914748e-05	-0.0003011121	0.07612641	-0.03914869	3.195439e-05	-0.0002940488
	2.914745e-05	-0.0003011122	0.009520985	-0.01915458	2.419551e-05	-0.0003075359	0.0710986	-0.04398017
	0.07612609	-0.0391486	2.419452e-05	-0.0003075365	0.01305003	-0.01943989	3.193232e-05	-0.0003009289
	3.195321e-05	-0.0002940495	0.07109804	-0.04397992	3.19321e-05	-0.0003009289	0.009423165	-0.01878833
2.6e+08	-0.003246769	-0.007296049	-0.0002363527	-0.000304607	0.02323454	-0.06885296	-0.000230877	-0.0003010073
	-0.0002363528	-0.0003046069	-0.005373725	-0.002598167	-0.0002431361	-0.0003085568	0.01539114	-0.06681897
	0.02323414	-0.06885235	-0.0002431374	-0.0003085563	-0.00287343	-0.007648945	-0.0002374008	-0.0003098247
	-0.0002308785	-0.0003010068	0.01539066	-0.06681819	-0.0002374009	-0.0003098247	-0.005612647	-0.002221214
2.7e+08	0.01276681	0.01848012	-0.0003139829	-3.669678e-05	-0.002955529	-0.01011488	-0.0003105655	-3.575588e-05
	-0.0003139828	-3.669665e-05	0.01617586	0.02179501	-0.0003203616	-3.830556e-05	-0.003259504	-0.005486721
	-0.002955351	-0.0101142	-0.0003203619	-3.830454e-05	0.01300139	0.0180196	-0.000321746	-3.814413e-05
	-0.0003105658	-3.575465e-05	-0.003259349	-0.005485939	-0.0003217461	-3.814401e-05	0.01588445	0.02241046
2.8e+08	0.03995361	0.006073906	-0.0001072984	5.301237e-05	0.05716435	0.01432537	-0.0001052739	5.599344e-05
	-0.0001072983	5.301238e-05	0.04194466	0.003859997	-0.000113085	5.164001e-05	0.05914346	0.0112997
	0.05716467	0.01432553	-0.0001130847	5.164028e-05	0.03997385	0.005588739	-0.0001123645	5.9475e-05
	-0.0001052737	5.599379e-05	0.05914376	0.01129994	-0.0001123645	5.947509e-05	0.04185218	0.004664683
2.9e+08	0.0253206	-0.01297403	-6.946705e-05	-0.0001330666	0.07655439	-0.0432097	-6.383292e-05	-0.0001287458
	-6.946705e-05	-0.0001330666	0.02252111	-0.01323175	-7.698383e-05	-0.0001341926	0.07102956	-0.04781048
	0.07655433	-0.04320965	-7.698428e-05	-0.0001341926	0.02517047	-0.01339581	-6.65261e-05	-0.0001277927
	-6.383339e-05	-0.0001287459	0.07102951	-0.04781034	-6.652614e-05	-0.0001277927	0.02262857	-0.01245633
3e+08	0.009665637	0.01500572	-0.0003171695	-0.0001439156	0.01927032	-0.05271932	-0.0003084524	-0.0001440734
	-0.0003171695	-0.0001439156	0.01027924	0.0194231	-0.0003263887	-0.0001415433	0.01335005	-0.0494679
	0.01927027	-0.05271898	-0.0003263895	-0.0001415425	0.009362206	0.01465727	-0.0003146803	-0.0001461841
	-0.0003084532	-0.0001440725	0.01335006	-0.04946751	-0.0003146803	-0.0001461841	0.01043879	0.02011148
3.1e+08	0.049947	0.03977216	-0.0003740241	0.0001538427	0.01911654	0.01002158	-0.0003685496	0.0001492408
	-0.000374024	0.0001538427	0.05616935	0.03940042	-0.0003808162	0.000160333	0.02193306	0.01263282
	0.01911684	0.01002183	-0.0003808158	0.0001603342	0.04952175	0.03954207	-0.0003792528	0.0001520361
	-0.0003685493	0.0001492419	0.0219334	0.01263305	-0.0003792528	0.0001520361	0.05627372	0.04012346
3.2e+08	0.08549359	0.001096877	-0.0001221528	0.0002728169	0.08786192	0.0079701	-0.0001205645	0.000269792
	-0.0001221528	0.0002728169	0.0869178	-0.005663237	-0.0001250027	0.0002792606	0.08990978	0.001282887
	0.08786217	0.007970035	-0.000125002	0.000279261	0.08495834	0.0009708243	-0.000127527	0.0002796132
	-0.0001205638	0.0002697924	0.08991002	0.001282797	-0.000127527	0.0002796132	0.08711266	-0.004763352
3.3e+08	0.05500516	-0.03362647	-4.720301e-06	9.968575e-05	0.08729786	-0.06036819	-1.313214e-06	9.946716e-05
	-4.72029e-06	9.968576e-05	0.05041832	-0.03619817	-7.395744e-06	0.0001041456	0.08030396	-0.0663916
	0.08729784	-0.06036826	-7.395521e-06	0.0001041456	0.05435746	-0.03360092	-1.042576e-06	0.0001084753
	-1.312992e-06	9.946716e-05	0.08030393	-0.06639166	-1.042582e-06	0.0001084753	0.05088604	-0.03525252
3.4e+08	0.02839677	0.0003591129	-0.0001780773	3.776379e-05	0.02378478	-0.05395193	-0.0001714127	3.416109e-05
	-0.0001780773	3.77638e-05	0.02881398	0.002944002	-0.0001824826	4.415214e-05	0.01862403	-0.05133821
	0.02378482	-0.05395183	-0.0001824826	4.415259e-05	0.02763997	0.0005684383	-0.000170606	3.816315e-05
	-0.0001714127	3.416154e-05	0.01862406	-0.05133811	-0.000170606	3.816316e-05	0.02951341	0.003690471
3.5e+08	0.07722742	0.02735833	-0.0002167528	0.0002710511	0.04359802	0.009593947	-0.0002135592	0.0002626856
	-0.0002167528	0.0002710511	0.082891	0.02290157	-0.0002182782	0.0002814491	0.04747593	0.008380235
	0.04359823	0.009593902	-0.0002182776	0.0002814497	0.0764486	0.02787729	-0.0002166079	0.0002672196
	-0.0002135586	0.0002626862	0.04747611	0.008380168	-0.0002166079	0.0002672196	0.08350912	0.02340296
3.6e+08	0.1168316	-0.02663872	1.763088e-05	0.0003612872	0.1148047	-0.01677225	1.556953e-05	0.0003542278
	1.763089e-05	0.0003612872	0.1148525	-0.03753696	2.187796e-05	0.0003709524	0.1143087	-0.02806955
	0.1148048	-0.0167725	2.187878e-05	0.0003709524	0.1162048	-0.02592014	1.366906e-05	0.0003644035
	1.557034e-05	0.0003542279	0.1143086	-0.02806979	1.366907e-05	0.0003644036	0.1153316	-0.03692342
3.7e+08	0.07526778	-0.075974	0.0001633224	0.0002109457	0.09414732	-0.09357334	0.000160785	0.0002081104
	0.0001633225	0.0002109457	0.06607997	-0.08068669	0.0001693917	0.0002159378	0.08315574	-0.1014912
	0.09414717	-0.09357346	0.0001693922	0.0002159375	0.0747167	-0.0751555	0.0001664849	0.0002192226
	0.0001607855	0.0002081101	0.08315555	-0.1014912	0.0001664849	0.0002192226	0.06680818	-0.07991261
3.8e+08	0.03092356	-0.04454632	7.957205e-05	8.596137e-05	0.02185228	-0.07559126	8.046223e-05	8.296099e-05
	7.957206e-05	8.596136e-05	0.02723561	-0.04286181	8.30235e-05	8.941778e-05	0.01445714	-0.07378965
	0.02185222	-0.07559125	8.302375e-05	8.941766e-05	0.03039463	-0.04358211	9.00698e-05	8.752423e-05
	8.046246e-05	8.296087e-05	0.01445709	-0.0737896	9.006979e-05	8.752425e-05	0.02831111	-0.04236463
3.9e+08	0.07097566	-0.009464559	2.000703e-05	0.0001942398	0.05198308	-0.0101347	1.93006e-05	0.0001872243
	2.000704e-05	0.0001942398	0.07249468	-0.01502804	2.39963e-05	0.0002005877	0.05367383	-0.01435482
	0.05198311	-0.01013484	2.399674e-05	0.0002005877	0.07052634	-0.008201489	2.525806e-05	0.0001872038
	1.930103e-05	0.0001872243	0.05367385	-0.01435494	2.525807e-05	0.0001872039	0.07343286	-0.01500178
4e+08	0.110344	-0.06133782	0.0001704866	0.0002435324	0.1209152	-0.05303125	0.0001649713	0.0002372736
	0.0001704866	0.0002435324	0.1031039	-0.07260696	0.0001795523	0.0002493912	0.1149761	-0.06722623
	0.120915	-0.05303148	0.0001795527	0.0002493909	0.1102705	-0.05985924	0.000167623	0.0002400518
	0.0001649718	0.0002372734	0.1149759	-0.06722641	0.000167623	0.0002400518	0.1036409	-0.07255235
4.1e+08	0.06607201	-0.1154941	0.0002793549	0.0001295702	0.082104	-0.1321689	0.0002719005	0.0001275835
	0.0002793549	0.0001295702	0.0513927	-0.1192788	0.0002908646	0.0001296673	0.06480736	-0.1398871
	0.0821037	-0.132169	0.0002908649	0.0001296668	0.06631953	-0.1141108	0.0002792001	0.0001336978
	0.0002719009	0.0001275831	0.06480708	-0.1398871	0.0002792002	0.0001336978	0.05203134	-0.1189108
4.2e+08	0.008155862	-0.0906131	0.0002602457	-9.141487e-06	0.002490039	-0.1046215	0.0002555169	-7.776335e-06
	0.0002602457	-9.141507e-06	-0.001247377	-0.08679143	0.00026815	-1.372688e-05	-0.009595448	-0.1013564
	0.002489877	-0.1046215	0.0002681501	-1.372739e-05	0.008487219	-0.08932605	0.0002688096	-7.305309e-06
	0.000255517	-7.776843e-06	-0.009595562	-0.1013563	0.0002688097	-7.30532e-06	-0.0001992825	-0.08665554
4.3e+08	0.02840922	-0.0451991	0.0001715347	-3.28269e-05	0.03394541	-0.03560812	0.0001691142	-3.356182e-05
	0.0001715347	-3.282691e-05	0.02469851	-0.04690134	0.0001757065	-3.582339e-05	0.03122003	-0.03921166
	0.03394533	-0.03560818	0.0001757065	-3.582381e-05	0.02881315	-0.04378256	0.0001789716	-4.145394e-05
	0.0001691142	-3.356222e-05	0.03121996	-0.03921172	0.0001789716	-4.145393e-05	0.02555011	-0.04734789
4.4e+08	0.06531258	-0.07789991	0.0001901241	-5.625188e-06	0.09840581	-0.08317193	0.0001850491	-7.621296e-06
	0.0001901241	-5.625205e-06	0.0541165	-0.08419762	0.0001966778	-6.798743e-06	0.08615697	-0.09600112
	0.09840552	-0.08317203	0.0001966778	-6.799135e-06	0.06611476	-0.07634494	0.0001870936	-1.522281e-05
	0.000185049	-7.621687e-06	0.08615669	-0.09600118	0.0001870936	-1.522281e-05	0.05437927	-0.08463706
4.5e+08	0.02915284	-0.124493	0.0002302809	-5.521859e-05	0.04717459	-0.1570483	0.0002225452	-5.450704e-05
	0.0002302809	-5.52186e-05	0.01184726	-0.1232618	0.0002394935	-6.061096e-05	0.02385765	-0.1604794
	0.04717424	-0.1570481	0.0002394934	-6.06113e-05	0.03042336	-0.1232215	0.0002243968	-5.603629e-05
	0.0002225451	-5.45074e-05	0.02385735	-0.1604792	0.0002243968	-5.603631e-05	0.01202768	-0.1232632
4.6e+08	-0.02856861	-0.1056349	0.0002362586	-0.0001443519	-0.03327503	-0.1193357	0.000229601	-0.00013861
	0.0002362586	-0.0001443519	-0.04087003	-0.09695409	0.0002419249	-0.000155393	-0.04938679	-0.1110621
	-0.03327519	-0.1193355	0.0002419247	-0.0001553934	-0.02725332	-0.1048256	0.0002381049	-0.0001415122
	0.0002296009	-0.0001386105	-0.04938689	-0.1110619	0.0002381049	-0.0001415122	-0.04030632	-0.09698859
4.7e+08	-0.02689812	-0.05616619	0.0001585594	-0.0002408997	-0.003354643	-0.04874729	0.000157512	-0.0002341668
	0.0001585594	-0.0002408997	-0.03335796	-0.05067107	0.0001572887	-0.000251519	-0.009774548	-0.04743932
	-0.003354728	-0.04874721	0.0001572883	-0.0002515194	-0.02575196	-0.05542851	0.0001647064	-0.0002465339
	0.0001575116	-0.0002341672	-0.009774615	-0.04743925	0.0001647064	-0.0002465339	-0.03293612	-0.05123674
4.8e+08	0.004570345	-0.06156579	4.7135e-05	-0.0002350336	0.05442671	-0.09000028	4.754104e-05	-0.0002326009
	4.713499e-05	-0.0002350336	-0.006095796	-0.05928161	4.458618e-05	-0.000240482	0.03852604	-0.09668376
	0.05442647	-0.09000021	4.458565e-05	-0.0002404822	0.005949882	-0.06073874	4.412485e-05	-0.0002465889
	4.754051e-05	-0.0002326011	0.03852581	-0.09668367	4.412485e-05	-0.0002465889	-0.00631816	-0.05981423
