!
!4 port subset of full cascaded channels using these ports:7 37 8 38
# Hz S RI R 50
0	0.02801292	0.0002713909	-3.556512e-05	3.47503e-07	0.003699238	8.975995e-05	-4.519336e-05	4.729999e-07
	-3.556455e-05	3.479708e-07	0.02976701	0.000274387	-2.975434e-05	2.664413e-07	0.003385663	9.211927e-05
	0.003708382	9.06327e-05	-2.975493e-05	2.663891e-07	0.02952798	0.0002735018	-3.56129e-05	3.519328e-07
	-4.519344e-05	4.73329e-07	0.00338979	9.055577e-05	-3.561241e-05	3.521399e-07	0.02864619	0.0002749351
1e+07	0.07754275	0.01906942	-0.0003285223	-0.0001379068	0.07746799	0.0624016	-0.0003845367	-0.0001617676
	-0.0003285223	-0.0001379062	0.07704628	0.01801492	-0.0002856646	-0.000119705	0.07723756	0.06298641
	0.07747097	0.06239807	-0.0002856662	-0.0001197069	0.07751593	0.01905688	-0.0003277287	-0.0001374801
	-0.0003845374	-0.0001617692	0.07724158	0.06298151	-0.0003277277	-0.0001374799	0.0770609	0.01803922
2e+07	0.0768493	-0.02763182	-0.0005692997	0.0001803761	0.1306239	-0.01734533	-0.0006756107	0.0002149439
	-0.0005693038	0.0001803782	0.07489217	-0.02796204	-0.0004940303	0.0001556751	0.1312075	-0.01554052
	0.1306349	-0.01734351	-0.0004940319	0.0001556768	0.07681795	-0.02762113	-0.0005677434	0.0001799392
	-0.0006755953	0.0002149478	0.131233	-0.01554629	-0.000567735	0.0001799349	0.07490695	-0.02792339
3e+07	0.02594138	-0.01675857	-0.0004876064	0.0008493763	0.04797766	-0.06344296	-0.0005605412	0.001004588
	-0.0004876075	0.0008493739	0.02527564	-0.01531374	-0.0004265651	0.0007398498	0.05064804	-0.0619296
	0.04798029	-0.06344299	-0.0004265638	0.0007398583	0.02587034	-0.01679318	-0.0004866142	0.0008469273
	-0.0005605406	0.001004594	0.0506514	-0.06192909	-0.0004866141	0.000846925	0.02532203	-0.01521833
4e+07	0.04714925	0.03925165	0.0006066833	0.001248551	0.01289805	0.02216643	0.0007087489	0.001446611
	0.0006066881	0.001248553	0.04875776	0.03906218	0.0005338991	0.001087718	0.01591103	0.02145777
	0.01290454	0.02216263	0.0005338955	0.001087712	0.04702793	0.03920634	0.0006048128	0.001246478
	0.0007087474	0.001446605	0.01591727	0.02145089	0.000604811	0.00124648	0.04883485	0.03916434
5e+07	0.1057003	0.01251601	0.001498727	0.0002244254	0.1014081	0.04744732	0.001737165	0.0002794041
	0.001498728	0.000224423	0.1056839	0.009910692	0.00130409	0.0001873703	0.1024053	0.04657898
	0.1014075	0.04744259	0.001304085	0.0001873791	0.1054853	0.01249204	0.001497259	0.0002240873
	0.001737157	0.0002794147	0.1024046	0.04657305	0.001497258	0.0002240876	0.1057707	0.0100109
6e+07	0.08043415	-0.04449301	0.00122409	-0.0008834199	0.1232754	-0.04311696	0.001457595	-0.001013334
	0.001224094	-0.0008834192	0.07819539	-0.04495635	0.001061163	-0.0007715583	0.1247976	-0.04116978
	0.1232753	-0.04311759	0.001061169	-0.0007715585	0.080134	-0.04439724	0.001221	-0.0008843715
	0.001457614	-0.001013323	0.1247963	-0.04117207	0.001221006	-0.0008843648	0.07827922	-0.04483117
7e+07	0.02727667	-0.01745365	0.0004644937	-0.001746147	0.03231233	-0.06120875	0.0005663866	-0.002059924
	0.000464495	-0.00174615	0.02858515	-0.01515203	0.0003959887	-0.001524515	0.0387545	-0.05931913
	0.03231326	-0.06120948	0.0003959845	-0.001524527	0.0270269	-0.01721349	0.0004610239	-0.001741218
	0.0005663908	-0.002059947	0.03875441	-0.05932015	0.0004610299	-0.00174122	0.02871507	-0.01498552
8e+07	0.06416998	0.03375542	-0.001341384	-0.001849788	0.02348731	0.02927028	-0.001559182	-0.002186354
	-0.001341373	-0.001849785	0.06982123	0.03161604	-0.001182987	-0.001596223	0.03197952	0.02480933
	0.02348882	0.02926807	-0.001183013	-0.001596226	0.06399975	0.03398591	-0.001336776	-0.001846745
	-0.001559187	-0.002186353	0.03198039	0.02480646	-0.001336761	-0.001846745	0.07003065	0.03175076
9e+07	0.1185911	-0.009189017	-0.002433894	3.955948e-05	0.1147463	0.03081155	-0.002858182	5.838539e-06
	-0.002433888	3.95477e-05	0.1204678	-0.01682179	-0.002105906	5.308069e-05	0.1176601	0.02246256
	0.1147456	0.03080862	-0.002105926	5.310375e-05	0.1183141	-0.00898258	-0.002435768	3.754764e-05
	-0.002858192	5.836758e-06	0.1176588	0.02245916	-0.002435761	3.753165e-05	0.1206687	-0.01677283
1e+08	0.08174797	-0.06864336	-0.00148429	0.00174876	0.1161753	-0.06216066	-0.001795672	0.002028775
	-0.001484287	0.001748758	0.07842235	-0.07303864	-0.001280094	0.001523378	0.1152636	-0.06598535
	0.1161728	-0.06216134	-0.001280098	0.001523397	0.08133859	-0.06820143	-0.001483184	0.001758976
	-0.001795678	0.002028791	0.1152608	-0.06598676	-0.001483185	0.001758972	0.07855016	-0.07298204
1.1e+08	0.02338775	-0.03972451	-4.590026e-05	0.002308172	0.02401937	-0.06296711	-0.0001039109	0.002753221
	-4.594873e-05	0.002308298	0.02491481	-0.03909788	-1.88487e-05	0.002011525	0.02912022	-0.06341718
	0.02401851	-0.06296708	-1.913017e-05	0.002011476	0.02318993	-0.03897573	-2.792913e-05	0.002304412
	-0.000103939	0.00275326	0.02911946	-0.06341616	-2.792396e-05	0.002304683	0.02508197	-0.03895732
1.2e+08	0.05450485	0.01170394	0.001855811	0.002067814	0.03058663	0.02587591	0.002185627	0.002492112
	0.001855947	0.002068051	0.0628165	0.005092772	0.001635195	0.001764298	0.04094871	0.01663391
	0.03058604	0.02587464	0.001635082	0.001765045	0.05463302	0.01237764	0.001851337	0.00204924
	0.00218562	0.002492144	0.0409495	0.01663276	0.001851574	0.002049579	0.0630985	0.00516464
1.3e+08	0.1030792	-0.0253528	0.003159207	-0.0001986918	0.1177666	0.01243472	0.003766903	-0.0001921942
	0.003159674	-0.0001986577	0.104345	-0.04144323	0.002715866	-0.000202966	0.1192997	-0.0057468
	0.1177646	0.01243342	0.002716868	-0.0002030727	0.1031596	-0.02487758	0.003151844	-0.000196064
	0.003766879	-0.0001921472	0.1192983	-0.005748788	0.00315223	-0.0001959071	0.1045699	-0.04152824
1.4e+08	0.06902665	-0.0790215	0.001815299	-0.002615737	0.104868	-0.07541172	0.002212444	-0.003094237
	0.001815649	-0.00261631	0.0600125	-0.09021751	0.00155386	-0.002266607	0.09547848	-0.0876792
	0.1048657	-0.0754114	0.001553821	-0.002267374	0.06893696	-0.07834862	0.001816573	-0.002629354
	0.002212459	-0.003094131	0.09547649	-0.08767896	0.001816878	-0.002629405	0.06006731	-0.09028753
1.5e+08	0.01280059	-0.05528395	-0.0005396664	-0.002964904	0.01908017	-0.06436032	-0.0006074766	-0.003578822
	-0.0005401119	-0.002965539	0.008733979	-0.05727399	-0.0004961306	-0.002570527	0.01437848	-0.06650118
	0.01907916	-0.0643594	-0.0004966519	-0.002570701	0.01301284	-0.05425624	-0.0005767561	-0.002966973
	-0.0006073427	-0.003578746	0.01437861	-0.06650039	-0.0005765689	-0.002967114	0.008792015	-0.05719784
1.6e+08	0.03093267	-0.006734019	-0.002455177	-0.002090429	0.03464198	0.01547111	-0.002958831	-0.002520375
	-0.002455877	-0.002090334	0.03649821	-0.01672866	-0.002149922	-0.001764789	0.0400657	0.006070899
	0.03464138	0.01547117	-0.002150226	-0.001764524	0.03167883	-0.005886688	-0.00245872	-0.002040169
	-0.002958659	-0.002520444	0.0400662	0.006069686	-0.002458642	-0.002040333	0.03669415	-0.01670082
1.7e+08	0.06985756	-0.0271674	-0.00380895	0.0003712352	0.1097907	-0.006506956	-0.004552125	0.0004547586
	-0.003809205	0.0003717307	0.06594812	-0.05010188	-0.003257574	0.0003572185	0.106062	-0.02963869
	0.1097893	-0.006506865	-0.003257542	0.0003575271	0.07061752	-0.02679657	-0.003766454	0.0003766361
	-0.004552066	0.0004545515	0.1060606	-0.02964023	-0.003766456	0.0003764703	0.06606294	-0.05026538
1.8e+08	0.04792476	-0.06520679	-0.002286394	0.003553885	0.08701511	-0.08022212	-0.002737496	0.00423147
	-0.002286238	0.003554262	0.02824524	-0.08135393	-0.001948232	0.003064378	0.06525003	-0.09707169
	0.08701389	-0.080221	-0.001948022	0.003064506	0.04838617	-0.06484421	-0.002281336	0.003540133
	-0.002737643	0.004231279	0.06524823	-0.09707162	-0.002281437	0.003539992	0.02810293	-0.08148775
1.9e+08	0.006983524	-0.04911401	0.001271648	0.003994241	0.01680757	-0.05962878	0.001505285	0.004805434
	0.001271913	0.00399434	-0.008595624	-0.0502474	0.001128512	0.003444361	-0.003008751	-0.0580453
	0.01680744	-0.05962758	0.001128697	0.003444293	0.007614494	-0.04845122	0.001299749	0.003994857
	0.001505026	0.004805452	-0.003009322	-0.05804475	0.001299574	0.003994827	-0.008788783	-0.05013626
2e+08	0.01419498	-0.0131746	0.003618762	0.00200257	0.03909323	0.002651822	0.004391302	0.002381785
	0.00361893	0.002002492	0.01188838	-0.02006715	0.003141539	0.001676514	0.03554218	0.002353717
	0.03909331	0.002652234	0.003141595	0.001676364	0.01533971	-0.01272308	0.003628449	0.001935885
	0.004391178	0.002382016	0.03554185	0.002353284	0.003628318	0.001935991	0.01187025	-0.01991425
2.1e+08	0.03778033	-0.01676264	0.004526737	-0.001124696	0.09393189	-0.02431296	0.005362808	-0.001435851
	0.004526783	-0.001124801	0.02660127	-0.03879942	0.003860361	-0.001002335	0.08555565	-0.04185099
	0.09393145	-0.02431261	0.003860298	-0.001002455	0.03893704	-0.01694792	0.00444417	-0.001143988
	0.005362928	-0.001435632	0.08555432	-0.0418514	0.004444168	-0.001143833	0.02654238	-0.03881564
2.2e+08	0.03150825	-0.0315171	0.002356041	-0.0047985	0.06479572	-0.0749044	0.002723219	-0.005667201
	0.002356027	-0.00479857	0.000806925	-0.04581187	0.002002088	-0.004125117	0.03426521	-0.08818386
	0.06479542	-0.07490355	0.002001973	-0.004125143	0.03219316	-0.03193371	0.00233105	-0.004731864
	0.002723451	-0.005667178	0.03426383	-0.08818316	0.002331158	-0.004731779	0.0004920285	-0.04578108
2.3e+08	0.01819903	-0.02361575	-0.002433909	-0.004984162	0.01939288	-0.04628778	-0.002855871	-0.005901968
	-0.002433944	-0.004984199	-0.009258138	-0.0172081	-0.002125907	-0.004283295	-0.01222927	-0.03467049
	0.01939321	-0.04628706	-0.002125986	-0.004283232	0.01871895	-0.02379554	-0.002411789	-0.004963486
	-0.002855732	-0.005902138	-0.01222969	-0.0346695	-0.002411679	-0.004963519	-0.00963825	-0.01687812
2.4e+08	0.02110634	-0.0119824	-0.005212819	-0.001565212	0.04875661	-0.009378769	-0.006247663	-0.001864566
	-0.005212858	-0.001565218	0.0112865	-0.007190115	-0.00450033	-0.001295972	0.03926779	0.007199264
	0.04875692	-0.009378615	-0.004500334	-0.001295891	0.02189117	-0.01220384	-0.005206993	-0.001529863
	-0.006247728	-0.001864756	0.03926769	0.007199616	-0.005206966	-0.001529948	0.0111149	-0.006718526
2.5e+08	0.02376254	-0.007788661	-0.005176264	0.00269518	0.0771753	-0.04140399	-0.006098495	0.003318229
	-0.005176292	0.002695196	0.009520985	-0.01915458	-0.004411729	0.002347883	0.0710986	-0.04398017
	0.07717523	-0.04140382	-0.004411683	0.002347935	0.02454141	-0.008506322	-0.005094777	0.002710542
	-0.006098669	0.003318192	0.07109804	-0.04397992	-0.005094818	0.002710487	0.009423165	-0.01878833
2.6e+08	0.02848196	0.002802174	-0.001466431	0.006388312	0.0430175	-0.06306791	-0.001600827	0.007485025
	-0.001466441	0.006388337	-0.005373725	-0.002598167	-0.001230564	0.005486366	0.01539114	-0.06681897
	0.04301754	-0.06306745	-0.001230499	0.005486367	0.02873045	0.001775817	-0.001431024	0.006291319
	-0.00160093	0.007485136	0.01539066	-0.06681819	-0.001431075	0.006291324	-0.005612647	-0.002221214
2.7e+08	0.04771382	0.004201316	0.004304192	0.005183952	0.02862174	-0.02756407	0.004993033	0.006041187
	0.004304203	0.005183972	0.01617586	0.02179501	0.00372947	0.004438997	-0.003259504	-0.005486721
	0.0286221	-0.02756378	0.003729505	0.004438954	0.04746377	0.003398438	0.004229162	0.005139173
	0.004993067	0.006041306	-0.003259349	-0.005485939	0.004229149	0.005139204	0.01588445	0.02241046
2.8e+08	0.05265258	-0.01616976	0.006477598	0.0002839948	0.0662301	-0.02116535	0.007639989	0.0004125048
	0.006477613	0.0002839981	0.04194466	0.003859997	0.005572701	0.0001990166	0.05914346	0.0112997
	0.06623035	-0.02116539	0.005572696	0.0001989728	0.05235045	-0.01665631	0.006438908	0.0003085057
	0.007640086	0.0004125313	0.05914376	0.01129994	0.006438922	0.0003085211	0.04185218	0.004664683
2.9e+08	0.0306943	-0.01704347	0.005153856	-0.004526579	0.06572484	-0.06101253	0.006101816	-0.005395785
	0.005153866	-0.004526584	0.02252111	-0.01323175	0.004396619	-0.003918816	0.07102956	-0.04781048
	0.06572484	-0.0610125	0.00439659	-0.003918843	0.03047182	-0.01758465	0.005121453	-0.004508117
	0.006101874	-0.005395844	0.07102951	-0.04781034	0.005121464	-0.004508121	0.02262857	-0.01245633
3e+08	0.03436021	0.01510452	-0.0001816465	-0.007767918	0.02490058	-0.05333233	-0.0002919018	-0.009100828
	-0.0001816421	-0.007767922	0.01027924	0.0194231	-0.0001997263	-0.006675487	0.01335005	-0.0494679
	0.02490069	-0.05333211	-0.0001997659	-0.006675486	0.03383271	0.01434966	-0.0001902715	-0.007695848
	-0.000291924	-0.009100886	0.01335006	-0.04946751	-0.0001902724	-0.007695857	0.01043879	0.02011148
3.1e+08	0.08004869	0.01571697	-0.006565799	-0.004405638	0.04160804	-0.01097048	-0.007613754	-0.005130854
	-0.006565799	-0.004405645	0.05616935	0.03940042	-0.00567155	-0.003742957	0.02193306	0.01263282
	0.04160832	-0.01097041	-0.005671572	-0.003742927	0.07894553	0.01515579	-0.006486886	-0.004373374
	-0.007613795	-0.005130854	0.0219334	0.01263305	-0.006486891	-0.004373373	0.05627372	0.04012346
3.2e+08	0.09116259	-0.03424912	-0.006901826	0.001934834	0.0883808	-0.03510194	-0.008092565	0.00213593
	-0.006901826	0.001934827	0.0869178	-0.005663237	-0.005912134	0.001699418	0.08990978	0.001282887
	0.08838093	-0.0351021	-0.005912128	0.001699448	0.0898012	-0.03417665	-0.006856476	0.001881157
	-0.008092572	0.002135952	0.08991002	0.001282797	-0.006856478	0.001881163	0.08711266	-0.004763352
3.3e+08	0.04582223	-0.05036156	-0.00390225	0.005900402	0.0607681	-0.08637701	-0.004698561	0.006917408
	-0.003902258	0.005900397	0.05041832	-0.03619817	-0.003332558	0.005089616	0.08030396	-0.0663916
	0.06076806	-0.08637707	-0.003332535	0.005089633	0.04475299	-0.04980505	-0.003914402	0.005855732
	-0.004698554	0.006917414	0.08030393	-0.06639166	-0.003914399	0.005855735	0.05088604	-0.03525252
3.4e+08	0.03382291	-0.003967491	0.001824737	0.008057642	0.009023669	-0.05411072	0.002097922	0.009493585
	0.001824727	0.008057643	0.02881398	0.002944002	0.001623182	0.006937096	0.01862403	-0.05133821
	0.009023723	-0.05411064	0.001623211	0.006937093	0.03299156	-0.003491809	0.00179109	0.008032362
	0.002097921	0.009493578	0.01862406	-0.05133811	0.001791093	0.008032362	0.02951341	0.003690471
3.5e+08	0.09197538	0.005986289	0.008271141	0.003240534	0.05062274	-0.002998264	0.009638475	0.003896438
	0.008271139	0.003240546	0.082891	0.02290157	0.007145615	0.002710623	0.04747593	0.008380235
	0.0506229	-0.002998317	0.007145629	0.002710596	0.09080438	0.006445265	0.008230041	0.003259894
	0.009638463	0.003896442	0.04747611	0.008380168	0.008230043	0.003259895	0.08350912	0.02340296
3.6e+08	0.1119394	-0.06014228	0.006776918	-0.004320538	0.1065916	-0.05186231	0.008050647	-0.004921035
	0.006776925	-0.004320531	0.1148525	-0.03753696	0.00577031	-0.0037496	0.1143087	-0.02806955
	0.1065916	-0.05186249	0.005770298	-0.003749624	0.1104547	-0.05902705	0.006782432	-0.004288635
	0.008050647	-0.004921013	0.1143086	-0.02806979	0.006782436	-0.004288635	0.1153316	-0.03692342
3.7e+08	0.05208561	-0.09416973	0.00174315	-0.006815225	0.05807292	-0.1159742	0.002223513	-0.008034208
	0.001743158	-0.006815224	0.06607997	-0.08068669	0.001481455	-0.005854395	0.08315574	-0.1014912
	0.05807278	-0.1159743	0.001481435	-0.005854405	0.05108676	-0.09223511	0.001751574	-0.006809473
	0.002223542	-0.008034194	0.08315555	-0.1014912	0.001751577	-0.006809474	0.06680818	-0.07991261
3.8e+08	0.01508005	-0.04322383	-0.003144251	-0.006952394	-0.008553282	-0.06812235	-0.003617434	-0.008279884
	-0.003144245	-0.0069524	0.02723561	-0.04286181	-0.002752902	-0.005994755	0.01445714	-0.07378965
	-0.008553336	-0.06812228	-0.002752924	-0.005994747	0.0149538	-0.04131554	-0.003125543	-0.006937707
	-0.003617408	-0.008279911	0.01445709	-0.0737896	-0.003125542	-0.006937714	0.02831111	-0.04236463
3.9e+08	0.06961551	-0.01257626	-0.00864929	-0.002250529	0.04671914	-0.004670107	-0.0101493	-0.002841326
	-0.008649293	-0.002250537	0.07249468	-0.01502804	-0.007485867	-0.001845043	0.05367383	-0.01435482
	0.04671918	-0.004670139	-0.007485874	-0.001845019	0.06954678	-0.01115929	-0.008628627	-0.002290447
	-0.01014932	-0.002841363	0.05367385	-0.01435494	-0.008628634	-0.002290454	0.07343286	-0.01500178
4e+08	0.1019287	-0.0757877	-0.006629291	0.005821874	0.1117785	-0.06795567	-0.008045967	0.006708159
	-0.006629298	0.005821874	0.1031039	-0.07260696	-0.005614982	0.005057114	0.1149761	-0.06722623
	0.1117784	-0.06795578	-0.005614969	0.005057132	0.101486	-0.07405894	-0.006693587	0.005816421
	-0.008046006	0.006708154	0.1149759	-0.06722641	-0.006693596	0.00581642	0.1036409	-0.07255235
4.1e+08	0.0422717	-0.1231729	0.0001278279	0.007695151	0.05093344	-0.1423789	-6.482166e-05	0.009250194
	0.0001278253	0.007695155	0.0513927	-0.1192788	0.0001421546	0.006586879	0.06480736	-0.1398871
	0.05093324	-0.1423789	0.0001421727	0.006586881	0.04231055	-0.1206302	0.0001454598	0.007780168
	-6.48489e-05	0.009250227	0.06480708	-0.1398871	0.0001454531	0.007780178	0.05203134	-0.1189108
4.2e+08	-0.01674715	-0.07821641	0.00456719	0.005380012	-0.02929708	-0.08908961	0.005444613	0.006537542
	0.00456719	0.005380015	-0.001247377	-0.08679143	0.003965462	0.004626885	-0.009595448	-0.1013564
	-0.02929718	-0.08908947	0.003965475	0.004626875	-0.01549081	-0.07575274	0.004656432	0.005341671
	0.00544463	0.006537587	-0.009595562	-0.1013563	0.004656435	0.005341683	-0.0001992825	-0.08665554
4.3e+08	0.02045493	-0.02285184	0.007950093	0.00122086	0.02553629	-0.01230597	0.00944972	0.001535272
	0.007950096	0.00122086	0.02469851	-0.04690134	0.006879224	0.000962875	0.03122003	-0.03921166
	0.0255363	-0.01230588	0.006879227	0.0009628576	0.02208805	-0.02141061	0.007906345	0.001167794
	0.009449771	0.001535276	0.03121996	-0.03921172	0.007906357	0.001167799	0.02555011	-0.04734789
4.4e+08	0.06856603	-0.06448458	0.0065297	-0.006139162	0.09925681	-0.07555531	0.007939925	-0.007161955
	0.006529702	-0.006139163	0.0541165	-0.08419762	0.00551974	-0.005346876	0.08615697	-0.09600112
	0.09925674	-0.0755553	0.005519727	-0.005346891	0.06962611	-0.06331029	0.006552974	-0.006119623
	0.007939952	-0.007161995	0.08615669	-0.09600118	0.006552986	-0.006119628	0.05437927	-0.08463706
4.5e+08	0.02588606	-0.1187226	-0.000904959	-0.008632865	0.03661685	-0.1554374	-0.0008596838	-0.01047627
	-0.0009049586	-0.008632867	0.01184726	-0.1232618	-0.0008401247	-0.00737681	0.02385765	-0.1604794
	0.03661672	-0.1554373	-0.0008401429	-0.007376809	0.02709883	-0.1169459	-0.0009224631	-0.008747932
	-0.000859701	-0.01047631	0.02385735	-0.1604792	-0.0009224585	-0.008747943	0.01202768	-0.1232632
4.6e+08	-0.04181376	-0.08879189	-0.006253299	-0.004713827	-0.05011405	-0.1043549	-0.007628812	-0.005837119
	-0.0062533	-0.004713827	-0.04087003	-0.09695409	-0.005410262	-0.004018149	-0.04938679	-0.1110621
	-0.0501141	-0.1043547	-0.005410272	-0.004018138	-0.03951863	-0.08715418	-0.006450644	-0.004666675
	-0.007628853	-0.005837128	-0.04938689	-0.1110619	-0.006450651	-0.004666685	-0.04030632	-0.09698859
4.7e+08	-0.02822582	-0.01855021	-0.007609175	0.0003389597	-0.00635454	-0.02033893	-0.009214609	0.0005432001
	-0.007609176	0.0003389588	-0.03335796	-0.05067107	-0.006547303	0.0003853859	-0.009774548	-0.04743932
	-0.00635449	-0.02033876	-0.006547303	0.0003854019	-0.02553288	-0.01816694	-0.007545213	0.0005648504
	-0.009214639	0.0005432277	-0.009774615	-0.04743925	-0.007545225	0.0005648486	-0.03293612	-0.05123674
4.8e+08	0.03219386	-0.02692586	-0.006025718	0.006193256	0.07119085	-0.06831073	-0.007121146	0.007402844
	-0.006025718	0.006193256	-0.006095796	-0.05928161	-0.005077092	0.005373571	0.03852604	-0.09668376
	0.07119089	-0.06831065	-0.005077081	0.005373583	0.03407773	-0.02727648	-0.005864108	0.006141509
	-0.007121138	0.007402883	0.03852581	-0.09668367	-0.005864115	0.006141516	-0.00631816	-0.05981423
4.9e+08	0.02146095	-0.08157993	0.001045207	0.009394108	0.02045453	-0.1465689	0.001151639	0.01124493
	0.001045206	0.009394109	-0.02693739	-0.08218045	0.0009717018	0.008017985	-0.02395614	-0.146227
	0.02045453	-0.1465687	0.0009717207	0.008017983	0.02291297	-0.08155579	0.001035402	0.009372779
	0.001151671	0.01124494	-0.02395634	-0.1462267	0.0010354	0.009372788	-0.02733351	-0.08220144
5e+08	-0.03925017	-0.07527885	0.007927331	0.005066003	-0.06246772	-0.1049311	0.009605487	0.006214633
	0.007927331	0.005066003	-0.06255145	-0.06376105	0.006842266	0.00428975	-0.08525251	-0.08864158
