! Tyco Electronics Strada Whisper System
! FEXT_H11112_G1112
!! 
!! SYSTEM DESCRIPTION: Daughtercard-Footprint-Connector-Footprint-Daughtercard
!! PCB DESCRIPTION: DC: 140mil, Megtron7N, upper layer route, 15mil stub, 6-6-6mil 10" traces
!! CONNECTOR DESCRIPTION: Next-Gen STRADA Whisper Direct-Plug Orthogonal Connector
!! MODEL DESCRIPTION: Tyco Electronics System 4-port S-parameter 
!! MODEL STATUS: Developmental
!! MODEL GEOMETRY: Channel Model
!! MODEL FREQUENCY RANGE: DC to 60 GHz in 10 MHz frequency steps
!! MODEL EDGE RATE LIMITATION: 8.3 ps (Using conservative 0.5/Fmax rule of thumb)
!! 
!! TIME-DOMAIN TRANSFORM CAUTIONS: 
!! 1.) Do not simulate transient edge rates faster than the number listed above.  Edge rates faster than this number 
!!     contain significant spectral content at frequencies above the model's highest frequency. 
!! 2.) Even when simulating edge rates that are slower than the number listed above, be aware that the best time 
!!     resolution possible with a direct iFFT is (1 / 2Fmax).  As a result, time resolution is typically not adequate 
!!     for most time-domain simulations unless tricks such as windowing are used to minimize leakage and aliasing. 
!! 3.) Because the model has a uniform frequency step, a direct iFFT will result in an impulse that that has a time 
!!     length given by either (1 / Fstep) or (1 / 2Fstep), depending on the transform being used.  Care has been taken 
!!     in selecting the frequency step to ensure a settled impulse response for the model.  Therefore, convolution with 
!!     the model's impulse response should present no issues.  However, if directly concatenating s-parameter models 
!!     in the frequency domain a user must either interpolate necessary interim frequencies or complete impulse response 
!!     zero-padding.  Impulse response zero-padding is more difficult, but more accurate. 
!! 
!! PORT DEFINITIONS: 
!! Port   1  ----->  TX Side	H11     G11     RX Side  <-----  Port   3
!! Port   2  ----->  TX Side	H12     G12     RX Side  <-----  Port   4
!! 
!!!!!!!!!!!!!!!!!!!!!!!!!!!!!!!!!!!!!!!!!!!!!!!!!!!!!!!!!!!!!!!!!!!!!!!!!!!!!!!!!!!!!!!!!!!!!!!!!!!!!!!!!!!!!!!!!!!!!!!!
! Touchstone data
! Created: 10-Dec-2018 by IdEM R2012 (8.0.5)
# Hz S MA R 50

!
                   0         0.0455705288                    0      3.38685134e-005                  180        0.00193010646                    0      2.78860586e-005                  180
     3.38685134e-005                  180         0.0453951628                    0      2.89445692e-005                  180        0.00180507026                    0
       0.00193010646                    0      2.89445692e-005                  180         0.0456832456                    0      3.32691533e-005                  180
     2.78860586e-005                  180        0.00180507026                    0      3.32691533e-005                  180         0.0456433275                    0

!
            10000000         0.0538762306           16.5111362      3.39965854e-005           160.311175         0.0288677727    72.29432850000001      2.98090014e-005           142.547713
     3.39965854e-005           160.311175         0.0537927244           16.8761276      3.55374911e-005           129.349369         0.0287888421    72.67570050000001
        0.0288677727    72.29432850000001      3.55374911e-005           129.349369          0.054136933            16.748637      3.27779663e-005           171.900227
     2.98090014e-005           142.547713         0.0287888421    72.67570050000001      3.27779663e-005           171.900227         0.0542059484           17.0898011

!
            20000000         0.0699546212           20.7560436      3.46200224e-005           140.752365         0.0557209409           60.4184616      3.49114927e-005           110.183351
     3.46200224e-005           140.752365         0.0700685184           21.3295481      5.03795196e-005           95.0384117         0.0556164324           60.8310398
        0.0557209409           60.4184616      5.03795196e-005           95.0384117  0.07050954380000002           21.0398567      3.17716373e-005           165.139616
     3.49114927e-005           110.183351         0.0556164324           60.8310398      3.17716373e-005           165.139616         0.0708204897           21.5763731

!
            30000000         0.0864208932           16.9309561       3.5784483e-005           121.349021         0.0791148481           47.4289802       4.1691177e-005    83.39363520000001
      3.5784483e-005           121.349021  0.08680576650000001           17.6801903      6.81603028e-005           70.3641561         0.0790602002    47.95532829999999
        0.0791148481           47.4289802      6.81603028e-005           70.3641561          0.087291249           17.2078258      3.09472607e-005           160.619117
      4.1691177e-005    83.39363520000001         0.0790602002    47.95532829999999      3.09472607e-005           160.619117  0.08793492999999999    17.90703570000001

!
            40000000           0.09946157    9.153988549999999 3.754846809999999e-005           102.047868  0.09779588889999999           34.2795519      4.90875451e-005    60.67768860000001
3.754846809999999e-005           102.047868          0.100213905           10.0985537      8.70643535e-005           50.0242413         0.0978981859    34.94767689999999
 0.09779588889999999           34.2795519      8.70643535e-005           50.0242413          0.100642447    9.426390939999999      3.12849639e-005           158.214189
     4.90875451e-005    60.67768860000001         0.0978981859    34.94767689999999      3.12849639e-005           158.214189          0.101727938           10.3028033

!
            50000000          0.107177685         -0.646790217      3.99553753e-005           82.7240836          0.110871587           21.1373194      5.65545107e-005           40.7088701
     3.99553753e-005           82.7240836          0.108417772          0.532768281       0.000106582956           31.8100792          0.111261788           21.9683971
         0.110871587           21.1373194       0.000106582956           31.8100792          0.108661938         -0.365147612      3.36344932e-005           156.286504
     5.65545107e-005           40.7088701          0.111261788           21.9683971      3.36344932e-005           156.286504          0.110320914   0.7194267469999999

!
            60000000          0.108566808          -11.6328077 4.301265230000001e-005           63.2197819           0.11774578           8.01929502       6.3868136e-005           22.6398768
4.301265230000001e-005           63.2197819          0.110431657          -10.1563329       0.000126619366            14.727031          0.118573366    9.036656819999998
          0.11774578           8.01929502       0.000126619366            14.727031           0.11034941          -11.3232503        3.826154e-005           152.657092
      6.3868136e-005           22.6398768          0.118573366    9.036656819999998        3.826154e-005           152.657092          0.112730372          -9.98275965

!
            70000000          0.103111584           -23.470566      4.66764003e-005           43.3847367           0.11805217   -5.100194460000001      7.09929624e-005           5.95061742
     4.66764003e-005           43.3847367          0.105746513          -21.5955347       0.000147192462          -1.74726117          0.119478914   -3.867562879999999
          0.11805217   -5.100194460000001       0.000147192462          -1.74726117           0.10518962          -23.1052065      4.48375273e-005           146.195723
     7.09929624e-005           5.95061742          0.119478914   -3.867562879999999      4.48375273e-005           146.195723          0.108449954          -21.4319446

!
            80000000         0.0906160528          -36.1140894      5.08390883e-005           23.1043882          0.111629508          -18.2407182 7.801516950000001e-005           -9.6965652
     5.08390883e-005           23.1043882         0.0941600147   -33.65376859999999       0.000168300999          -17.9246874          0.113818267          -16.7554348
         0.111629508          -18.2407182       0.000168300999          -17.9246874  0.09298637110000001   -35.64164050000001      5.27873385e-005           136.985984
7.801516950000001e-005           -9.6965652          0.113818267          -16.7554348      5.27873385e-005           136.985984  0.09727828719999999          -33.4976096

!
            90000000  0.07118847730000001          -49.8264404 5.531946139999999e-005            2.3143263  0.09856426270000002          -31.3653856      8.51081091e-005   -24.55154870000001
5.531946139999999e-005            2.3143263         0.0757426968          -46.3644849       0.000189838556          -34.0039009          0.101658908          -29.5773954
 0.09856426270000002          -31.3653856       0.000189838556          -34.0039009         0.0738415266          -49.1244819       6.1537726e-005            125.60094
     8.51081091e-005   -24.55154870000001          0.101658908          -29.5773954       6.1537726e-005            125.60094         0.0792836428          -46.2094428

!
           100000000         0.0453584352          -65.8685895      5.98586627e-005          -18.9926817  0.07929732339999999          -44.2831119 9.249915050000001e-005   -38.83622560000001
     5.98586627e-005          -18.9926817         0.0509033586           -60.066731        0.00021153784          -50.1061121  0.08339360269999999          -42.1213689
 0.07929732339999999          -44.2831119        0.00021153784          -50.1061121         0.0482553411          -64.4919508 7.057596599999998e-005           112.630658
9.249915050000001e-005   -38.83622560000001  0.08339360269999999          -42.1213689 7.057596599999998e-005           112.630658         0.0548682511   -59.87111550000001

!
           110000000         0.0148717473   -97.54314450000001 6.413183419999998e-005          -40.7628744         0.0547624952          -56.3076499       0.000100415913          -52.7741213
6.413183419999998e-005          -40.7628744         0.0205511078   -77.62024769999999       0.000232955366          -66.2866277          0.059879292          -53.6790247
        0.0547624952          -56.3076499       0.000232955366          -66.2866277         0.0176093122   -90.33095109999999      7.94432387e-005    98.55794560000001
      0.000100415913          -52.7741213          0.059879292          -53.6790247      7.94432387e-005    98.55794560000001         0.0249197961          -76.6585743

!
           120000000         0.0234349471           112.632288      6.77846964e-005   -62.88217690000001         0.0265820846          -63.7143492       0.000109012172          -66.5859705
     6.77846964e-005   -62.88217690000001         0.0145689589           107.242515       0.000253518902          -82.5398007         0.0326556486          -61.0018848
        0.0265820846          -63.7143492       0.000253518902          -82.5398007         0.0197377411           113.212558      8.77424388e-005           83.7662991
      0.000109012172          -66.5859705         0.0326556486          -61.0018848      8.77424388e-005           83.7662991         0.0100070295           114.077153

!
           130000000         0.0606431597    88.65327170000002 7.049480510000001e-005          -85.1862242        0.00748994237           37.4162922        0.00011830542          -80.4572098
7.049480510000001e-005          -85.1862242  0.05146392440000001    86.09743709999999       0.000272645311   -98.80849360000001        0.00823863128          -11.1154595
       0.00748994237           37.4162922       0.000272645311   -98.80849360000001         0.0567020863           88.1253731 9.517150329999999e-005           68.5631143
       0.00011830542          -80.4572098        0.00823863128          -11.1154595 9.517150329999999e-005           68.5631143         0.0463727888           87.0292094

!
           140000000          0.098216923           72.5699049 7.203941700000001e-005          -107.482657         0.0355376108           65.9974706       0.000128169107   -94.50311790000001
7.203941700000001e-005          -107.482657  0.08875634860000001    71.31146010000001       0.000289895851          -115.003449          0.029595137           61.2376413
        0.0355376108           65.9974706       0.000289895851          -115.003449  0.09405742059999998    72.10565459999999       0.000101556009    53.18819849999999
      0.000128169107   -94.50311790000001          0.029595137           61.2376413       0.000101556009    53.18819849999999  0.08333984229999998           71.8853319

!
           150000000          0.133627079           58.0208591      7.23399736e-005           -129.58189         0.0636809525           56.6661218       0.000138389101          -108.759892
     7.23399736e-005           -129.58189          0.124199941    57.37851180000001 0.0003050988859999999          -131.030119           0.05750523           55.4596109
        0.0636809525           56.6661218 0.0003050988859999999          -131.030119          0.129258535           57.6142627       0.000106850194           37.8132986
      0.000138389101          -108.759892           0.05750523           55.4596109       0.000106850194           37.8132986          0.118510591    57.85353979999999

!
           160000000          0.165069442           44.1894697 7.146194019999999e-005          -151.326528         0.0883260422           44.9641691       0.000148745379          -123.206436
7.146194019999999e-005          -151.326528          0.155995814           43.8718241        0.00031837865          -146.814088         0.0824635091           44.7248203
        0.0883260422           44.9641691        0.00031837865          -146.814088          0.160500469           43.8173209       0.000111099597    22.54587400000001
      0.000148745379          -123.206436         0.0824635091           44.7248203       0.000111099597    22.54587400000001          0.150074098           44.3116189

!
           170000000          0.191317189            30.859762      6.95739008e-005          -172.609871          0.108329051    32.91017419999999       0.000159069079            -137.7983
     6.95739008e-005          -172.609871          0.182853163           30.7078579       0.000330084576          -162.316232          0.103065535           33.0539952
         0.108329051    32.91017419999999       0.000330084576          -162.316232          0.186549213           30.5057627       0.000114386434           7.44334177
      0.000159069079            -137.7983          0.103065535           33.0539952       0.000114386434           7.44334177          0.176727348           31.1392688

!
           180000000          0.211670044           17.9292679      6.68895791e-005           166.619735          0.123110684           20.9412197         0.0001692555          -152.494073
     6.68895791e-005           166.619735          0.203991153            17.841869       0.000340669684          -177.534654          0.118614349           21.2338005
         0.123110684           20.9412197       0.000340669684          -177.534654          0.206695155           17.5821085        0.00011678533   -7.465363550000002
        0.0001692555          -152.494073          0.118614349           21.2338005        0.00011678533   -7.465363550000002          0.197675889    18.28121610000001

!
           190000000          0.225821871    5.314041000000001      6.36167247e-005           146.365473          0.132450675    9.165640990000002       0.000179245086          -167.267405
     6.36167247e-005           146.365473          0.219033221    5.217715670000001        0.00035057639           167.503199           0.12880957           9.47792815
         0.132450675    9.165640990000002        0.00035057639           167.503199          0.220623222            4.9653372        0.00011834384          -22.1575192
      0.000179245086          -167.267405           0.12880957           9.47792815        0.00011834384          -22.1575192          0.212530275    5.678337110000001

!
           200000000          0.233711385   -7.069276819999999      5.99240079e-005           126.594004          0.136324434   -2.413232670000001       0.000188992761           177.892083
     5.99240079e-005           126.594004           0.22786707   -7.236552870000002 0.0003601619409999999           152.752475          0.133573929           -2.1750556
         0.136324434   -2.413232670000001 0.0003601619409999999           152.752475           0.22826512          -7.42622152       0.000119087975          -36.5980884
      0.000188992761           177.892083          0.133573929           -2.1750556       0.000119087975          -36.5980884          0.221167918          -6.74105303

!
           210000000          0.235409346          -19.3005824      5.59250177e-005            107.24923          0.134792899          -13.8181518       0.000198438904           162.983585
     5.59250177e-005            107.24923          0.230529119          -19.6015498       0.000369666011           138.162445          0.132933885           -13.746692
         0.134792899          -13.8181518       0.000369666011           138.162445          0.229687447           -19.671466       0.000119047689          -50.7265074
      0.000198438904           162.983585          0.132933885           -13.746692       0.000119047689          -50.7265074          0.223618735   -19.05513270000001

!
           220000000          0.231065751           -31.446683      5.16738408e-005    88.26816710000001          0.127963657          -25.0469253       0.000207487439           148.002005
     5.16738408e-005    88.26816710000001           0.22714224          -31.9565182       0.000379209049           123.685642          0.126966777          -25.2630905
         0.127963657          -25.0469253       0.000379209049           123.685642          0.225039472          -31.8365045       0.000118298021   -64.44998579999999
      0.000207487439           148.002005          0.126966777          -25.2630905       0.000118298021   -64.44998579999999          0.220003614          -31.3384825

!
           230000000          0.220920717          -43.5482813      4.71683318e-005            69.603308          0.116025158   -36.01324560000001       0.000215993955           132.945447
     4.71683318e-005            69.603308          0.217913971          -44.3686147       0.000388810641           109.284371          0.115816673          -36.7085227
         0.116025158   -36.01324560000001       0.000388810641           109.284371          0.214564426           -43.961217       0.000117011397          -77.6471545
      0.000215993955           132.945447          0.115816673          -36.7085227       0.000117011397          -77.6471545          0.210533095          -43.6505513

!
           240000000          0.205371412          -55.6038108      4.23613656e-005           51.2598604  0.09934808539999999           -46.437434       0.000223767944             117.8225
     4.23613656e-005           51.2598604          0.203189767          -56.8820349       0.000398423296    94.93472590000002  0.09977039259999999          -47.9570753
 0.09934808539999999           -46.437434       0.000398423296    94.93472590000002          0.198666554          -56.0423569       0.000115509999          -90.1901503
      0.000223767944             117.8225  0.09977039259999999          -47.9570753       0.000115509999          -90.1901503          0.195560845          -56.0229947

!
           250000000          0.185075152   -67.54966500000001      3.71839305e-005           33.3625473         0.0786531421          -55.5638099       0.000230593787           102.658073
