! Tyco Electronics Strada Whisper System
! THRU_G1112
!! 
!! SYSTEM DESCRIPTION: Daughtercard-Footprint-Connector-Footprint-Daughtercard
!! PCB DESCRIPTION: DC: 140mil, Megtron7N, upper layer route, 15mil stub, 6-6-6mil 10" traces
!! CONNECTOR DESCRIPTION: Next-Gen STRADA Whisper Direct-Plug Orthogonal Connector
!! MODEL DESCRIPTION: Tyco Electronics System 4-port S-parameter 
!! MODEL STATUS: Developmental
!! MODEL GEOMETRY: Channel Model
!! MODEL FREQUENCY RANGE: DC to 60 GHz in 10 MHz frequency steps
!! MODEL EDGE RATE LIMITATION: 8.3 ps (Using conservative 0.5/Fmax rule of thumb)
!! 
!! TIME-DOMAIN TRANSFORM CAUTIONS: 
!! 1.) Do not simulate transient edge rates faster than the number listed above.  Edge rates faster than this number 
!!     contain significant spectral content at frequencies above the model's highest frequency. 
!! 2.) Even when simulating edge rates that are slower than the number listed above, be aware that the best time 
!!     resolution possible with a direct iFFT is (1 / 2Fmax).  As a result, time resolution is typically not adequate 
!!     for most time-domain simulations unless tricks such as windowing are used to minimize leakage and aliasing. 
!! 3.) Because the model has a uniform frequency step, a direct iFFT will result in an impulse that that has a time 
!!     length given by either (1 / Fstep) or (1 / 2Fstep), depending on the transform being used.  Care has been taken 
!!     in selecting the frequency step to ensure a settled impulse response for the model.  Therefore, convolution with 
!!     the model's impulse response should present no issues.  However, if directly concatenating s-parameter models 
!!     in the frequency domain a user must either interpolate necessary interim frequencies or complete impulse response 
!!     zero-padding.  Impulse response zero-padding is more difficult, but more accurate. 
!! 
!! PORT DEFINITIONS: 
!! Port   1  ----->  TX Side      G11     RX Side  <-----  Port   2
!! Port   3  ----->  TX Side      G12     RX Side  <-----  Port   4
!! 
!!!!!!!!!!!!!!!!!!!!!!!!!!!!!!!!!!!!!!!!!!!!!!!!!!!!!!!!!!!!!!!!!!!!!!!!!!!!!!!!!!!!!!!!!!!!!!!!!!!!!!!!!!!!!!!!!!!!!!!!
! Touchstone data
! Created: 10-Dec-2018 by IdEM R2012 (8.0.5)
# Hz S MA R 50

!
                   0         0.0458690179                    0          0.952327813                    0        0.00173984742                    0        0.00137716166                  180
         0.952327813                    0         0.0455705288                    0        0.00139814456                  180        0.00193010646                    0
       0.00173984742                    0        0.00139814456                  180         0.0461230118                    0           0.95213657                    0
       0.00137716166                  180        0.00193010646                    0           0.95213657                    0         0.0456832456                    0

!
            10000000         0.0540613715           16.2693564          0.950077721          -13.9982217         0.0287506504           72.6860336        0.00254046602          -153.539682
         0.950077721          -13.9982217         0.0538762306           16.5111362        0.00253337812          -154.469908         0.0288677727    72.29432850000001
        0.0287506504           72.6860336        0.00253337812          -154.469908          0.054467951    16.46509010000001          0.949879709            -14.00042
       0.00254046602          -153.539682         0.0288677727    72.29432850000001          0.949879709            -14.00042          0.054136933            16.748637

!
            20000000         0.0699369656           20.5185345   0.9469242410000001          -27.9336998         0.0555064831           60.6645377        0.00433797036          -170.606943
  0.9469242410000001          -27.9336998         0.0699546212           20.7560436        0.00431121007          -171.546257         0.0557209409           60.4184616
        0.0555064831           60.6645377        0.00431121007          -171.546257         0.0706597761           20.7477041          0.946706367          -27.9376277
       0.00433797036          -170.606943         0.0557209409           60.4184616          0.946706367          -27.9376277  0.07050954380000002           21.0398567

!
            30000000         0.0862063513           16.7728488          0.943252834   -41.79403249999999  0.07880233490000001           47.6522791        0.00598439117           163.206684
         0.943252834   -41.79403249999999         0.0864208932           16.9309561        0.00595738622           162.158392         0.0791148481           47.4289802
 0.07880233490000001           47.6522791        0.00595738622           162.158392         0.0872827202           16.9855609          0.943006114   -41.79886509999999
       0.00598439117           163.206684         0.0791148481           47.4289802          0.943006114   -41.79886509999999          0.087291249           17.2078258

!
            40000000  0.09906276529999999    9.087482509999999          0.939650854          -55.5756504  0.09738791050000001           34.5162392        0.00732916775           134.217793
         0.939650854          -55.5756504           0.09946157    9.153988549999999        0.00732388005           133.035497  0.09779588889999999           34.2795519
 0.09738791050000001           34.5162392        0.00732388005           133.035497           0.10049942           9.28105747   0.9393719640000001          -55.5803078
       0.00732916775           134.217793  0.09779588889999999           34.2795519   0.9393719640000001          -55.5803078          0.100642447    9.426390939999999

!
            50000000          0.106600888  -0.6129229470000001          0.936684516          -69.2925027          0.110371066           21.4092915 0.008307611990000002           103.850352
         0.936684516          -69.2925027          0.107177685         -0.646790217        0.00834741103           102.557984          0.110871587           21.1373194
         0.110371066           21.4092915        0.00834741103           102.557984          0.108400415         -0.433150996   0.9363766670000001           -69.295771
0.008307611990000002           103.850352          0.110871587           21.1373194   0.9363766670000001           -69.295771          0.108661938         -0.365147612

!
            60000000          0.107812696          -11.4781981   0.9347563459999999   -82.97352429999999          0.117155411           8.34828076 0.008884430150000001           72.4155433
  0.9347563459999999   -82.97352429999999          0.108566808          -11.6328077        0.00899134245    71.07628219999999           0.11774578           8.01929502
         0.117155411           8.34828076        0.00899134245    71.07628219999999           0.10997932          -11.3063254   0.9344296630000001          -82.9741815
0.008884430150000001           72.4155433           0.11774578           8.01929502   0.9344296630000001          -82.9741815           0.11034941          -11.3232503

!
            70000000          0.102176327          -23.1525636   0.9340173390000001   -96.65693469999999          0.117374894          -4.68515083        0.00904242492    39.76646829999999
  0.9340173390000001   -96.65693469999999          0.103111584           -23.470566        0.00923362562           38.4922686           0.11805217   -5.100194460000001
         0.117374894          -4.68515083        0.00923362562           38.4922686          0.104716505          -22.9821267   0.9336889529999999   -96.65387730000001
       0.00904242492    39.76646829999999           0.11805217   -5.100194460000001   0.9336889529999999   -96.65387730000001           0.10518962          -23.1052065

!
            80000000         0.0894907491          -35.5447488   0.9343217220000001          -110.383126          0.110870157          -17.6935849        0.00878649064    5.394319120000001
  0.9343217220000001          -110.383126         0.0906160528          -36.1140894 0.009069477100000001            4.3770274          0.111629508          -18.2407182
         0.110870157          -17.6935849 0.009069477100000001            4.3770274         0.0924114966          -35.3651089          0.934015586          -110.375502
       0.00878649064    5.394319120000001          0.111629508          -18.2407182          0.934015586          -110.375502  0.09298637110000001   -35.64164050000001

!
            90000000         0.0698535914   -48.80286950000001   0.9352187279999999          -124.186577  0.09773306629999999          -30.6029621        0.00816693663          -31.6910411
  0.9352187279999999          -124.186577  0.07118847730000001          -49.8264404 0.008531290489999999          -32.1133052  0.09856426270000002          -31.3653856
 0.09773306629999999          -30.6029621 0.008531290489999999          -32.1133052         0.0731590709   -48.58368410000001          0.934964902          -124.173926
       0.00816693663          -31.6910411  0.09856426270000002          -31.3653856          0.934964902          -124.173926         0.0738415266          -49.1244819

!
           100000000         0.0437529377          -63.7757029          0.935994909          -138.087065          0.078417903          -43.1296995        0.00733691561   -73.20003490000001
         0.935994909          -138.087065         0.0453584352          -65.8685895 0.007737718299999999   -72.44916809999999  0.07929732339999999          -44.2831119
         0.078417903          -43.1296995 0.007737718299999999   -72.44916809999999  0.04743743769999999   -63.35671659999999          0.935827861          -138.069456
       0.00733691561   -73.20003490000001  0.07929732339999999          -44.2831119          0.935827861          -138.069456         0.0482553411          -64.4919508

!
           110000000         0.0125313662          -91.2152396   0.9357936130000001          -152.081625         0.0538977948          -54.2867693         0.0066574776          -121.264999
  0.9357936130000001          -152.081625         0.0148717473   -97.54314450000001 0.006987206839999999          -118.667646         0.0547624952          -56.3076499
        0.0538977948          -54.2867693 0.006987206839999999          -118.667646         0.0164525793          -86.8067195          0.935749155          -152.059766
        0.0066574776          -121.264999         0.0547624952          -56.3076499          0.935749155          -152.059766         0.0176093122   -90.33095109999999

!
           120000000         0.0244157687           105.029919          0.933821217          -166.140483         0.0260056109          -58.6254468 0.006734319549999999          -175.145745
         0.933821217          -166.140483         0.0234349471           112.632288         0.0068325133          -171.135132         0.0265820846          -63.7143492
        0.0260056109          -58.6254468         0.0068325133          -171.135132         0.0201275214           107.889414          0.933932173           -166.11576
0.006734319549999999          -175.145745         0.0265820846          -63.7143492          0.933932173           -166.11576         0.0197377411           113.212558

!
           130000000         0.0621350443    85.30587010000002          0.929594071           179.789324         0.0101688434           34.5148539        0.00799854105           132.366329
         0.929594071           179.789324         0.0606431597    88.65327170000002 0.007799183380000001           135.764329        0.00748994237           37.4162922
        0.0101688434           34.5148539 0.007799183380000001           135.764329  0.05743626749999999    85.99937319999999          0.929885541           179.814909
       0.00799854105           132.366329        0.00748994237           37.4162922          0.929885541           179.814909         0.0567020863           88.1253731

!
           140000000         0.0998983968           70.1769316   0.9231208469999999           165.771633         0.0373371262    62.16606770000001         0.0102545902           86.8365775
  0.9231208469999999           165.771633          0.098216923           72.5699049 0.009845328110000001    88.69679290000001         0.0355376108           65.9974706
        0.0373371262    62.16606770000001 0.009845328110000001    88.69679290000001         0.0949088605           70.6137305           0.92360654            165.79563
        0.0102545902           86.8365775         0.0355376108           65.9974706           0.92360654            165.79563  0.09405742059999998    72.10565459999999

!
           150000000          0.135423647    56.00678549999999          0.914919464           151.864145         0.0653278014           54.0834899         0.0130493384           47.6012045
         0.914919464           151.864145          0.133627079           58.0208591         0.0125430126    48.26339980000001         0.0636809525           56.6661218
        0.0653278014           54.0834899         0.0125430126    48.26339980000001          0.130188972           56.3657462   0.9156003079999999           151.883895
        0.0130493384           47.6012045         0.0636809525           56.6661218   0.9156003079999999           151.883895          0.129258535           57.6142627

!
           160000000          0.166941211           42.3451637   0.9058577940000001           138.104009  0.08991745080000001           42.8478522         0.0160298461           12.5622546
  0.9058577940000001           138.104009          0.165069442           44.1894697         0.0155082317            12.491822         0.0883260422           44.9641691
 0.08991745080000001           42.8478522         0.0155082317            12.491822          0.161493942           42.6751326   0.9067230670000001           138.116888
        0.0160298461           12.5622546         0.0883260422           44.9641691   0.9067230670000001           138.116888          0.160500469           43.8173209

!
           170000000           0.19323595           29.0777357          0.896909641           124.501435          0.109884735            30.986967         0.0189694822          -19.7293696
         0.896909641           124.501435          0.191317189            30.859762         0.0184871786          -20.2193474          0.108329051    32.91017419999999
         0.109884735            30.986967         0.0184871786          -20.2193474          0.187595866    29.40007450000001          0.897939692           124.505045
        0.0189694822          -19.7293696          0.108329051    32.91017419999999          0.897939692           124.505045          0.186549213           30.5057627

!
           180000000          0.213613457           16.1387024          0.888942056           111.041693           0.12463226           19.0719185         0.0217247929          -50.1294035
         0.888942056           111.041693          0.211670044           17.9292679         0.0213181213   -50.84698390000001          0.123110684           20.9412197
          0.12463226           19.0719185         0.0213181213   -50.84698390000001          0.207787043           16.4666822   0.8901112960000001           111.033978
        0.0217247929          -50.1294035          0.123110684           20.9412197   0.8901112960000001           111.033978          0.206695155           17.5821085

!
           190000000          0.227770487           3.45740492          0.882595056    97.69195720000002          0.133932345    7.254038310000001         0.0242012482           -79.163973
         0.882595056    97.69195720000002          0.225821871    5.314041000000001         0.0238937951          -79.9888442          0.132450675    9.165640990000002
         0.133932345    7.254038310000001         0.0238937951          -79.9888442          0.221752281    3.802120930000001          0.883874177           97.6712538
        0.0242012482           -79.163973          0.132450675    9.165640990000002          0.883874177           97.6712538          0.220623222            4.9653372

!
           200000000          0.235645985   -9.047694559999998          0.878246833    84.40899469999999          0.137753825          -4.45432415         0.0263291805          -107.182981
         0.878246833    84.40899469999999          0.233711385   -7.069276819999999         0.0261351336          -108.035638          0.136324434   -2.413232670000001
         0.137753825          -4.45432415         0.0261351336          -108.035638          0.229421491          -8.67465773   0.8796039070000001    84.37405459999999
        0.0263291805          -107.182981          0.136324434   -2.413232670000001   0.8796039070000001    84.37405459999999           0.22826512          -7.42622152

!
           210000000          0.237307951          -21.4625903   0.8760251960000001           71.1455203          0.136148009          -16.0875298         0.0280474397          -134.432036
  0.8760251960000001           71.1455203          0.235409346          -19.3005824         0.0279737229          -135.256498          0.134792899          -13.8181518
         0.136148009          -16.0875298         0.0279737229          -135.256498          0.230857578          -21.0472848          0.877425828           71.0955309
        0.0280474397          -134.432036          0.134792899          -13.8181518          0.877425828           71.0955309          0.229687447           -19.671466

!
           220000000          0.232899904   -33.86794340000001   0.8758297309999999            57.855002          0.129206534          -27.6769564         0.0292943116          -161.082351
  0.8758297309999999            57.855002          0.231065751           -31.446683         0.0293419876           -161.83631          0.127963657          -25.0469253
         0.129206534          -27.6769564         0.0293419876           -161.83631          0.226203617   -33.39204709999999          0.877236805           57.7896403
        0.0292943116          -161.082351          0.127963657          -25.0469253          0.877236805           57.7896403          0.225039472          -31.8365045

!
           230000000           0.22265061   -46.32816560000001          0.877349237           44.4958115          0.117090255          -39.2055834         0.0300060906           172.760631
         0.877349237           44.4958115          0.220920717          -43.5482813         0.0301713226           172.111742          0.116025158   -36.01324560000001
         0.117090255          -39.2055834         0.0301713226           172.111742          0.215693118          -45.7661648          0.878722922           44.4153325
        0.0300060906           172.760631          0.116025158   -36.01324560000001          0.878722922           44.4153325          0.214564426           -43.961217

!
           240000000          0.206939275          -58.8799304          0.880080194           31.0356566          0.100118105          -50.5372278         0.0301239933           147.060006
         0.880080194           31.0356566          0.205371412          -55.6038108         0.0303988506            146.54683  0.09934808539999999           -46.437434
         0.100118105          -50.5372278         0.0303988506            146.54683          0.199715558   -58.19460050000001          0.881378926           30.9409999
        0.0301239933           147.060006  0.09934808539999999           -46.437434          0.881378926           30.9409999          0.198666554          -56.0423569

!
           250000000           0.18639608   -71.52111979999999   0.8833669009999999           17.4564441         0.0788981971   -61.24392690000001         0.0296095005           121.855963
