! Tyco Electronics Strada Whisper System
! NEXT_F89_G1112
!! 
!! SYSTEM DESCRIPTION: Daughtercard-Footprint-Connector-Footprint-Daughtercard
!! PCB DESCRIPTION: DC: 140mil, Megtron7N, upper layer route, 15mil stub, 6-6-6mil 10" traces
!! CONNECTOR DESCRIPTION: Next-Gen STRADA Whisper Direct-Plug Orthogonal Connector
!! MODEL DESCRIPTION: Tyco Electronics System 4-port S-parameter 
!! MODEL STATUS: Developmental
!! MODEL GEOMETRY: Channel Model
!! MODEL FREQUENCY RANGE: DC to 60 GHz in 10 MHz frequency steps
!! MODEL EDGE RATE LIMITATION: 8.3 ps (Using conservative 0.5/Fmax rule of thumb)
!! 
!! TIME-DOMAIN TRANSFORM CAUTIONS: 
!! 1.) Do not simulate transient edge rates faster than the number listed above.  Edge rates faster than this number 
!!     contain significant spectral content at frequencies above the model's highest frequency. 
!! 2.) Even when simulating edge rates that are slower than the number listed above, be aware that the best time 
!!     resolution possible with a direct iFFT is (1 / 2Fmax).  As a result, time resolution is typically not adequate 
!!     for most time-domain simulations unless tricks such as windowing are used to minimize leakage and aliasing. 
!! 3.) Because the model has a uniform frequency step, a direct iFFT will result in an impulse that that has a time 
!!     length given by either (1 / Fstep) or (1 / 2Fstep), depending on the transform being used.  Care has been taken 
!!     in selecting the frequency step to ensure a settled impulse response for the model.  Therefore, convolution with 
!!     the model's impulse response should present no issues.  However, if directly concatenating s-parameter models 
!!     in the frequency domain a user must either interpolate necessary interim frequencies or complete impulse response 
!!     zero-padding.  Impulse response zero-padding is more difficult, but more accurate. 
!! 
!! PORT DEFINITIONS: 
!! Port   1  ----->  RX Side	F8     G11     RX Side  <-----  Port   3
!! Port   2  ----->  RX Side	F9     G12     RX Side  <-----  Port   4
!! 
!!!!!!!!!!!!!!!!!!!!!!!!!!!!!!!!!!!!!!!!!!!!!!!!!!!!!!!!!!!!!!!!!!!!!!!!!!!!!!!!!!!!!!!!!!!!!!!!!!!!!!!!!!!!!!!!!!!!!!!!
! Touchstone data
! Created: 10-Dec-2018 by IdEM R2012 (8.0.5)
# Hz S MA R 50

!
                   0         0.0458690179                    0      1.03217541e-006                    0        0.00173984742                    0      5.98199331e-007                    0
     1.03217541e-006                    0         0.0426652973                    0      1.87459983e-006                    0        0.00140232773                    0
       0.00173984742                    0      1.87459983e-006                    0         0.0461230118                    0      1.19304434e-006                    0
     5.98199331e-007                    0        0.00140232773                    0      1.19304434e-006                    0         0.0428486463                    0

!
            10000000         0.0540613715           16.2693564      3.94645301e-006           60.0648332         0.0287506504           72.6860336      3.26521664e-006           -93.964184
     3.94645301e-006           60.0648332  0.05171584960000001           19.0057569      3.82771225e-005           73.9842457         0.0284133759           73.6528414
        0.0287506504           72.6860336      3.82771225e-005           73.9842457          0.054467951    16.46509010000001      9.57726491e-006            71.108847
     3.26521664e-006           -93.964184         0.0284133759           73.6528414      9.57726491e-006            71.108847         0.0520911179           19.2705908

!
            20000000         0.0699369656           20.5185345 7.658820050000001e-006           52.9325834         0.0555064831           60.6645377        6.365143e-006          -113.530425
7.658820050000001e-006           52.9325834  0.06909033219999999           23.8763884      7.67016079e-005           62.1834325         0.0549765432    61.65427650000001
        0.0555064831           60.6645377      7.67016079e-005           62.1834325         0.0706597761           20.7477041      1.94802038e-005    62.77095889999999
       6.365143e-006          -113.530425         0.0549765432    61.65427650000001      1.94802038e-005    62.77095889999999  0.06984106010000001           24.1689229

!
            30000000         0.0862063513           16.7728488      1.14184722e-005    41.36793280000001  0.07880233490000001           47.6522791       9.3363522e-006          -129.556039
     1.14184722e-005    41.36793280000001         0.0869260112           20.2319203       0.000115709018           49.4256552  0.07829417850000001    48.87647980000001
 0.07880233490000001           47.6522791       0.000115709018           49.4256552         0.0872827202           16.9855609      3.02531181e-005           51.6269199
      9.3363522e-006          -129.556039  0.07829417850000001    48.87647980000001      3.02531181e-005           51.6269199  0.08808298740000001           20.4959732

!
            40000000  0.09906276529999999    9.087482509999999      1.53115297e-005           28.9909065  0.09738791050000001           34.5162392      1.20981556e-005          -144.580166
     1.53115297e-005           28.9909065          0.101503935           12.6736397       0.000155705312           36.3686485         0.0972021775           36.0330229
 0.09738791050000001           34.5162392       0.000155705312           36.3686485           0.10049942           9.28105747      4.22475165e-005           39.3176304
     1.20981556e-005          -144.580166         0.0972021775           36.0330229      4.22475165e-005           39.3176304          0.103070777           12.9105823

!
            50000000          0.106600888  -0.6129229470000001       1.9542003e-005           16.3630808          0.110371066           21.4092915       1.4568837e-005          -159.069201
      1.9542003e-005           16.3630808          0.111039814           3.20692762       0.000197147916           23.0900279          0.110871904    23.24919690000001
         0.110371066           21.4092915       0.000197147916           23.0900279          0.108400415         -0.433150996      5.57840602e-005           26.0976843
      1.4568837e-005          -159.069201          0.110871904    23.24919690000001      5.57840602e-005           26.0976843          0.113019206           3.42435937

!
            60000000          0.107812696          -11.4781981      2.43792888e-005           3.36039541          0.117155411           8.34828076      1.66516423e-005          -173.059692
     2.43792888e-005           3.36039541          0.114602291   -7.304764450000002       0.000240465245    9.557673759999998          0.118754272           10.5334068
         0.117155411           8.34828076       0.000240465245    9.557673759999998           0.10997932          -11.3063254 7.112485999999998e-005           12.0095119
     1.66516423e-005          -173.059692          0.118754272           10.5334068 7.112485999999998e-005           12.0095119          0.117000335          -7.10090798

!
            70000000          0.102176327          -23.1525636      3.00893597e-005          -10.3774682          0.117374894          -4.68515083      1.82457654e-005           173.670208
     3.00893597e-005          -10.3774682          0.111709108          -18.4819094        0.00028593677   -4.294935750000001          0.120512193          -2.14131363
         0.117374894          -4.68515083        0.00028593677   -4.294935750000001          0.104716505          -22.9821267 8.843666410000001e-005          -2.95342102
     1.82457654e-005           173.670208          0.120512193          -2.14131363 8.843666410000001e-005          -2.95342102          0.114535266          -18.2879899

!
            80000000         0.0894907491          -35.5447488 3.684719619999999e-005          -25.2176906          0.110870157          -17.6935849      1.92971755e-005           161.630349
3.684719619999999e-005          -25.2176906           0.10215914          -30.1675983 0.0003335327830000001          -18.5394659          0.115983019          -14.7981196
         0.110870157          -17.6935849 0.0003335327830000001          -18.5394659         0.0924114966          -35.3651089       0.000107726979          -18.8037635
     1.92971755e-005           161.630349          0.115983019          -14.7981196       0.000107726979          -18.8037635          0.105424302          -29.9820329

!
            90000000         0.0698535914   -48.80286950000001       4.4649262e-005          -41.3910923  0.09773306629999999          -30.6029621      1.99151126e-005           151.633139
      4.4649262e-005          -41.3910923         0.0859879665          -42.3172776        0.00038273201          -33.2306598          0.105196779   -27.41542370000001
 0.09773306629999999          -30.6029621        0.00038273201          -33.2306598         0.0731590709   -48.58368410000001       0.000128754743          -35.5368534
     1.99151126e-005           151.633139          0.105196779   -27.41542370000001       0.000128754743          -35.5368534  0.08970118140000001          -42.1402152

!
           100000000         0.0437529377          -63.7757029 5.324681980000001e-005   -58.93494690000001          0.078417903          -43.1296995       2.0552534e-005           144.479111
5.324681980000001e-005   -58.93494690000001  0.06351186020000001          -54.9704414        0.00043237102           -48.384599  0.08845366949999999   -39.85370300000001
         0.078417903          -43.1296995        0.00043237102           -48.384599  0.04743743769999999   -63.35671659999999       0.000150938984          -53.1087554
      2.0552534e-005           144.479111  0.08845366949999999   -39.85370300000001       0.000150938984          -53.1087554         0.0676762036          -54.8014884

!
           110000000         0.0125313662          -91.2152396 6.212553899999998e-005   -77.69799810000001         0.0538977948          -54.2867693      2.20917601e-005            139.83832
6.212553899999998e-005   -77.69799810000001         0.0354257153   -68.43977839999999       0.000480626339   -63.95900170000001         0.0664424723          -51.6452451
        0.0538977948          -54.2867693       0.000480626339   -63.95900170000001         0.0164525793          -86.8067195       0.000173317207          -71.4158412
     2.20917601e-005            139.83832         0.0664424723          -51.6452451       0.000173317207          -71.4158412         0.0400341148          -68.2406874

!
           120000000         0.0244157687           105.029919      7.05633779e-005          -97.3740689         0.0260056109          -58.6254468        2.544885e-005           135.206407
     7.05633779e-005          -97.3740689        0.00303138598   -99.12648440000001       0.000525243573          -79.8424425  0.04039300409999999   -60.95054300000001
        0.0260056109          -58.6254468       0.000525243573          -79.8424425         0.0201275214           107.889414       0.000194621077          -90.2831557
       2.544885e-005           135.206407  0.04039300409999999   -60.95054300000001       0.000194621077          -90.2831557 0.007976582750000001          -88.0669927

!
           130000000         0.0621350443    85.30587010000002      7.77829561e-005          -117.547999         0.0101688434           34.5148539      3.08102877e-005           127.673317
     7.77829561e-005          -117.547999         0.0325369578           88.7039765 0.0005640433320000001   -95.86097580000001         0.0131034988          -49.9920889
        0.0101688434           34.5148539 0.0005640433320000001   -95.86097580000001  0.05743626749999999    85.99937319999999       0.000213505279          -109.470641
     3.08102877e-005           127.673317         0.0131034988          -49.9920889       0.000213505279          -109.470641         0.0271307843    89.70371369999999

!
           140000000         0.0998983968           70.1769316 8.316244030000001e-005          -137.751228         0.0373371262    62.16606770000001      3.74952833e-005           116.484485
8.316244030000001e-005          -137.751228         0.0687873039    74.49927980000001 0.0005955498810000001           -111.80565         0.0205829259           59.3442996
        0.0373371262    62.16606770000001 0.0005955498810000001           -111.80565         0.0949088605           70.6137305       0.000228874438          -128.701049
     3.74952833e-005           116.484485         0.0205829259           59.3442996       0.000228874438          -128.701049         0.0630302143           75.0185365

!
           150000000          0.135423647    56.00678549999999 8.641499030000001e-005          -157.522231         0.0653278014           54.0834899      4.45052629e-005           102.590617
8.641499030000001e-005          -157.522231           0.10388903    60.99506770000001       0.000619442279          -127.473874         0.0484555963             58.60296
        0.0653278014           54.0834899       0.000619442279          -127.473874          0.130188972           56.3657462       0.000240162324          -147.702493
     4.45052629e-005           102.590617         0.0484555963             58.60296       0.000240162324          -147.702493         0.0978337489            61.424593

!
           160000000          0.166941211           42.3451637 8.765201510000002e-005          -176.459988  0.08991745080000001           42.8478522 5.100159250000001e-005           87.2515482
8.765201510000002e-005          -176.459988          0.136024562           47.7951398       0.000636593391          -142.709075         0.0742397251    48.65737790000001
 0.08991745080000001           42.8478522       0.000636593391          -142.709075          0.161493942           42.6751326       0.000247423846          -166.249746
5.100159250000001e-005           87.2515482         0.0742397251    48.65737790000001       0.000247423846          -166.249746          0.129715953           48.1975341

!
           170000000           0.19323595           29.0777357      8.73178398e-005           165.739883          0.109884735            30.986967      5.64979743e-005           71.4549698
     8.73178398e-005           165.739883          0.163799604           34.8707754       0.000648716452          -157.424241         0.0961753897           37.2554941
         0.109884735            30.986967       0.000648716452          -157.424241          0.187595866    29.40007450000001       0.000251216422           175.810549
     5.64979743e-005           71.4549698         0.0961753897           37.2554941       0.000251216422           175.810549           0.15727209    35.26889129999999

!
           180000000          0.213613457           16.1387024      8.60558178e-005           149.265784           0.12463226           19.0719185      6.08680237e-005           55.8512065
     8.60558178e-005           149.265784          0.186299691           22.2133734 0.0006578506850000001          -171.604619          0.113406534           25.5614578
          0.12463226           19.0719185 0.0006578506850000001          -171.604619          0.207787043           16.4666822       0.000252367012           158.555838
     6.08680237e-005           55.8512065          0.113406534           25.5614578       0.000252367012           158.555838          0.179574162           22.6204022

!
           190000000          0.227770487           3.45740492 8.457775930000001e-005           134.176373          0.133932345    7.254038310000001      6.42630723e-005           40.8169836
8.457775930000001e-005           134.176373          0.203027068    9.792872410000001 0.0006659251169999999           174.705209          0.125509858           13.8840314
         0.133932345    7.254038310000001 0.0006659251169999999           174.705209          0.221752281    3.802120930000001        0.00025174799           141.999697
     6.42630723e-005           40.8169836          0.125509858           13.8840314        0.00025174799           141.999697          0.196110411           10.2195803

!
           200000000          0.235645985   -9.047694559999998       8.3569101e-005           120.381722          0.137753825          -4.45432415 6.700464820000001e-005    26.52044340000001
      8.3569101e-005           120.381722          0.213780287          -2.44340768        0.00067450665           161.420849          0.132326087           2.29901342
         0.137753825          -4.45432415        0.00067450665           161.420849          0.229421491          -8.67465773       0.000250131335           126.110898
6.700464820000001e-005    26.52044340000001          0.132326087           2.29901342       0.000250131335           126.110898          0.206667173          -1.98582811

!
           210000000          0.237307951          -21.4625903 8.361967820000001e-005           107.624903          0.136148009          -16.0875298 6.948584750000001e-005           12.9645808
8.361967820000001e-005           107.624903          0.218537449          -14.5622217       0.000684712394           148.437159           0.13383524   -9.199988380000001
         0.136148009          -16.0875298       0.000684712394           148.437159          0.230857578          -21.0472848       0.000248126756           110.832256
6.948584750000001e-005           12.9645808           0.13383524   -9.199988380000001       0.000248126756           110.832256          0.211213656          -14.0602909

!
           220000000          0.232899904   -33.86794340000001      8.51576613e-005           95.4929812          0.129206534          -27.6769564 7.208908740000001e-005         0.0170491712
     8.51576613e-005           95.4929812          0.217379411          -26.6334558       0.000697216884           135.643749          0.130085795          -20.6401627
         0.129206534          -27.6769564       0.000697216884           135.643749          0.226203617   -33.39204709999999       0.000246177506           96.0959641
7.208908740000001e-005         0.0170491712          0.130085795          -20.6401627       0.000246177506           96.0959641          0.209826102          -26.0694591

!
           230000000           0.22265061   -46.32816560000001      8.83842577e-005    83.48931469999999          0.117090255          -39.2055834      7.51157147e-005          -12.5560771
     8.83842577e-005    83.48931469999999          0.210466635   -38.71858950000001       0.000712295908           122.936831          0.121185238          -32.0277352
         0.117090255          -39.2055834       0.000712295908           122.936831          0.215693118          -45.7661648       0.000244586336    81.83511180000001
     7.51157147e-005          -12.5560771          0.121185238          -32.0277352       0.000244586336    81.83511180000001          0.202665298          -38.0678335

!
           240000000          0.206939275          -58.8799304 9.323442389999999e-005           71.1579526          0.100118105          -50.5372278 7.872676869999999e-005          -25.0380474
9.323442389999999e-005           71.1579526          0.198069288          -50.8585841       0.000729882061           110.228459          0.107348153   -43.29853669999999
         0.100118105          -50.5372278       0.000729882061           110.228459          0.199715558   -58.19460050000001       0.000243555935           67.9921679
7.872676869999999e-005          -25.0380474          0.107348153   -43.29853669999999       0.000243555935           67.9921679          0.190007203          -50.0849206

!
           250000000           0.18639608   -71.52111979999999      9.93923096e-005           58.1990625         0.0788981971   -61.24392690000001 8.290513160000002e-005          -37.6922273
