! Tyco Electronics Strada Whisper System
! FEXT_H89_G1112
!! 
!! SYSTEM DESCRIPTION: Daughtercard-Footprint-Connector-Footprint-Daughtercard
!! PCB DESCRIPTION: DC: 140mil, Megtron7N, upper layer route, 15mil stub, 6-6-6mil 10" traces
!! CONNECTOR DESCRIPTION: Next-Gen STRADA Whisper Direct-Plug Orthogonal Connector
!! MODEL DESCRIPTION: Tyco Electronics System 4-port S-parameter 
!! MODEL STATUS: Developmental
!! MODEL GEOMETRY: Channel Model
!! MODEL FREQUENCY RANGE: DC to 60 GHz in 10 MHz frequency steps
!! MODEL EDGE RATE LIMITATION: 8.3 ps (Using conservative 0.5/Fmax rule of thumb)
!! 
!! TIME-DOMAIN TRANSFORM CAUTIONS: 
!! 1.) Do not simulate transient edge rates faster than the number listed above.  Edge rates faster than this number 
!!     contain significant spectral content at frequencies above the model's highest frequency. 
!! 2.) Even when simulating edge rates that are slower than the number listed above, be aware that the best time 
!!     resolution possible with a direct iFFT is (1 / 2Fmax).  As a result, time resolution is typically not adequate 
!!     for most time-domain simulations unless tricks such as windowing are used to minimize leakage and aliasing. 
!! 3.) Because the model has a uniform frequency step, a direct iFFT will result in an impulse that that has a time 
!!     length given by either (1 / Fstep) or (1 / 2Fstep), depending on the transform being used.  Care has been taken 
!!     in selecting the frequency step to ensure a settled impulse response for the model.  Therefore, convolution with 
!!     the model's impulse response should present no issues.  However, if directly concatenating s-parameter models 
!!     in the frequency domain a user must either interpolate necessary interim frequencies or complete impulse response 
!!     zero-padding.  Impulse response zero-padding is more difficult, but more accurate. 
!! 
!! PORT DEFINITIONS: 
!! Port   1  ----->  TX Side	H8     G11     RX Side  <-----  Port   3
!! Port   2  ----->  TX Side	H9     G12     RX Side  <-----  Port   4
!! 
!!!!!!!!!!!!!!!!!!!!!!!!!!!!!!!!!!!!!!!!!!!!!!!!!!!!!!!!!!!!!!!!!!!!!!!!!!!!!!!!!!!!!!!!!!!!!!!!!!!!!!!!!!!!!!!!!!!!!!!!! Touchstone data
! Created: 10-Dec-2018 by IdEM R2012 (8.0.5)
# Hz S MA R 50

!
                   0         0.0455705288                    0      1.05511549e-006                  180        0.00193010646                    0      6.86550059e-007                  180
     1.05511549e-006                  180          0.043912061                    0      1.09897805e-006                  180        0.00157283419                    0
       0.00193010646                    0      1.09897805e-006                  180         0.0456832456                    0 9.542651420000001e-007                  180
     6.86550059e-007                  180        0.00157283419                    0 9.542651420000001e-007                  180         0.0441190476                    0

!
            10000000         0.0538762306           16.5111362      4.55876489e-006          -122.136364         0.0288677727    72.29432850000001      7.87646698e-006           83.1036883
     4.55876489e-006          -122.136364         0.0526680139           18.0266339      4.55927746e-006            92.619759         0.0285941887    73.22104710000001
        0.0288677727    72.29432850000001      4.55927746e-006            92.619759          0.054136933            16.748637      1.46819485e-006           128.603584
     7.87646698e-006           83.1036883         0.0285941887    73.22104710000001      1.46819485e-006           128.603584         0.0530879322    18.32341720000001

!
            20000000         0.0699546212           20.7560436      8.73834018e-006          -134.369066         0.0557209409           60.4184616       1.5992484e-005           68.4396606
     8.73834018e-006          -134.369066  0.06955393310000001           22.7121523 9.163965430000001e-006    73.82368510000001         0.0552856464           61.2698039
        0.0557209409           60.4184616 9.163965430000001e-006    73.82368510000001  0.07050954380000002           21.0398567      2.69620214e-006           102.868328
      1.5992484e-005           68.4396606         0.0552856464           61.2698039      2.69620214e-006           102.868328         0.0703948883           23.0429941

!
            30000000         0.0864208932           16.9309561      1.25998512e-005          -150.757785         0.0791148481           47.4289802      2.46438314e-005           55.0246381
     1.25998512e-005          -150.757785         0.0868996583            19.063613       1.4240996e-005           58.9163483  0.07866108769999999           48.4331776
        0.0791148481           47.4289802       1.4240996e-005           58.9163483          0.087291249           17.2078258       4.5057711e-006           83.7409048
     2.46438314e-005           55.0246381  0.07866108769999999           48.4331776       4.5057711e-006           83.7409048         0.0881964083           19.3604291

!
            40000000           0.09946157    9.153988549999999      1.59735132e-005          -168.081247  0.09779588889999999           34.2795519      3.39942663e-005           41.5122911
     1.59735132e-005          -168.081247          0.100946921            11.490568      1.98703044e-005    44.42591819999999         0.0975286477           35.5033281
 0.09779588889999999           34.2795519      1.98703044e-005    44.42591819999999          0.100642447    9.426390939999999      6.93527778e-006           65.2854112
     3.39942663e-005           41.5122911         0.0975286477           35.5033281      6.93527778e-006           65.2854112          0.102700633           11.7530473

!
            50000000          0.107177685         -0.646790217      1.87240211e-005            174.32118          0.110871587           21.1373194      4.41525805e-005           27.6123509
     1.87240211e-005            174.32118          0.109868503           1.97548763       2.6106893e-005           29.6630882          0.111041025           22.6201774
         0.110871587           21.1373194       2.6106893e-005           29.6630882          0.108661938         -0.365147612      1.00385894e-005    46.35909720000001
     4.41525805e-005           27.6123509          0.111041025           22.6201774      1.00385894e-005    46.35909720000001          0.112078191           2.21187801

!
            60000000          0.108566808          -11.6328077      2.07120002e-005           156.685475           0.11774578           8.01929502      5.51791688e-005           13.2223976
     2.07120002e-005           156.685475          0.112708467   -8.617739759999999      3.29792868e-005           14.4267754          0.118636398    9.796383720000002
          0.11774578           8.01929502      3.29792868e-005           14.4267754           0.11034941          -11.3232503       1.3874996e-005           26.7815861
     5.51791688e-005           13.2223976          0.118636398    9.796383720000002       1.3874996e-005           26.7815861          0.115376663          -8.40054473

!
            70000000          0.103111584           -23.470566      2.17774762e-005            139.19832           0.11805217   -5.100194460000001      6.70782743e-005          -1.71455456
     2.17774762e-005            139.19832           0.10897299          -19.9105593      4.04885934e-005          -1.36982341          0.119970537          -2.99238241
          0.11805217   -5.100194460000001      4.04885934e-005          -1.36982341           0.10518962          -23.1052065      1.85003345e-005    6.531492310000001
     6.70782743e-005          -1.71455456          0.119970537          -2.99238241      1.85003345e-005    6.531492310000001          0.112106054          -19.7079174

!
            80000000         0.0906160528          -36.1140894      2.17457071e-005           122.189477          0.111629508          -18.2407182       7.9763227e-005           -17.242656
     2.17457071e-005           122.189477         0.0984609704   -31.75367969999999       4.8584463e-005          -17.7888698          0.114882488          -15.7643804
         0.111629508          -18.2407182       4.8584463e-005          -17.7888698  0.09298637110000001   -35.64164050000001      2.39424879e-005          -14.4003188
      7.9763227e-005           -17.242656          0.114882488          -15.7643804      2.39424879e-005          -14.4003188          0.102067199   -31.56260350000001

!
            90000000  0.07118847730000001          -49.8264404      2.04748186e-005           106.391989  0.09856426270000002          -31.3653856      9.30006785e-005          -33.3882344
     2.04748186e-005           106.391989         0.0812240992   -44.12587609999999      5.71211983e-005          -34.8752222          0.103419828   -28.48606150000001
 0.09856426270000002          -31.3653856      5.71211983e-005          -34.8752222         0.0738415266          -49.1244819      3.01633698e-005          -36.0131124
     9.30006785e-005          -33.3882344          0.103419828   -28.48606150000001      3.01633698e-005          -36.0131124         0.0853103081          -43.9431027

!
           100000000         0.0453584352          -65.8685895      1.79883307e-005           93.5017245  0.07929732339999999          -44.2831119       0.000106357675          -50.1378661
     1.79883307e-005           93.5017245         0.0576196001          -57.1506001 6.581171780000001e-005   -52.63268350000001  0.08592547490000001          -40.9865571
 0.07929732339999999          -44.2831119 6.581171780000001e-005   -52.63268350000001         0.0482553411          -64.4919508      3.70159771e-005          -58.2689201
      0.000106357675          -50.1378661  0.08592547490000001          -40.9865571      3.70159771e-005          -58.2689201         0.0621867357          -56.9608161

!
           110000000         0.0148717473   -97.54314450000001      1.48177497e-005           87.4118558         0.0547624952          -56.3076499       0.000119193176          -67.4130157
     1.48177497e-005           87.4118558          0.028421831   -71.70731600000001      7.42110812e-005   -70.99305560000001          0.063165442   -52.69564100000001
        0.0547624952          -56.3076499      7.42110812e-005   -70.99305560000001         0.0176093122   -90.33095109999999 4.421471190000001e-005          -81.0650033
      0.000119193176          -67.4130157          0.063165442   -52.69564100000001 4.421471190000001e-005          -81.0650033         0.0334593224          -71.3141187

!
           120000000         0.0234349471           112.632288      1.28110814e-005    94.04811130000002         0.0265820846          -63.7143492       0.000130738273          -85.0551949
     1.28110814e-005    94.04811130000002 0.005449277820000001           115.707526 8.176506409999999e-005          -89.7966206         0.0365061362          -61.2048046
        0.0265820846          -63.7143492 8.176506409999999e-005          -89.7966206         0.0197377411           113.212558      5.13449888e-005          -104.219262
      0.000130738273          -85.0551949         0.0365061362          -61.2048046      5.13449888e-005          -104.219262        0.00185809098          -162.711946

!
           130000000         0.0606431597    88.65327170000002      1.49768086e-005           106.301782        0.00748994237           37.4162922        0.00014027398          -102.834242
     1.49768086e-005           106.301782         0.0414360667           87.2890591      8.79348658e-005          -108.798892 0.009923493930000001          -35.7933239
       0.00748994237           37.4162922      8.79348658e-005          -108.798892         0.0567020863           88.1253731 5.793039670000001e-005          -127.478068
       0.00014027398          -102.834242 0.009923493930000001          -35.7933239 5.793039670000001e-005          -127.478068         0.0355590009           88.2818571

!
           140000000          0.098216923           72.5699049      2.12992186e-005           106.512431         0.0355376108           65.9974706       0.000147344794          -120.483808
     2.12992186e-005           106.512431         0.0782008084           72.8362812      9.23561664e-005          -127.708268         0.0250735806    61.05678360000001
        0.0355376108           65.9974706      9.23561664e-005          -127.708268  0.09405742059999998    72.10565459999999 6.354446810000001e-005          -150.549042
      0.000147344794          -120.483808         0.0250735806    61.05678360000001 6.354446810000001e-005          -150.549042         0.0719475768           73.3917388

!
           150000000          0.133627079           58.0208591      2.95315966e-005    96.43582000000001         0.0636809525           56.6661218       0.000151896067          -137.753856
     2.95315966e-005    96.43582000000001          0.113478381           59.1383802 9.494947090000001e-005           -146.24364  0.05305382539999999           57.2191892
        0.0636809525           56.6661218 9.494947090000001e-005           -146.24364          0.129258535           57.6142627      6.79178123e-005          -173.149444
      0.000151896067          -137.753856  0.05305382539999999           57.2191892      6.79178123e-005          -173.149444          0.106902397           59.5936186

!
           160000000          0.165069442           44.1894697      3.82501188e-005           81.7115472         0.0883260422           44.9641691       0.000154256931          -154.459365
     3.82501188e-005           81.7115472          0.145456241           45.7972417 9.591857630000002e-005          -164.189642  0.07848376980000001           46.8129801
        0.0883260422           44.9641691 9.591857630000002e-005          -164.189642          0.160500469           43.8173209      7.09867537e-005           164.948013
      0.000154256931          -154.459365  0.07848376980000001           46.8129801      7.09867537e-005           164.948013          0.138600033            46.219493

!
           170000000          0.191317189            30.859762 4.677421099999999e-005    65.12913070000001          0.108329051    32.91017419999999       0.000154989887          -170.506472
4.677421099999999e-005    65.12913070000001          0.172786575           32.7604865      9.56462986e-005           178.571146  0.09980851659999998    35.25218790000001
         0.108329051    32.91017419999999      9.56462986e-005           178.571146          0.186549213           30.5057627       7.2867012e-005           143.887945
      0.000154989887          -170.506472  0.09980851659999998    35.25218790000001       7.2867012e-005           143.887945          0.165680234           33.1762072

!
           180000000          0.211670044           17.9292679      5.48223719e-005           47.9100333          0.123110684           20.9412197       0.000154701044           174.109967
     5.48223719e-005           47.9100333          0.194617802           20.0034829      9.45541686e-005           162.057009          0.116249153           23.4802294
         0.123110684           20.9412197      9.45541686e-005           162.057009          0.206695155           17.5821085 7.378027080000001e-005           123.728401
      0.000154701044           174.109967          0.116249153           23.4802294 7.378027080000001e-005           123.728401          0.187276681           20.4285382

!
           190000000          0.225821871    5.314041000000001 6.234396400000001e-005           30.5827194          0.132450675    9.165640990000002       0.000153897392           159.330314
6.234396400000001e-005           30.5827194          0.210510669            7.4842361      9.29919218e-005           146.211286          0.127441342           11.7522679
         0.132450675    9.165640990000002      9.29919218e-005           146.211286          0.220623222            4.9653372      7.39754497e-005           104.454266
      0.000153897392           159.330314          0.127441342           11.7522679      7.39754497e-005           104.454266          0.202935705    7.931802010000001

!
           200000000          0.233711385   -7.069276819999999      6.94118395e-005           13.3472921          0.136324434   -2.413232670000001       0.000152922952           145.063102
     6.94118395e-005           13.3472921          0.220307481   -4.859025010000001       9.1184255e-005           130.939957          0.133265374          0.123701079
         0.136324434   -2.413232670000001       9.1184255e-005           130.939957           0.22826512          -7.42622152 7.367066420000002e-005           85.9983987
      0.000152922952           145.063102          0.133265374          0.123701079 7.367066420000002e-005           85.9983987          0.212487799          -4.37518511

!
           210000000          0.235409346          -19.3005824      7.61434138e-005   -3.763242990000001          0.134792899          -13.8181518       0.000151961176           131.216575
     7.61434138e-005   -3.763242990000001          0.224015094          -17.0997901 8.922866799999998e-005           116.151766           0.13372369          -11.4201655
         0.134792899          -13.8181518 8.922866799999998e-005           116.151766          0.229687447           -19.671466 7.302024460000001e-005           68.2640407
      0.000151961176           131.216575           0.13372369          -11.4201655 7.302024460000001e-005           68.2640407          0.215932129          -16.5631143

!
           220000000          0.231065751           -31.446683 8.264176420000002e-005          -20.8023444          0.127963657          -25.0469253       0.000151078053           117.723156
8.264176420000002e-005          -20.8023444          0.221734628   -29.31265120000001 8.712725519999999e-005           101.794515          0.128878504          -22.9065088
         0.127963657          -25.0469253 8.712725519999999e-005           101.794515          0.225039472          -31.8365045 7.210014769999999e-005           51.1472853
      0.000151078053           117.723156          0.128878504          -22.9065088 7.210014769999999e-005           51.1472853          0.213367247          -28.7014309

!
           230000000          0.220920717          -43.5482813      8.89503679e-005   -37.86303300000001          0.116025158   -36.01324560000001       0.000150287647           104.554456
     8.89503679e-005   -37.86303300000001          0.213648499          -41.5620849      8.48406875e-005            87.884682          0.118854606          -34.3314714
         0.116025158   -36.01324560000001      8.48406875e-005            87.884682          0.214564426           -43.961217 7.090583459999999e-005           34.5624221
      0.000150287647           104.554456          0.118854606          -34.3314714 7.090583459999999e-005           34.5624221           0.20497883          -40.8461595

!
           240000000          0.205371412          -55.6038108 9.501839190000001e-005          -55.0445599  0.09934808539999999           -46.437434       0.000149631324    91.72424049999999
9.501839190000001e-005          -55.0445599          0.200061964          -53.8908709      8.23613026e-005           74.5263636          0.103901218   -45.60252370000001
 0.09934808539999999           -46.437434      8.23613026e-005           74.5263636          0.198666554          -56.0423569      6.93637149e-005           18.4739077
      0.000149631324    91.72424049999999          0.103901218   -45.60252370000001      6.93637149e-005           18.4739077          0.191081708           -53.026265

!
           250000000          0.185075152   -67.54966500000001       0.000100680778   -72.42428320000001         0.0786531421          -55.5638099       0.000149260887    79.27418280000001
