! Touchstone data
! Created: 10-Dec-2018 by IdEM R2012 (8.0.5)
# Hz S MA R 50

!
                   0         0.0514105367                    0      1.04258213e-006                  180        0.00190984166                    0 6.782359070000001e-007                  180
     1.04258213e-006                  180         0.0497760659                    0      1.08490897e-006                  180        0.00155542955                    0
       0.00190984166                    0      1.08490897e-006                  180         0.0515213991                    0 9.423854000000001e-007                  180
6.782359070000001e-007                  180        0.00155542955                    0 9.423854000000001e-007                  180         0.0499807312                    0

!
            10000000         0.0616659692           15.8109953      4.52033323e-006          -125.172602         0.0336020913           70.6216743 7.902211660000001e-006    81.12310359999999
     4.52033323e-006          -125.172602         0.0605274116           17.1848454      4.62703599e-006           90.3337751         0.0333506627    71.44538609999999
        0.0336020913           70.6216743      4.62703599e-006           90.3337751         0.0619295343           16.0101787      1.53252356e-006           125.420421
7.902211660000001e-006    81.12310359999999         0.0333506627    71.44538609999999      1.53252356e-006           125.420421         0.0609497039           17.4315766

!
            20000000  0.08067217090000001            17.924155       8.6053293e-006          -140.520614         0.0641311468    56.25374269999999      1.61416649e-005           64.4527021
      8.6053293e-006          -140.520614  0.08040954190000001            19.676287 9.377897770000002e-006           69.5926046         0.0637612266           57.0444845
        0.0641311468    56.25374269999999 9.377897770000002e-006           69.5926046         0.0812306255           18.1561476      2.94954903e-006    98.17317580000001
     1.61416649e-005           64.4527021         0.0637612266           57.0444845      2.94954903e-006    98.17317580000001  0.08125208289999999            19.945304

!
            30000000  0.09858315690000001           11.6660592      1.22671791e-005          -159.942917         0.0893260471           41.0298026       2.5076877e-005           48.8150694
     1.22671791e-005          -159.942917         0.0993021182           13.5985744      1.47075962e-005    52.38638630000001         0.0890278811           41.9865266
        0.0893260471           41.0298026      1.47075962e-005    52.38638630000001          0.099453024           11.8929564      5.07116841e-006           76.5809074
      2.5076877e-005           48.8150694         0.0890278811           41.9865266      5.07116841e-006           76.5809074          0.100595331            13.840602

!
            40000000          0.110608682           1.51623805      1.52989142e-005           179.748143          0.107443884    25.74520740000001       3.4900898e-005           32.8686291
     1.52989142e-005           179.748143          0.112494606    3.679255599999999      2.07080408e-005           35.3447371           0.10748174           26.9311501
         0.107443884    25.74520740000001      2.07080408e-005           35.3447371          0.111784604           1.74466565      7.94853865e-006           55.1033865
      3.4900898e-005           32.8686291           0.10748174           26.9311501      7.94853865e-006           55.1033865          0.114240842           3.89704526

!
            50000000          0.114517721          -10.6050831      1.75176696e-005           159.199843          0.117356173           10.5038189      4.57294052e-005           16.3274219
     1.75176696e-005           159.199843          0.117835269          -8.11042771      2.74367495e-005    17.82224100000001          0.118047688           11.9616519
         0.117356173           10.5038189      2.74367495e-005    17.82224100000001          0.115994598          -10.3589102      1.16474486e-005           32.8525416
     4.57294052e-005           16.3274219          0.118047688           11.9616519      1.16474486e-005           32.8525416          0.120037937          -7.90904733

!
            60000000           0.10926228          -23.9528163      1.87134729e-005           138.711048          0.118402586           -4.7192812      5.75994399e-005  -0.9228100420000002
     1.87134729e-005           138.711048            0.1143206          -20.9798485      3.49140399e-005  -0.3880464790000001          0.120100608          -2.94962668
         0.118402586           -4.7192812      3.49140399e-005  -0.3880464790000001          0.111038271          -23.6639602      1.62313373e-005    9.689661050000002
     5.75994399e-005  -0.9228100420000002          0.120100608          -2.94962668      1.62313373e-005    9.689661050000002          0.116988164   -20.78848740000001

!
            70000000         0.0944619345          -38.3341192      1.86447214e-005           118.742268          0.110311508   -19.94763560000001      7.04181626e-005          -18.9594483
     1.86447214e-005           118.742268          0.101572859          -34.6307826      4.30881488e-005          -19.4079814          0.113371677           -17.828865
         0.110311508   -19.94763560000001      4.30881488e-005          -19.4079814         0.0965362708           -37.954932      2.17230525e-005           -14.428625
     7.04181626e-005          -18.9594483          0.113371677           -17.828865      2.17230525e-005           -14.428625          0.104716672          -34.4442191

!
            80000000         0.0703083426   -54.01038820000001      1.71114924e-005           100.448408         0.0932772127          -35.0861321      8.38637498e-005   -37.82398360000001
     1.71114924e-005           100.448408         0.0797106853          -48.9950998      5.17570894e-005   -39.31681769999999  0.09799438079999999          -32.5966387
        0.0932772127          -35.0861321      5.17570894e-005   -39.31681769999999         0.0726740919          -53.4136999       2.8038653e-005   -39.50774030000001
     8.38637498e-005   -37.82398360000001  0.09799438079999999          -32.5966387       2.8038653e-005   -39.50774030000001  0.08333962189999999   -48.80598500000001

!
            90000000         0.0377809327   -72.92067350000001      1.42040007e-005            86.960638         0.0681926871          -49.6411717 9.729358420000001e-005          -57.4762957
     1.42040007e-005            86.960638         0.0494643401   -64.23470140000001      6.04877678e-005          -60.1038617         0.0747013223          -46.8355631
        0.0681926871          -49.6411717      6.04877678e-005          -60.1038617         0.0403932733          -71.4798955      3.49150449e-005          -65.4673658
9.729358420000001e-005          -57.4762957         0.0747013223          -46.8355631      3.49150449e-005          -65.4673658         0.0535776155          -64.0091383

!
           100000000         0.0057838143           169.618514      1.10706208e-005    86.33581870000002         0.0369759715          -61.1156731       0.000109762617          -77.7452864
     1.10706208e-005    86.33581870000002         0.0124219149   -83.52252660000001      6.86115376e-005          -81.6085753          0.045124822          -58.6987629
        0.0369759715          -61.1156731      6.86115376e-005          -81.6085753        0.00483860337          -158.060182       4.1878804e-005   -92.09254439999999
      0.000109762617          -77.7452864          0.045124822          -58.6987629       4.1878804e-005   -92.09254439999999         0.0169928649          -82.1121916

!
           110000000         0.0455744582           90.9112544      1.13332514e-005           102.326177        0.00684023079          -8.34501758       0.000120242356   -98.31656769999999
     1.13332514e-005           102.326177         0.0290974319    88.87907319999999      7.53708554e-005          -103.501968         0.0131952442          -47.4045343
       0.00684023079          -8.34501758      7.53708554e-005          -103.501968         0.0422191631           90.4108202      4.83140349e-005          -119.023726
      0.000120242356   -98.31656769999999         0.0131952442          -47.4045343      4.83140349e-005          -119.023726         0.0240934857    89.78796130000001

!
           120000000         0.0890715334    71.75802210000001      1.69810886e-005           106.769573         0.0349008957           64.7773376       0.000127993316          -118.784328
     1.69810886e-005           106.769573  0.07168934840000001    71.91858070000001      8.01916938e-005          -125.341155           0.02586422    60.83640440000001
        0.0349008957           64.7773376      8.01916938e-005          -125.341155  0.08548833689999999           71.3417791      5.36383129e-005          -145.806567
      0.000127993316          -118.784328           0.02586422    60.83640440000001      5.36383129e-005          -145.806567  0.06629355659999998           72.2949416

!
           130000000          0.129652746           55.0156771      2.51680633e-005    95.46696679999999         0.0672674592           54.3608945       0.000132863473          -138.755061
     2.51680633e-005    95.46696679999999           0.11214076           56.0991501      8.29159076e-005          -146.683827         0.0581647608           55.3503846
        0.0672674592           54.3608945      8.29159076e-005          -146.683827          0.125849162           54.6724701      5.74981031e-005          -171.989156
      0.000132863473          -138.755061         0.0581647608           55.3503846      5.74981031e-005          -171.989156          0.106411022           56.4134163

!
           140000000          0.164499114           39.1617235      3.38828435e-005    77.91016260000001          0.094614737           40.7470483       0.000135293366          -157.950584
     3.38828435e-005    77.91016260000001          0.147619899            40.716612      8.38216785e-005          -167.205552         0.0864667383           42.7251276
         0.094614737           40.7470483      8.38216785e-005          -167.205552          0.160482886           38.8565903      5.98558776e-005           162.779528
      0.000135293366          -157.950584         0.0864667383           42.7251276      5.98558776e-005           162.779528          0.141600452    41.02100990000001

!
           150000000          0.191839343           23.9069451      4.23126129e-005           58.2766888          0.115289868            26.760956       0.000136047999          -176.257271
     4.23126129e-005           58.2766888          0.176175069           25.7188623      8.34337961e-005           173.239109          0.108645341           29.0735094
         0.115289868            26.760956      8.34337961e-005           173.239109           0.18760777           23.6198701      6.09271548e-005           138.695611
      0.000136047999          -176.257271          0.108645341           29.0735094      6.09271548e-005           138.695611          0.169892737           26.0326767

!
           160000000          0.210801477           9.11296791      5.02022284e-005    38.10498070000001          0.128581522           12.9093525       0.000135891226           166.292126
     5.02022284e-005    38.10498070000001          0.196732114           11.0631034      8.22794089e-005           154.630721          0.123750513           15.3231961
         0.128581522           12.9093525      8.22794089e-005           154.630721          0.206339221    8.831646169999999      6.10384999e-005           115.802032
      0.000135891226           166.292126          0.123750513           15.3231961      6.10384999e-005           115.802032          0.190193797           11.4001369

!
           170000000          0.221113941   -5.345658739999999      5.75748042e-005           17.9354329          0.134295668         -0.720555504       0.000135382623           149.579286
     5.75748042e-005           17.9354329           0.20886195          -3.33210925      8.07286982e-005           136.852476           0.13143029            1.6723956
         0.134295668         -0.720555504      8.07286982e-005           136.852476          0.216394988   -5.629566520000001       6.0498377e-005           94.0262816
      0.000135382623           149.579286           0.13143029            1.6723956       6.0498377e-005           94.0262816          0.202057101   -2.957076110000001

!
           180000000          0.222831408          -19.5903092 6.456119310000001e-005          -2.11382785          0.132473016           -14.145003       0.000134832373           133.469589
6.456119310000001e-005          -2.11382785          0.212514611           -17.573629 7.895516870000001e-005           119.776507          0.131630194          -11.8730738
         0.132473016           -14.145003 7.895516870000001e-005           119.776507          0.217823338          -19.8828078 5.952012429999999e-005           73.2306427
      0.000134832373           133.469589          0.131630194          -11.8730738 5.952012429999999e-005           73.2306427          0.205421335          -17.1412384

!
           190000000            0.2161959   -33.71767930000001      7.12787781e-005          -22.1142153          0.123277135          -27.3489228       0.000134366013           117.867317
     7.12787781e-005          -22.1142153          0.207852249          -31.7683745 7.698561180000001e-005           103.344213          0.124441527          -25.3376012
         0.123277135          -27.3489228 7.698561180000001e-005           103.344213          0.210865541   -34.02284350000001      5.81906039e-005           53.2662951
      0.000134366013           117.867317          0.124441527          -25.3376012      5.81906039e-005           53.2662951          0.200445754          -31.2504989

!
           200000000          0.201661154   -47.76754520000001 7.774220790000001e-005          -42.2096118           0.10706872          -40.1441967        0.00013404992           102.745958
7.774220790000001e-005          -42.2096118          0.195228888          -45.9943411      7.48088223e-005    87.62685140000001          0.110117622   -38.66553239999999
          0.10706872          -40.1441967      7.48088223e-005    87.62685140000001          0.195981103   -48.08659920000001 5.647139080000001e-005    34.03768660000001
       0.00013404992           102.745958          0.110117622   -38.66553239999999 5.647139080000001e-005    34.03768660000001          0.187491666          -45.3470504

!
           210000000          0.180056778          -61.6793136      8.38020616e-005   -62.53932720000001         0.0846489087          -51.8589603       0.000134047629           88.1431434
     8.38020616e-005   -62.53932720000001          0.175308328   -60.26774810000001 7.253020240000001e-005           72.8459033          0.089239392   -51.54541389999999
        0.0846489087          -51.8589603 7.253020240000001e-005           72.8459033          0.174012103   -62.00699590000001 5.423737700000001e-005           15.5875479
      0.000134047629           88.1431434          0.089239392   -51.54541389999999 5.423737700000001e-005           15.5875479           0.16724173   -59.41746679999999

!
           220000000          0.152817273          -75.2316692      8.91282428e-005          -83.1777726  0.05770440599999999          -60.1943304         0.0001347625            74.104688
     8.91282428e-005          -83.1777726          0.149262959   -74.50385470000001      7.05460405e-005            59.300103  0.06299261740000001   -62.85111590000001
 0.05770440599999999          -60.1943304      7.05460405e-005            59.300103          0.146411373   -75.54516940000001      5.13751004e-005          -1.79864885
        0.0001347625            74.104688  0.06299261740000001   -62.85111590000001      5.13751004e-005          -1.79864885          0.140899997          -73.3167742

!
           230000000          0.122142473          -87.9479113      9.32656294e-005          -104.094796         0.0303936255          -54.2752926       0.000136870348           60.5773116
     9.32656294e-005          -104.094796          0.118939143          -88.4629023      6.96361645e-005           47.1226616  0.03372942610000001           -67.237433
        0.0303936255          -54.2752926      6.96361645e-005           47.1226616            0.1154025   -88.17254509999999 4.795732960000001e-005          -17.5007827
      0.000136870348           60.5773116  0.03372942610000001           -67.237433 4.795732960000001e-005          -17.5007827          0.110360694   -86.66790930000001

!
           240000000         0.0909502138   -98.91284140000001      9.57620376e-005          -125.151503         0.0223200937           3.15518906       0.000141138942    47.30993260000001
     9.57620376e-005          -125.151503         0.0868467912          -101.638821      7.07914377e-005           35.9200314         0.0129960981          -11.3257157
        0.0223200937           3.15518906      7.07914377e-005           35.9200314         0.0839416606          -98.8064703      4.44706508e-005   -30.59039609999999
      0.000141138942    47.30993260000001         0.0129960981          -11.3257157      4.44706508e-005   -30.59039609999999         0.0782157567   -98.59534090000001

!
           250000000         0.0626051401          -106.380127 9.630878900000002e-005          -146.134694         0.0440521194           25.5228819       0.000148084047           33.8752029
9.630878900000002e-005          -146.134694  0.05590947970000001          -112.885065       7.4729718e-005           24.6867535         0.0341965136           37.3247817
        0.0440521194           25.5228819       7.4729718e-005           24.6867535         0.0555053004          -105.111828 4.199495900000001e-005          -40.2558612
      0.000148084047           33.8752029         0.0341965136           37.3247817 4.199495900000001e-005          -40.2558612         0.0476018798          -106.671805

!
           260000000         0.0405633626          -107.288626      9.48066426e-005          -166.806175         0.0671760037            20.036822        0.00015772118           19.8345842
     9.48066426e-005          -166.806175         0.0291519947          -118.537408      8.14819405e-005           12.3252515         0.0600257222           32.0220689
        0.0671760037            20.036822      8.14819405e-005           12.3252515         0.0339887908          -102.081985      4.20790517e-005          -46.9465835
       0.00015772118           19.8345842         0.0600257222           32.0220689      4.20790517e-005          -46.9465835         0.0225738103          -100.726315

!
           270000000         0.0275154452          -99.9004826 9.132711779999999e-005           173.074047           0.08458994    8.696310540000001       0.000169607232             4.900643
9.132711779999999e-005           173.074047         0.0106024507          -96.8487241      9.04771391e-005          -1.75445279  0.08068976160000001           20.4208951
          0.08458994    8.696310540000001      9.04771391e-005          -1.75445279         0.0231099064          -85.9693967 4.601748520000001e-005   -53.21703470000001
      0.000169607232             4.900643  0.08068976160000001           20.4208951 4.601748520000001e-005   -53.21703470000001         0.0136649893   -47.05007080000001

!
           280000000          0.022031165   -94.58168430000001 8.603374139999999e-005           153.784288         0.0942313444          -4.51724672       0.000183052677          -11.0342349
