! Tyco Electronics Strada Whisper System
! THRU_G1112
!! 
!! SYSTEM DESCRIPTION: Daughtercard-Footprint-Connector-Footprint-Daughtercard
!! PCB DESCRIPTION: DC: 140mil, Megtron7N, upper layer route, 15mil stub, 6-6-6mil 12" traces
!! CONNECTOR DESCRIPTION: Next-Gen STRADA Whisper Direct-Plug Orthogonal Connector
!! MODEL DESCRIPTION: Tyco Electronics System 4-port S-parameter 
!! MODEL STATUS: Developmental
!! MODEL GEOMETRY: Channel Model
!! MODEL FREQUENCY RANGE: DC to 60 GHz in 10 MHz frequency steps
!! MODEL EDGE RATE LIMITATION: 8.3 ps (Using conservative 0.5/Fmax rule of thumb)
!! 
!! TIME-DOMAIN TRANSFORM CAUTIONS: 
!! 1.) Do not simulate transient edge rates faster than the number listed above.  Edge rates faster than this number 
!!     contain significant spectral content at frequencies above the model's highest frequency. 
!! 2.) Even when simulating edge rates that are slower than the number listed above, be aware that the best time 
!!     resolution possible with a direct iFFT is (1 / 2Fmax).  As a result, time resolution is typically not adequate 
!!     for most time-domain simulations unless tricks such as windowing are used to minimize leakage and aliasing. 
!! 3.) Because the model has a uniform frequency step, a direct iFFT will result in an impulse that that has a time 
!!     length given by either (1 / Fstep) or (1 / 2Fstep), depending on the transform being used.  Care has been taken 
!!     in selecting the frequency step to ensure a settled impulse response for the model.  Therefore, convolution with 
!!     the model's impulse response should present no issues.  However, if directly concatenating s-parameter models 
!!     in the frequency domain a user must either interpolate necessary interim frequencies or complete impulse response 
!!     zero-padding.  Impulse response zero-padding is more difficult, but more accurate. 
!! 
!! PORT DEFINITIONS: 
!! Port   1  ----->  TX Side      G11     RX Side  <-----  Port   2
!! Port   3  ----->  TX Side      G12     RX Side  <-----  Port   4
!! 
!!!!!!!!!!!!!!!!!!!!!!!!!!!!!!!!!!!!!!!!!!!!!!!!!!!!!!!!!!!!!!!!!!!!!!!!!!!!!!!!!!!!!!!!!!!!!!!!!!!!!!!!!!!!!!!!!!!!!!!!
! Touchstone data
! Created: 10-Dec-2018 by IdEM R2012 (8.0.5)
# Hz S MA R 50

!
                   0         0.0517071932                    0          0.946488735                    0        0.00172075336                    0        0.00135755194                  180
         0.946488735                    0         0.0514105367                    0        0.00137840695                  180        0.00190984166                    0
       0.00172075336                    0        0.00137840695                  180         0.0519584674                    0          0.946299779                    0
       0.00135755194                  180        0.00190984166                    0          0.946299779                    0         0.0515213991                    0

!
            10000000         0.0618435976           15.5962995   0.9437231650000001          -16.3193312         0.0334878427           70.9580982         0.0027537506          -156.316958
  0.9437231650000001          -16.3193312         0.0616659692           15.8109953        0.00274676583          -157.176612         0.0336020913           70.6216743
        0.0334878427           70.9580982        0.00274676583          -157.176612         0.0622506146           15.7555774          0.943526522          -16.3213267
        0.0027537506          -156.316958         0.0336020913           70.6216743          0.943526522          -16.3213267         0.0619295343           16.0101787

!
            20000000         0.0806461612            17.719689          0.939818928          -32.5497968  0.06392024139999999           56.4674859 0.004782069800000001           179.228048
         0.939818928          -32.5497968  0.08067217090000001            17.924155         0.0047618778            178.34727         0.0641311468    56.25374269999999
 0.06392024139999999           56.4674859         0.0047618778            178.34727          0.081368618           17.9017524   0.9396002249999998          -32.5531766
0.004782069800000001           179.228048         0.0641311468    56.25374269999999   0.9396002249999998          -32.5531766         0.0812306255           18.1561476

!
            30000000  0.09836398120000001            11.530912   0.9354953230000002          -48.6735232         0.0890190199           41.2275052        0.00658573428           146.335463
  0.9354953230000002          -48.6735232  0.09858315690000001           11.6660592        0.00657734533           145.352528         0.0893260471           41.0298026
        0.0890190199           41.2275052        0.00657734533           145.352528          0.099435787           11.7003829          0.935246166           -48.677231
       0.00658573428           146.335463         0.0893260471           41.0298026          0.935246166           -48.677231          0.099453024           11.8929564

!
            40000000          0.110209068           1.46026208          0.931693052          -64.6963583          0.107043774           25.9606027        0.00801952249           110.943048
         0.931693052          -64.6963583          0.110608682           1.51623805        0.00805008558           109.877259          0.107443884    25.74520740000001
         0.107043774           25.9606027        0.00805008558           109.877259          0.111637966           1.61755583   0.9314130539999999   -64.69906039999999
       0.00801952249           110.943048          0.107443884    25.74520740000001   0.9314130539999999   -64.69906039999999          0.111784604           1.74466565

!
            50000000          0.113942632          -10.5691985          0.929175724          -80.6549121           0.11686583           10.7610949        0.00901837346           74.2604831
         0.929175724          -80.6549121          0.114517721          -10.6050831        0.00911308588           73.1899899          0.117356173           10.5038189
          0.11686583           10.7610949        0.00911308588           73.1899899          0.115734872           -10.418438          0.928873476   -80.65518880000001
       0.00901837346           74.2604831          0.117356173           10.5038189          0.928873476   -80.65518880000001          0.115994598          -10.3589102

!
            60000000          0.108510743          -23.7936381          0.928294689   -96.60678660000001          0.117824763   -4.390537929999999        0.00953836699           36.4073237
         0.928294689   -96.60678660000001           0.10926228          -23.9528163        0.00971478686            35.460732          0.118402586           -4.7192812
         0.117824763   -4.390537929999999        0.00971478686            35.460732          0.110675289          -23.6427141   0.9279880870000001          -96.6033278
       0.00953836699           36.4073237          0.118402586           -4.7192812   0.9279880870000001          -96.6033278          0.111038271          -23.6639602

!
            70000000  0.09352812369999999   -37.97829360000001          0.928870829          -112.615979           0.10965099          -19.4987217        0.00955001841           -3.0258776
         0.928870829          -112.615979         0.0944619345          -38.3341192        0.00981148387   -3.654170419999999          0.110311508   -19.94763560000001
          0.10965099          -19.4987217        0.00981148387   -3.654170419999999  0.09607494819999998          -37.8162553   0.9285869450000001           -112.60779
       0.00955001841           -3.0258776          0.110311508   -19.94763560000001   0.9285869450000001           -112.60779         0.0965362708           -37.954932

!
            80000000         0.0691777229          -53.2643417           0.93017133           -128.73575         0.0925462693          -34.4189061 0.009064000439999999   -44.98546870000001
          0.93017133           -128.73575         0.0703083426   -54.01038820000001 0.009390576180000001   -44.99304710000001         0.0932772127          -35.0861321
        0.0925462693          -34.4189061 0.009390576180000001   -44.99304710000001         0.0721127493          -53.0570818          0.929945357           -128.72237
0.009064000439999999   -44.98546870000001         0.0932772127          -35.0861321          0.929945357           -128.72237         0.0726740919          -53.4136999

!
            90000000  0.03639273580000001   -71.02512400000001          0.931013576          -144.990028         0.0674263965          -48.5038203 0.008205953199999999   -91.22358319999999
         0.931013576          -144.990028         0.0377809327   -72.92067350000001 0.008539049179999999   -90.14704279999999         0.0681926871          -49.6411717
        0.0674263965          -48.5038203 0.008539049179999999   -90.14704279999999         0.0397064123           -70.517754          0.930885933          -144.971746
0.008205953199999999   -91.22358319999999         0.0681926871          -49.6411717          0.930885933          -144.971746         0.0403932733          -71.4798955

!
           100000000        0.00491024828           146.586007          0.930063639          -161.358059         0.0363119753   -58.48280460000001 0.007364744400000001          -144.282584
         0.930063639          -161.358059         0.0057838143           169.618514        0.00758484393          -141.679659         0.0369759715          -61.1156731
        0.0363119753   -58.48280460000001        0.00758484393          -141.679659        0.00371802838          -164.999884          0.930074564          -161.336059
0.007364744400000001          -144.282584         0.0369759715          -61.1156731          0.930074564          -161.336059        0.00483860337          -158.060182

!
           110000000         0.0468439545    87.84198979999999          0.926317201          -177.772056 0.008516899790000001          0.920814531 0.007302560619999999           155.723022
         0.926317201          -177.772056         0.0455744582           90.9112544 0.007257019959999999           159.108128        0.00684023079          -8.34501758
0.008516899790000001          0.920814531 0.007257019959999999           159.108128         0.0428367001            88.530507   0.9264995230000001          -177.748407
0.007302560619999999           155.723022        0.00684023079          -8.34501758   0.9264995230000001          -177.748407         0.0422191631           90.4108202

!
           120000000         0.0905381191           69.8831728   0.9195594100000001           165.864408         0.0364441724            61.916855        0.00865440112           96.6937463
  0.9195594100000001           165.864408         0.0890715334    71.75802210000001        0.00833466695    98.82840050000002         0.0349008957           64.7773376
        0.0364441724            61.916855        0.00833466695    98.82840050000002         0.0862218521    70.21897840000001          0.919931976           165.886955
       0.00865440112           96.6937463         0.0349008957           64.7773376          0.919931976           165.886955  0.08548833689999999           71.3417791

!
           130000000          0.131229101    53.49679210000001          0.910502523           149.642492         0.0686865661           52.4926664         0.0111914989    45.73164529999999
         0.910502523           149.642492          0.129652746           55.0156771          0.010746621    46.26037160000001         0.0672674592           54.3608945
        0.0686865661           52.4926664          0.010746621    46.26037160000001           0.12665568           53.7644824          0.911067141           149.660854
        0.0111914989    45.73164529999999         0.0672674592           54.3608945          0.911067141           149.660854          0.125849162           54.6724701

!
           140000000          0.166145268           37.7739945          0.900496189           133.617004         0.0960004184    39.20803939999999         0.0143011593           2.08572027
         0.900496189           133.617004          0.164499114           39.1617235         0.0138587694            1.6948503          0.094614737           40.7470483
        0.0960004184    39.20803939999999         0.0138587694            1.6948503            0.1613484           38.0242181          0.901239019           133.628149
        0.0143011593           2.08572027          0.094614737           40.7470483          0.901239019           133.628149          0.160482886           38.8565903

!
           150000000          0.193527627           22.5459332          0.891026419           117.793931          0.116656794           25.3304412         0.0175256271          -36.8063129
         0.891026419           117.793931          0.191839343           23.9069451         0.0171572873          -37.6091546          0.115289868            26.760956
         0.116656794           25.3304412         0.0171572873          -37.6091546          0.188523973    22.79840340000001          0.891922122           117.795166
        0.0175256271          -36.8063129          0.115289868            26.760956          0.891922122           117.795166           0.18760777           23.6198701

!
           160000000          0.212509747           7.70915873   0.8833076790000001           102.137155          0.129928594           11.4696768         0.0205837858          -72.6727956
  0.8833076790000001           102.137155          0.210801477           9.11296791         0.0203268476          -73.6198651          0.128581522           12.9093525
         0.129928594           11.4696768         0.0203268476          -73.6198651          0.207298799    7.977067309999998   0.8843236440000001           102.126287
        0.0205837858          -72.6727956          0.128581522           12.9093525   0.8843236440000001           102.126287          0.206339221    8.831646169999999

!
           170000000          0.222821434          -6.85403215          0.878096825           86.5840886          0.135613866          -2.26317898         0.0232924865          -106.529532
         0.878096825           86.5840886          0.221113941   -5.345658739999999         0.0231646707          -107.480331          0.134295668         -0.720555504
         0.135613866          -2.26317898         0.0231646707          -107.480331          0.217388862   -6.557521600000001          0.879195757           86.5594875
        0.0232924865          -106.529532          0.134295668         -0.720555504          0.879195757           86.5594875          0.216394988   -5.629566520000001

!
           180000000          0.224514117          -21.2715456           0.87567172            71.060851          0.133742695          -15.8951199         0.0255108038          -138.994792
          0.87567172            71.060851          0.222831408          -19.5903092         0.0255173378          -139.869671          0.132473016           -14.145003
         0.133742695          -15.8951199         0.0255173378          -139.869671          0.218837667          -20.9298404   0.8768123960000001    71.02150260000001
        0.0255108038          -138.994792          0.132473016           -14.145003   0.8768123960000001    71.02150260000001          0.217823338          -19.8828078

!
           190000000          0.217820469          -35.6594791          0.875868452            55.493996          0.124459209          -29.4553346         0.0271099581          -170.450626
         0.875868452            55.493996            0.2161959   -33.71767930000001          0.027247185          -171.198923          0.123277135          -27.3489228
         0.124459209          -29.4553346          0.027247185          -171.198923          0.211877554           -35.248877          0.877005569    55.43959340000001
        0.0271099581          -170.450626          0.123277135          -27.3489228          0.877005569    55.43959340000001          0.210865541   -34.02284350000001

!
           200000000           0.20317616          -50.0944575          0.878121033           39.8204765           0.10808576          -42.8608884         0.0279663248           158.895839
         0.878121033           39.8204765          0.201661154   -47.76754520000001         0.0282237442           158.311491           0.10706872          -40.1441967
          0.10808576          -42.8608884         0.0282237442           158.311491          0.196952776   -49.57827950000001          0.879205632           39.7515734
        0.0279663248           158.895839           0.10706872          -40.1441967          0.879205632           39.7515734          0.195981103   -48.08659920000001

!
           210000000           0.18137956   -64.58198280000001   0.8815190459999999           23.9981123         0.0853370668          -55.7014816           0.02797806           129.001633
  0.8815190459999999           23.9981123          0.180056778          -61.6793136         0.0283400011           128.613686         0.0846489087          -51.8589603
        0.0853370668          -55.7014816         0.0283400011           128.613686          0.174880103          -63.8994024   0.8825010280000001           23.9162923
          0.02797806           129.001633         0.0846489087          -51.8589603   0.8825010280000001           23.9162923          0.174012103   -62.00699590000001

!
           220000000          0.153812606   -79.02156530000001          0.884943395           8.01590979         0.0576444108          -66.4645364         0.0271038341    99.99959610000001
         0.884943395           8.01590979          0.152817273          -75.2316692         0.0275517736    99.84024280000001  0.05770440599999999          -60.1943304
        0.0576444108          -66.4645364         0.0275517736    99.84024280000001          0.147070059           -78.063873          0.885777017           7.92387703
        0.0271038341    99.99959610000001  0.05770440599999999          -60.1943304          0.885777017           7.92387703          0.146411373   -75.54516940000001

!
           230000000          0.122584517   -93.16763880000001          0.887321432   -8.100692049999999         0.0279715752          -66.9713726         0.0254127645    72.21028939999999
         0.887321432   -8.100692049999999          0.122142473          -87.9479113          0.025929037    72.31300349999999         0.0303936255          -54.2752926
        0.0279715752          -66.9713726          0.025929037    72.31300349999999          0.115671715          -91.7220502   0.8879731879999999   -8.199210819999999
        0.0254127645    72.21028939999999         0.0303936255          -54.2752926   0.8879731879999999   -8.199210819999999            0.1154025   -88.17254509999999

!
           240000000  0.09044620719999999          -106.569686   0.8879465680000001          -24.2960598         0.0150844066    8.834385340000001         0.0231220708           46.1257343
  0.8879465680000001          -24.2960598         0.0909502138   -98.91284140000001         0.0236949236           46.5213965         0.0223200937           3.15518906
        0.0150844066    8.834385340000001         0.0236949236           46.5213965         0.0834958261          -104.167698   0.8884029889999999          -24.3966524
        0.0231220708           46.1257343         0.0223200937           3.15518906   0.8884029889999999          -24.3966524         0.0839416606          -98.8064703

!
           250000000         0.0604313984          -118.422978          0.886701623          -40.5034068         0.0395209669    34.61834420000001         0.0205946668           22.3109864
